!File created by NanoVNA
# Hz S RI R 50
4995000000  0.224563152 -0.707435264  0.020132592  0.058126852 0 0 0 0
5000050000  0.155782576 -0.723483904  0.022283714  0.057433880 0 0 0 0
5005100000  0.090895016 -0.732700544  0.025176952  0.056209504 0 0 0 0
5010150000  0.011388165 -0.736857216  0.027792794  0.055703896 0 0 0 0
5015200000 -0.063719876 -0.730925184  0.030351920  0.054730708 0 0 0 0
5020250000 -0.143747664 -0.711714368  0.035823744  0.053120452 0 0 0 0
5025300000 -0.222805280 -0.687719744  0.038763928  0.051931864 0 0 0 0
5030350000 -0.282638400 -0.661915648  0.041664424  0.050558560 0 0 0 0
5035400000 -0.351256608 -0.623570496  0.044368948  0.049479608 0 0 0 0
5040450000 -0.415085440 -0.566280320  0.047805240  0.047428112 0 0 0 0
5045500000 -0.469255136 -0.515803648  0.051105208  0.045360580 0 0 0 0
5050550000 -0.514756576 -0.455122368  0.053829492  0.044003192 0 0 0 0
5055600000 -0.552422848 -0.391582464  0.057019660  0.041360272 0 0 0 0
5060650000 -0.584347264 -0.323709248  0.059666368  0.039575416 0 0 0 0
5065700000 -0.607873152 -0.256452864  0.062692100  0.037107352 0 0 0 0
5070750000 -0.624362624 -0.194113952  0.065699020  0.034910808 0 0 0 0
5075800000 -0.636905152 -0.119530744  0.068540352  0.032629352 0 0 0 0
5080850000 -0.638332736 -0.046429772  0.071970136  0.028751180 0 0 0 0
5085900000 -0.636317760  0.016322081  0.074632184  0.027090354 0 0 0 0
5090950000 -0.626902976  0.091792288  0.077543768  0.023853806 0 0 0 0
5096000000 -0.612676416  0.147361696  0.080653816  0.021034082 0 0 0 0
5101050000 -0.584686976  0.223472624  0.083772712  0.017296366 0 0 0 0
5106100000 -0.561393280  0.279334912  0.086764184  0.013031435 0 0 0 0
5111150000 -0.522355744  0.339162048  0.090061304  0.009381581 0 0 0 0
5116200000 -0.483799264  0.395775264  0.092831504  0.004980872 0 0 0 0
5121250000 -0.435424544  0.443569344  0.095636720 -0.000283757 0 0 0 0
5126300000 -0.384758752  0.487860352  0.098184320 -0.005076676 0 0 0 0
5131350000 -0.335496416  0.526168704  0.100125240 -0.011754081 0 0 0 0
5136400000 -0.273683552  0.561549312  0.102337768 -0.016801660 0 0 0 0
5141450000 -0.218360960  0.588528000  0.103647744 -0.024075476 0 0 0 0
5146500000 -0.155819200  0.604581504  0.104189800 -0.031921044 0 0 0 0
5151550000 -0.091011912  0.623085120  0.104530464 -0.038632736 0 0 0 0
5156600000 -0.039925872  0.630184768  0.104127648 -0.046083340 0 0 0 0
5161650000  0.034495368  0.637852672  0.102203160 -0.054065804 0 0 0 0
5166700000  0.096396448  0.629240768  0.099991648 -0.061421740 0 0 0 0
5171750000  0.155838336  0.622551680  0.096572824 -0.069262024 0 0 0 0
5176800000  0.216780816  0.602504896  0.092269168 -0.075971384 0 0 0 0
5181850000  0.273865056  0.585048640  0.087517384 -0.082489456 0 0 0 0
5186900000  0.327097440  0.559959552  0.081901064 -0.087782744 0 0 0 0
5191950000  0.381744320  0.531590464  0.075646624 -0.093023664 0 0 0 0
5197000000  0.432326656  0.496036416  0.068971904 -0.097218008 0 0 0 0
5202050000  0.478597984  0.454855456  0.062758900 -0.100355512 0 0 0 0
5207100000  0.519161344  0.417813440  0.055444228 -0.103352496 0 0 0 0
5212150000  0.559331648  0.370583008  0.049326224 -0.104778296 0 0 0 0
5217200000  0.594885440  0.320521920  0.043224764 -0.105856224 0 0 0 0
5222250000  0.623577280  0.268211632  0.036523900 -0.106504600 0 0 0 0
5227300000  0.647405248  0.214933616  0.031343498 -0.106586400 0 0 0 0
5232350000  0.668693504  0.158583040  0.024255338 -0.106417680 0 0 0 0
5237400000  0.682822464  0.095723928  0.019045798 -0.105777800 0 0 0 0
5242450000  0.690416128  0.035552504  0.014747175 -0.104787160 0 0 0 0
5247500000  0.694716672 -0.023699018  0.010102367 -0.103616368 0 0 0 0
5252550000  0.693010880 -0.085061496  0.006974296 -0.102678512 0 0 0 0
5257600000  0.685518144 -0.143205248  0.003893733 -0.101503096 0 0 0 0
5262650000  0.668664832 -0.203640752  0.000080004 -0.100395520 0 0 0 0
5267700000  0.650572096 -0.262232688 -0.002550864 -0.099659432 0 0 0 0
5272750000  0.626817280 -0.319716544 -0.005615721 -0.098769536 0 0 0 0
5277800000  0.592793344 -0.377349024 -0.007014892 -0.098402976 0 0 0 0
5282850000  0.562689600 -0.425223360 -0.009572426 -0.098176792 0 0 0 0
5287900000  0.512176512 -0.474914304 -0.011869671 -0.098113344 0 0 0 0
5292950000  0.466051872 -0.518490240 -0.014668431 -0.097879976 0 0 0 0
5298000000  0.422842368 -0.561394304 -0.015408352 -0.098771432 0 0 0 0
5303050000  0.363035072 -0.598264576 -0.017719530 -0.099642184 0 0 0 0
5308100000  0.299979648 -0.623883712 -0.020919312 -0.100159368 0 0 0 0
5313150000  0.236126144 -0.649002752 -0.022877570 -0.101520472 0 0 0 0
5318200000  0.165132800 -0.664534272 -0.025535824 -0.102473336 0 0 0 0
5323250000  0.100895784 -0.678572224 -0.028262396 -0.103958976 0 0 0 0
5328300000  0.029929928 -0.678931456 -0.030365818 -0.105463344 0 0 0 0
5333350000 -0.045759172 -0.665110912 -0.034051804 -0.106754296 0 0 0 0
5338400000 -0.099182960 -0.661786176 -0.034087032 -0.109733816 0 0 0 0
5343450000 -0.202139232 -0.605880768 -0.043184736 -0.108734072 0 0 0 0
5348500000 -0.257632288 -0.574853760 -0.045200404 -0.110678152 0 0 0 0
5353550000 -0.285642176 -0.571410624 -0.047451340 -0.113263536 0 0 0 0
5358600000 -0.349618752 -0.507977536 -0.053414476 -0.113669760 0 0 0 0
5363650000 -0.396165920 -0.467758016 -0.054551480 -0.117256184 0 0 0 0
5368700000 -0.436503200 -0.412025664 -0.060223112 -0.118428800 0 0 0 0
5373750000 -0.473510304 -0.355610208 -0.065911652 -0.119770232 0 0 0 0
5378800000 -0.502546784 -0.297413056 -0.070185688 -0.122150528 0 0 0 0
5383850000 -0.521578368 -0.242149600 -0.077249424 -0.123070624 0 0 0 0
5388900000 -0.540047424 -0.173733696 -0.082232560 -0.125443968 0 0 0 0
5393950000 -0.550362496 -0.107895608 -0.090282680 -0.125875296 0 0 0 0
5399000000 -0.550452224 -0.057539680 -0.096137552 -0.128098160 0 0 0 0
5404050000 -0.548560640  0.011648813 -0.105219944 -0.127748832 0 0 0 0
5409100000 -0.539630144  0.070008504 -0.113594040 -0.128005040 0 0 0 0
5414150000 -0.524019712  0.128460376 -0.121958280 -0.128157648 0 0 0 0
5419200000 -0.503154144  0.182855680 -0.129144312 -0.129593296 0 0 0 0
5424250000 -0.474884352  0.237797744 -0.140813184 -0.126170592 0 0 0 0
5429300000 -0.441930016  0.290303424 -0.150716736 -0.124200080 0 0 0 0
5434350000 -0.412324320  0.332667008 -0.161153520 -0.120215256 0 0 0 0
5439400000 -0.367432224  0.375318464 -0.171645120 -0.116615848 0 0 0 0
5444450000 -0.320140000  0.417562560 -0.181883632 -0.112445624 0 0 0 0
5449500000 -0.280822272  0.434674592 -0.192465872 -0.106111240 0 0 0 0
5454550000 -0.225476128  0.469427904 -0.204232224 -0.095994472 0 0 0 0
5459600000 -0.192568752  0.497168992 -0.213967984 -0.087963584 0 0 0 0
5464650000 -0.130943568  0.507078176 -0.223091312 -0.078878608 0 0 0 0
5469700000 -0.083907048  0.519379616 -0.231843632 -0.067355600 0 0 0 0
5474750000 -0.030629360  0.521591616 -0.239817568 -0.053509192 0 0 0 0
5479800000  0.019247672  0.525223808 -0.246203632 -0.041508552 0 0 0 0
5484850000  0.066333876  0.526715936 -0.251855792 -0.024074210 0 0 0 0
5489900000  0.117854960  0.512714432 -0.255786480 -0.013034935 0 0 0 0
5494950000  0.167653632  0.502118880 -0.258154624  0.002503816 0 0 0 0
5500000000  0.208388448  0.486410176 -0.259078928  0.020005566 0 0 0 0
5505050000  0.254328368  0.465650528 -0.259150144  0.031238044 0 0 0 0
5510100000  0.295938240  0.443141568 -0.256035536  0.051332492 0 0 0 0
5515150000  0.332943904  0.419086272 -0.252507888  0.067402192 0 0 0 0
5520200000  0.370704512  0.391518944 -0.248464368  0.078992824 0 0 0 0
5525250000  0.402853088  0.360952416 -0.242740192  0.092427608 0 0 0 0
5530300000  0.433553472  0.321405376 -0.236628416  0.105080616 0 0 0 0
5535350000  0.457519136  0.291392000 -0.230640432  0.115786640 0 0 0 0
5540400000  0.479844192  0.246284560 -0.222605696  0.127383728 0 0 0 0
5545450000  0.501684832  0.209212848 -0.216113456  0.135312176 0 0 0 0
5550500000  0.517549632  0.167484624 -0.207377680  0.145884592 0 0 0 0
5555550000  0.526811712  0.127523480 -0.200712752  0.152011584 0 0 0 0
5560600000  0.535607744  0.083536056 -0.191763280  0.160826992 0 0 0 0
5565650000  0.536651744  0.036392732 -0.184793648  0.167366528 0 0 0 0
5570700000  0.537672640 -0.003963130 -0.177641472  0.172489360 0 0 0 0
5575750000  0.537677632 -0.045396376 -0.169215712  0.179532176 0 0 0 0
5580800000  0.531956032 -0.090509840 -0.164314352  0.183425472 0 0 0 0
5585850000  0.517880864 -0.132838216 -0.155586880  0.190576000 0 0 0 0
5590900000  0.506006304 -0.173230880 -0.152297568  0.193868832 0 0 0 0
5595950000  0.483613984 -0.215983248 -0.146254032  0.199089792 0 0 0 0
5601000000  0.472432480 -0.253439456 -0.139566928  0.205130272 0 0 0 0
5606050000  0.441681472 -0.291042944 -0.134002744  0.210611488 0 0 0 0
5611100000  0.424233248 -0.324304000 -0.130983752  0.215155344 0 0 0 0
5616150000  0.378271072 -0.361462912 -0.123020456  0.222734880 0 0 0 0
5621200000  0.343176768 -0.392745696 -0.118592088  0.228841008 0 0 0 0
5626250000  0.310877184 -0.416900960 -0.113985048  0.234653552 0 0 0 0
5631300000  0.272368960 -0.445987456 -0.105326696  0.242928240 0 0 0 0
5636350000  0.221203856 -0.461382016 -0.100356816  0.249538416 0 0 0 0
5641400000  0.174269840 -0.479788384 -0.093972904  0.257402272 0 0 0 0
5646450000  0.120514888 -0.487892800 -0.084191896  0.266040736 0 0 0 0
5651500000  0.086997328 -0.499539168 -0.078161920  0.272888416 0 0 0 0
5656550000  0.023137554 -0.494970848 -0.069412640  0.281031520 0 0 0 0
5661600000 -0.027492398 -0.484754944 -0.057320912  0.288928192 0 0 0 0
5666650000 -0.059690160 -0.485591168 -0.051130988  0.295816384 0 0 0 0
5671700000 -0.123849160 -0.463515296 -0.039103196  0.304087136 0 0 0 0
5676750000 -0.171969600 -0.439014624 -0.024204814  0.310228608 0 0 0 0
5681800000 -0.212753184 -0.415103776 -0.014308701  0.317890016 0 0 0 0
5686850000 -0.248206864 -0.386989408  0.001581210  0.324374048 0 0 0 0
5691900000 -0.284690272 -0.356850624  0.011758300  0.330267488 0 0 0 0
5696950000 -0.326700288 -0.313636064  0.031013370  0.335768672 0 0 0 0
5702000000 -0.350713760 -0.279802272  0.049548092  0.340734304 0 0 0 0
5707050000 -0.375216512 -0.236035360  0.062147128  0.344851424 0 0 0 0
5712100000 -0.401846656 -0.180066192  0.084387664  0.346466016 0 0 0 0
5717150000 -0.413764128 -0.140808912  0.101146480  0.348983648 0 0 0 0
5722200000 -0.424174592 -0.091433080  0.119597736  0.350276512 0 0 0 0
5727250000 -0.425752992 -0.050901728  0.141605648  0.348121376 0 0 0 0
5732300000 -0.430926464  0.005726299  0.161114192  0.346122112 0 0 0 0
5737350000 -0.426898624  0.051388716  0.189969712  0.336261824 0 0 0 0
5742400000 -0.411192736  0.100896008  0.202613040  0.335160960 0 0 0 0
5747450000 -0.402679040  0.145038848  0.228993776  0.321900224 0 0 0 0
5752500000 -0.375102304  0.183092608  0.249559600  0.311549088 0 0 0 0
5757550000 -0.354570048  0.222249776  0.267574080  0.300559488 0 0 0 0
5762600000 -0.329843680  0.253138960  0.312926176  0.264737584 0 0 0 0
5767650000 -0.301248832  0.285605120  0.303013664  0.271549632 0 0 0 0
5772700000 -0.267072352  0.315559872  0.322796928  0.249988640 0 0 0 0
5777750000 -0.231444512  0.332644352  0.355765408  0.209357920 0 0 0 0
5782800000 -0.199358976  0.356034400  0.349992448  0.211156464 0 0 0 0
5787850000 -0.169368864  0.368853344  0.380324800  0.161415168 0 0 0 0
5792900000 -0.122290472  0.378689280  0.369139648  0.172769456 0 0 0 0
5797950000 -0.089129136  0.387941664  0.377090176  0.148769248 0 0 0 0
5803000000 -0.055885444  0.394403232  0.386903424  0.115450024 0 0 0 0
5808050000 -0.017469668  0.393232544  0.389919424  0.096805080 0 0 0 0
5813100000  0.013460408  0.392054112  0.390760544  0.076870552 0 0 0 0
5818150000  0.052320912  0.388237600  0.390986976  0.059957052 0 0 0 0
5823200000  0.083233280  0.379317504  0.390147328  0.032601376 0 0 0 0
5828250000  0.114985096  0.370618240  0.387153376  0.008263678 0 0 0 0
5833300000  0.141989168  0.358064832  0.382886752 -0.008382499 0 0 0 0
5838350000  0.165654208  0.346609152  0.377862624 -0.025494400 0 0 0 0
5843400000  0.193875600  0.331175232  0.371937376 -0.041962340 0 0 0 0
5848450000  0.218352944  0.310496000  0.363986368 -0.062048848 0 0 0 0
5853500000  0.238858224  0.294911008  0.355578816 -0.077436192 0 0 0 0
5858550000  0.262368800  0.272044128  0.347298080 -0.093309488 0 0 0 0
5863600000  0.275007616  0.250668256  0.337834240 -0.106674872 0 0 0 0
5868650000  0.292970176  0.232566352  0.329057728 -0.118748256 0 0 0 0
5873700000  0.312739456  0.206546832  0.319031328 -0.131511840 0 0 0 0
5878750000  0.322529888  0.187031280  0.309942720 -0.140678560 0 0 0 0
5883800000  0.332085408  0.162502480  0.300985248 -0.149419696 0 0 0 0
5888850000  0.343080000  0.139697792  0.293459200 -0.156502176 0 0 0 0
5893900000  0.356019360  0.115094168  0.282478080 -0.166752464 0 0 0 0
5898950000  0.354827680  0.089274688  0.274195808 -0.173194512 0 0 0 0
5904000000  0.363366336  0.066832676  0.265422704 -0.180549648 0 0 0 0
5909050000  0.363550304  0.042412120  0.256984688 -0.187760416 0 0 0 0
5914100000  0.358762176  0.012375768  0.248700496 -0.194479984 0 0 0 0
5919150000  0.372217440 -0.007578491  0.243765136 -0.197956320 0 0 0 0
5924200000  0.361237280 -0.040364104  0.231403776 -0.208852016 0 0 0 0
5929250000  0.371406400 -0.055308292  0.229068048 -0.209598128 0 0 0 0
5934300000  0.362973984 -0.089490472  0.219570704 -0.217631168 0 0 0 0
5939350000  0.350019232 -0.115282504  0.212442800 -0.224381856 0 0 0 0
5944400000  0.339167360 -0.144245200  0.207375728 -0.228288448 0 0 0 0
5949450000  0.336779968 -0.171574528  0.202093376 -0.233911264 0 0 0 0
5954500000  0.332378240 -0.194834832  0.192621968 -0.241457312 0 0 0 0
5959550000  0.313096832 -0.225364400  0.184929424 -0.248524224 0 0 0 0
5964600000  0.288821056 -0.250529200  0.175462688 -0.256082480 0 0 0 0
5969650000  0.272600352 -0.273795744  0.169540912 -0.260511632 0 0 0 0
5974700000  0.250190560 -0.302708288  0.161793184 -0.266929328 0 0 0 0
5979750000  0.230397344 -0.323783936  0.152627984 -0.273956736 0 0 0 0
5984800000  0.191041328 -0.350501888  0.141920640 -0.280503040 0 0 0 0
5989850000  0.160059904 -0.370688000  0.133031560 -0.287133440 0 0 0 0
5994900000  0.139189696 -0.381631968  0.122833232 -0.292587584 0 0 0 0
5999950000  0.093733760 -0.401763904  0.110981824 -0.299174144 0 0 0 0
6005000000  0.053324396 -0.408852096  0.098761720 -0.303673088 0 0 0 0
