!File created by NanoVNA
# Hz S RI R 50
4995000000  0.227610656 -0.710524608  0.036296604  0.053600736 0 0 0 0
5000050000  0.152433296 -0.726756416  0.038775432  0.052309160 0 0 0 0
5005100000  0.088556424 -0.736338432  0.041679004  0.050541948 0 0 0 0
5010150000  0.008101646 -0.737341888  0.043898376  0.049577524 0 0 0 0
5015200000 -0.070400312 -0.732209216  0.046596560  0.048095764 0 0 0 0
5020250000 -0.141441072 -0.718777984  0.051659312  0.045396508 0 0 0 0
5025300000 -0.224000576 -0.693737664  0.054343200  0.043520580 0 0 0 0
5030350000 -0.286770784 -0.666586560  0.057248860  0.041563060 0 0 0 0
5035400000 -0.357284416 -0.623860096  0.060086632  0.039393996 0 0 0 0
5040450000 -0.420573472 -0.573674944  0.063167676  0.036773224 0 0 0 0
5045500000 -0.475742720 -0.521079296  0.065597424  0.034493688 0 0 0 0
5050550000 -0.523109504 -0.458542848  0.068709800  0.031635072 0 0 0 0
5055600000 -0.558272960 -0.398397888  0.070956432  0.028680696 0 0 0 0
5060650000 -0.591231040 -0.332928000  0.073588192  0.026106506 0 0 0 0
5065700000 -0.615767808 -0.267325696  0.075887432  0.023296512 0 0 0 0
5070750000 -0.634018688 -0.203619936  0.078477000  0.020525074 0 0 0 0
5075800000 -0.646703808 -0.119936064  0.080919672  0.017044892 0 0 0 0
5080850000 -0.649546496 -0.057362140  0.083284576  0.013935300 0 0 0 0
5085900000 -0.647911104  0.011334631  0.085548624  0.011120528 0 0 0 0
5090950000 -0.637694208  0.097265984  0.088239592  0.006112403 0 0 0 0
5096000000 -0.622369216  0.150082480  0.090613160  0.002888734 0 0 0 0
5101050000 -0.596170624  0.228040768  0.093039640 -0.001446212 0 0 0 0
5106100000 -0.571957888  0.285278560  0.095269800 -0.006502562 0 0 0 0
5111150000 -0.534425856  0.344211136  0.097577448 -0.010917005 0 0 0 0
5116200000 -0.495372992  0.400479712  0.099509784 -0.015579489 0 0 0 0
5121250000 -0.449927168  0.445230560  0.101403512 -0.022120890 0 0 0 0
5126300000 -0.396705056  0.493268480  0.103268144 -0.026813222 0 0 0 0
5131350000 -0.345174560  0.532472192  0.103797160 -0.033915872 0 0 0 0
5136400000 -0.285038912  0.566862784  0.104801416 -0.039982536 0 0 0 0
5141450000 -0.226594624  0.596858944  0.104668760 -0.047410160 0 0 0 0
5146500000 -0.169358496  0.609207424  0.104303976 -0.054177764 0 0 0 0
5151550000 -0.100232624  0.630075904  0.102864728 -0.061849988 0 0 0 0
5156600000 -0.038480844  0.642057728  0.099795168 -0.071239128 0 0 0 0
5161650000  0.024788212  0.644454528  0.098177072 -0.076658696 0 0 0 0
5166700000  0.092156384  0.637565120  0.093449640 -0.084762632 0 0 0 0
5171750000  0.153643968  0.630934528  0.088046952 -0.092016976 0 0 0 0
5176800000  0.213092576  0.609630080  0.083369416 -0.097000368 0 0 0 0
5181850000  0.272923648  0.591737088  0.076410880 -0.103320968 0 0 0 0
5186900000  0.329782688  0.567143232  0.069061456 -0.108243688 0 0 0 0
5191950000  0.380540672  0.537778816  0.062116624 -0.111873304 0 0 0 0
5197000000  0.433622944  0.500997056  0.054298740 -0.114635832 0 0 0 0
5202050000  0.479106144  0.460248576  0.046724560 -0.116791312 0 0 0 0
5207100000  0.522738688  0.420464032  0.038892428 -0.118063568 0 0 0 0
5212150000  0.562622464  0.372319776  0.032457714 -0.118108528 0 0 0 0
5217200000  0.598449152  0.321243840  0.025467758 -0.117804576 0 0 0 0
5222250000  0.626612992  0.268776864  0.019312466 -0.117047320 0 0 0 0
5227300000  0.650817664  0.213141584  0.012760064 -0.115819504 0 0 0 0
5232350000  0.671470528  0.159656096  0.008219971 -0.114305408 0 0 0 0
5237400000  0.685495488  0.093420312  0.002279926 -0.112646328 0 0 0 0
5242450000  0.693291456  0.035511700 -0.000981128 -0.110641992 0 0 0 0
5247500000  0.696306176 -0.027938060 -0.005455274 -0.108879384 0 0 0 0
5252550000  0.693383040 -0.091032472 -0.009385752 -0.107026544 0 0 0 0
5257600000  0.687051840 -0.148221024 -0.011469788 -0.105433912 0 0 0 0
5262650000  0.669816512 -0.208598320 -0.014251901 -0.104010856 0 0 0 0
5267700000  0.651252096 -0.268908128 -0.017469054 -0.102548944 0 0 0 0
5272750000  0.625544640 -0.327168256 -0.019163010 -0.101174904 0 0 0 0
5277800000  0.591135616 -0.383640480 -0.021260740 -0.100329448 0 0 0 0
5282850000  0.559089856 -0.432269376 -0.023292082 -0.099965400 0 0 0 0
5287900000  0.517719200 -0.482075360 -0.024978474 -0.099699232 0 0 0 0
5292950000  0.467103872 -0.525971904 -0.027124694 -0.099365120 0 0 0 0
5298000000  0.417765632 -0.568574080 -0.028892878 -0.099742304 0 0 0 0
5303050000  0.353225248 -0.605345536 -0.030616092 -0.100228384 0 0 0 0
5308100000  0.302727904 -0.633822464 -0.033458174 -0.100770408 0 0 0 0
5313150000  0.229618576 -0.658248192 -0.035538532 -0.102136272 0 0 0 0
5318200000  0.165413168 -0.673872384 -0.037432204 -0.103257808 0 0 0 0
5323250000  0.090652528 -0.685260544 -0.040997476 -0.104235504 0 0 0 0
5328300000  0.020547962 -0.684093056 -0.042925724 -0.105665568 0 0 0 0
5333350000 -0.047831824 -0.676096640 -0.046177176 -0.107054552 0 0 0 0
5338400000 -0.122971624 -0.656375104 -0.049014392 -0.108650584 0 0 0 0
5343450000 -0.194191648 -0.627831296 -0.053538336 -0.109473464 0 0 0 0
5348500000 -0.245523120 -0.609509696 -0.054719020 -0.112321064 0 0 0 0
5353550000 -0.306503488 -0.563460416 -0.061767436 -0.111870728 0 0 0 0
5358600000 -0.355971680 -0.516136704 -0.066934296 -0.112209824 0 0 0 0
5363650000 -0.409605184 -0.466016896 -0.068151544 -0.116159712 0 0 0 0
5368700000 -0.449795648 -0.406355520 -0.073339856 -0.116984200 0 0 0 0
5373750000 -0.478512000 -0.368181184 -0.079220856 -0.118319888 0 0 0 0
5378800000 -0.510961888 -0.299544320 -0.084419296 -0.120096648 0 0 0 0
5383850000 -0.528164256 -0.244797472 -0.090536936 -0.121127536 0 0 0 0
5388900000 -0.547225600 -0.183750608 -0.095356096 -0.123736088 0 0 0 0
5393950000 -0.557631232 -0.112563896 -0.105317712 -0.122161264 0 0 0 0
5399000000 -0.557981184 -0.060608832 -0.111452720 -0.123850568 0 0 0 0
5404050000 -0.554291712 -0.002476631 -0.118089544 -0.125680760 0 0 0 0
5409100000 -0.544750016  0.057301212 -0.127933416 -0.124221120 0 0 0 0
5414150000 -0.530347776  0.127638280 -0.137234656 -0.122779456 0 0 0 0
5419200000 -0.510902752  0.178302496 -0.146154784 -0.122491536 0 0 0 0
5424250000 -0.481849856  0.225103360 -0.156024048 -0.120062360 0 0 0 0
5429300000 -0.449696192  0.284021760 -0.166283984 -0.116871488 0 0 0 0
5434350000 -0.420856416  0.324480064 -0.176449152 -0.113062544 0 0 0 0
5439400000 -0.375099072  0.364313120 -0.186214032 -0.109049720 0 0 0 0
5444450000 -0.328536896  0.409033920 -0.197333888 -0.102354792 0 0 0 0
5449500000 -0.289018944  0.429888224 -0.208476976 -0.093791120 0 0 0 0
5454550000 -0.236247344  0.457533504 -0.218264304 -0.085973912 0 0 0 0
5459600000 -0.202433552  0.488692160 -0.227792688 -0.075394176 0 0 0 0
5464650000 -0.141736288  0.499668640 -0.236446032 -0.066193076 0 0 0 0
5469700000 -0.092437976  0.515299904 -0.244583392 -0.052446052 0 0 0 0
5474750000 -0.038197388  0.520039744 -0.252394880 -0.035496096 0 0 0 0
5479800000  0.010045717  0.523096736 -0.257899488 -0.022462816 0 0 0 0
5484850000  0.056376816  0.522894208 -0.262248672 -0.006599984 0 0 0 0
5489900000  0.110072592  0.511781504 -0.264871600  0.007634116 0 0 0 0
5494950000  0.157184640  0.499753344 -0.266527088  0.021086222 0 0 0 0
5500000000  0.201332560  0.487506880 -0.265385808  0.044072844 0 0 0 0
5505050000  0.248407744  0.467217184 -0.263300896  0.058888376 0 0 0 0
5510100000  0.289109504  0.444335136 -0.259881856  0.071881448 0 0 0 0
5515150000  0.326784448  0.421249696 -0.256159552  0.085482864 0 0 0 0
5520200000  0.365488992  0.393490496 -0.249430912  0.100827352 0 0 0 0
5525250000  0.398689664  0.363628992 -0.243441328  0.112725504 0 0 0 0
5530300000  0.431128288  0.325074240 -0.235018544  0.126639160 0 0 0 0
5535350000  0.455152064  0.293754496 -0.227801296  0.137070544 0 0 0 0
5540400000  0.480873344  0.251290416 -0.220459440  0.146104512 0 0 0 0
5545450000  0.501643424  0.211608752 -0.211484528  0.155925744 0 0 0 0
5550500000  0.519755008  0.169490912 -0.202835680  0.164210064 0 0 0 0
5555550000  0.525372640  0.126401024 -0.192049472  0.173240704 0 0 0 0
5560600000  0.544480512  0.090578408 -0.187545072  0.176299312 0 0 0 0
5565650000  0.543621120  0.040195168 -0.177652016  0.184074816 0 0 0 0
5570700000  0.539834496 -0.005783886 -0.168760784  0.190485040 0 0 0 0
5575750000  0.546334848 -0.043722340 -0.162245744  0.194170432 0 0 0 0
5580800000  0.535614656 -0.094339808 -0.155364768  0.200845984 0 0 0 0
5585850000  0.528488768 -0.133828504 -0.146079440  0.206801008 0 0 0 0
5590900000  0.513199808 -0.178070080 -0.140895328  0.210883904 0 0 0 0
5595950000  0.495428896 -0.221029952 -0.133939568  0.216118848 0 0 0 0
5601000000  0.481446240 -0.258942368 -0.128180672  0.220016944 0 0 0 0
5606050000  0.458219520 -0.297686272 -0.125469400  0.223947936 0 0 0 0
5611100000  0.412942784 -0.337509504 -0.114591512  0.231441056 0 0 0 0
5616150000  0.391020544 -0.370576768 -0.110998992  0.236156608 0 0 0 0
5621200000  0.366247168 -0.404307072 -0.108434368  0.240622960 0 0 0 0
5626250000  0.320530304 -0.432929216 -0.097820152  0.248850032 0 0 0 0
5631300000  0.277766528 -0.462239616 -0.090745024  0.255470336 0 0 0 0
5636350000  0.224095888 -0.479895328 -0.084806632  0.262338816 0 0 0 0
5641400000  0.177378784 -0.496958144 -0.078797264  0.268730400 0 0 0 0
5646450000  0.117533872 -0.505042240 -0.068766928  0.276343136 0 0 0 0
5651500000  0.085645464 -0.518352512 -0.060588392  0.283172576 0 0 0 0
5656550000  0.025151708 -0.514230240 -0.052362620  0.290406464 0 0 0 0
5661600000 -0.024116632 -0.507909312 -0.041471992  0.297670048 0 0 0 0
5666650000 -0.080587632 -0.497846816 -0.031702410  0.304524256 0 0 0 0
5671700000 -0.147101984 -0.469983616 -0.015049970  0.311082496 0 0 0 0
5676750000 -0.167303008 -0.463588416 -0.009146342  0.316761632 0 0 0 0
5681800000 -0.218154544 -0.429314688  0.005845431  0.323017952 0 0 0 0
5686850000 -0.258113504 -0.399597248  0.019896578  0.329355200 0 0 0 0
5691900000 -0.301011840 -0.363236832  0.033994256  0.333627776 0 0 0 0
5696950000 -0.337418848 -0.322677088  0.048989780  0.338191168 0 0 0 0
5702000000 -0.360625632 -0.286975104  0.067644968  0.341677056 0 0 0 0
5707050000 -0.384053440 -0.241431312  0.083243152  0.344927744 0 0 0 0
5712100000 -0.404210944 -0.194761872  0.102402776  0.346483712 0 0 0 0
5717150000 -0.417459136 -0.148455952  0.118885848  0.346383264 0 0 0 0
5722200000 -0.427257056 -0.098154296  0.139276400  0.346236000 0 0 0 0
5727250000 -0.434739904 -0.048355184  0.165430320  0.340951488 0 0 0 0
5732300000 -0.437699456  0.005408299  0.182836704  0.338168096 0 0 0 0
5737350000 -0.422583136  0.039085052  0.203159408  0.331776096 0 0 0 0
5742400000 -0.412857280  0.096729096  0.221006592  0.325793504 0 0 0 0
5747450000 -0.400627456  0.136077184  0.245747008  0.312719232 0 0 0 0
5752500000 -0.373515840  0.175894272  0.264807520  0.301561408 0 0 0 0
5757550000 -0.354865984  0.217627600  0.306063008  0.270838752 0 0 0 0
5762600000 -0.329102592  0.247858048  0.302961728  0.271343168 0 0 0 0
5767650000 -0.302266464  0.285116576  0.339739744  0.233671152 0 0 0 0
5772700000 -0.263396528  0.307133184  0.331904800  0.238829328 0 0 0 0
5777750000 -0.229992816  0.325039936  0.366394720  0.191115296 0 0 0 0
5782800000 -0.198180640  0.347991552  0.358789440  0.197026816 0 0 0 0
5787850000 -0.167485872  0.360394528  0.370816704  0.171375200 0 0 0 0
5792900000 -0.122698496  0.373140064  0.377600544  0.154412240 0 0 0 0
5797950000 -0.087984120  0.379511104  0.382902368  0.135118352 0 0 0 0
5803000000 -0.052501608  0.384261056  0.389834752  0.105690128 0 0 0 0
5808050000 -0.016981052  0.384333280  0.393695968  0.081894256 0 0 0 0
5813100000  0.015207079  0.383615104  0.394011904  0.061471472 0 0 0 0
5818150000  0.050351392  0.380216608  0.393223168  0.044123740 0 0 0 0
5823200000  0.082568808  0.371969760  0.390977632  0.019170856 0 0 0 0
5828250000  0.113263576  0.362933248  0.387086368 -0.003664242 0 0 0 0
5833300000  0.140859312  0.351518208  0.382079936 -0.018465702 0 0 0 0
5838350000  0.163166640  0.339468576  0.375348928 -0.042076064 0 0 0 0
5843400000  0.191396960  0.324145312  0.369412192 -0.058286780 0 0 0 0
5848450000  0.217474096  0.306155904  0.361091104 -0.074338720 0 0 0 0
5853500000  0.236285184  0.289959200  0.351475712 -0.092206336 0 0 0 0
5858550000  0.261398320  0.269132256  0.343238688 -0.104604472 0 0 0 0
5863600000  0.275610464  0.249698816  0.333819584 -0.117260248 0 0 0 0
5868650000  0.291040768  0.231999616  0.323661312 -0.128369688 0 0 0 0
5873700000  0.309501216  0.203927984  0.313417728 -0.142079232 0 0 0 0
5878750000  0.320837216  0.184417120  0.304664736 -0.149733632 0 0 0 0
5883800000  0.330119552  0.161837520  0.294169984 -0.160050608 0 0 0 0
5888850000  0.341549472  0.140644880  0.285141856 -0.167516208 0 0 0 0
5893900000  0.354607328  0.113182592  0.276843264 -0.174766576 0 0 0 0
5898950000  0.357044192  0.090257200  0.266763568 -0.182814960 0 0 0 0
5904000000  0.368411744  0.070080528  0.259802704 -0.186811952 0 0 0 0
5909050000  0.368427168  0.043935556  0.251084480 -0.194278848 0 0 0 0
5914100000  0.364854048  0.014063360  0.241578096 -0.201188736 0 0 0 0
5919150000  0.374334176 -0.008507823  0.234219328 -0.206054176 0 0 0 0
5924200000  0.380712352 -0.032666638  0.229284368 -0.210376320 0 0 0 0
5929250000  0.369282592 -0.061028564  0.217655584 -0.219609376 0 0 0 0
5934300000  0.368387648 -0.091119096  0.212932176 -0.222006608 0 0 0 0
5939350000  0.360431232 -0.113284840  0.205565344 -0.228284560 0 0 0 0
5944400000  0.349810176 -0.145169920  0.199156928 -0.232933632 0 0 0 0
5949450000  0.349092864 -0.173829440  0.192661344 -0.238947584 0 0 0 0
5954500000  0.338662240 -0.200923120  0.183339408 -0.245853664 0 0 0 0
5959550000  0.321582336 -0.233012000  0.177469952 -0.251829984 0 0 0 0
5964600000  0.303636032 -0.255479360  0.170703952 -0.257249648 0 0 0 0
5969650000  0.282859072 -0.282150176  0.162461024 -0.263513952 0 0 0 0
5974700000  0.264293040 -0.307985856  0.153624976 -0.269715776 0 0 0 0
5979750000  0.242125296 -0.330607616  0.144220768 -0.276401568 0 0 0 0
5984800000  0.196763152 -0.358414400  0.133312464 -0.283025152 0 0 0 0
5989850000  0.170327728 -0.380410912  0.124923848 -0.289121280 0 0 0 0
5994900000  0.123065960 -0.398694048  0.110498088 -0.296416064 0 0 0 0
5999950000  0.103826616 -0.411103328  0.106391312 -0.299644800 0 0 0 0
6005000000  0.071809096 -0.418467488  0.091842216 -0.305010784 0 0 0 0
