!File created by NanoVNA
# Hz S RI R 50
4995000000  0.233461680 -0.710785920 -0.009505872  0.061638516 0 0 0 0
5000050000  0.150719216 -0.724412480 -0.006343087  0.061441224 0 0 0 0
5005100000  0.089017960 -0.737137856 -0.003592890  0.061313996 0 0 0 0
5010150000  0.008481187 -0.739619200 -0.001501374  0.061313468 0 0 0 0
5015200000 -0.071935864 -0.733432384  0.001947083  0.061270384 0 0 0 0
5020250000 -0.135279936 -0.722375040  0.006047623  0.061885668 0 0 0 0
5025300000 -0.217687040 -0.696999680  0.009229274  0.061629320 0 0 0 0
5030350000 -0.284250880 -0.666620224  0.012336868  0.061392048 0 0 0 0
5035400000 -0.356891168 -0.621250752  0.015497122  0.061124764 0 0 0 0
5040450000 -0.419752000 -0.567380736  0.018580940  0.060695748 0 0 0 0
5045500000 -0.473620000 -0.516389600  0.022512828  0.059873292 0 0 0 0
5050550000 -0.520171360 -0.448108448  0.025654448  0.059267452 0 0 0 0
5055600000 -0.555497792 -0.391147456  0.028982462  0.058539556 0 0 0 0
5060650000 -0.584650880 -0.323110464  0.032134400  0.057798452 0 0 0 0
5065700000 -0.609883008 -0.255058592  0.035401964  0.056789384 0 0 0 0
5070750000 -0.626472448 -0.196922496  0.039113600  0.055969464 0 0 0 0
5075800000 -0.636261056 -0.113040136  0.042456540  0.054970664 0 0 0 0
5080850000 -0.639949440 -0.052710388  0.046610892  0.053503380 0 0 0 0
5085900000 -0.634030848  0.025951206  0.050291636  0.052278228 0 0 0 0
5090950000 -0.626855808  0.092849280  0.054221804  0.050526912 0 0 0 0
5096000000 -0.609551360  0.150408800  0.058074476  0.049062164 0 0 0 0
5101050000 -0.582752512  0.225489216  0.062032760  0.047219340 0 0 0 0
5106100000 -0.556673408  0.281145408  0.066368932  0.044966272 0 0 0 0
5111150000 -0.519389280  0.343067744  0.071127056  0.041875048 0 0 0 0
5116200000 -0.477370720  0.399705952  0.075485168  0.038793760 0 0 0 0
5121250000 -0.432821248  0.440510144  0.080047352  0.035303516 0 0 0 0
5126300000 -0.381073760  0.487623072  0.084150000  0.032037308 0 0 0 0
5131350000 -0.333368160  0.522600896  0.088514080  0.026705732 0 0 0 0
5136400000 -0.273674272  0.557332608  0.092627896  0.022191156 0 0 0 0
5141450000 -0.218159984  0.582107008  0.096328848  0.016345652 0 0 0 0
5146500000 -0.150525664  0.603152576  0.099716696  0.008739071 0 0 0 0
5151550000 -0.091238424  0.617822336  0.102428616  0.002782578 0 0 0 0
5156600000 -0.036278464  0.627129024  0.104764296 -0.005068586 0 0 0 0
5161650000  0.033084154  0.632477632  0.106158504 -0.011418611 0 0 0 0
5166700000  0.096825528  0.625121280  0.106463984 -0.020497046 0 0 0 0
5171750000  0.152406816  0.617761344  0.106036984 -0.028884554 0 0 0 0
5176800000  0.213997248  0.598608128  0.104566896 -0.036235428 0 0 0 0
5181850000  0.270515456  0.580524224  0.101820272 -0.045045192 0 0 0 0
5186900000  0.326692928  0.557259392  0.098765872 -0.051941640 0 0 0 0
5191950000  0.379005152  0.528901984  0.095026152 -0.058352700 0 0 0 0
5197000000  0.427522112  0.494614912  0.090651736 -0.064211600 0 0 0 0
5202050000  0.474982496  0.452949856  0.084403312 -0.070848064 0 0 0 0
5207100000  0.515688544  0.416026560  0.079547712 -0.075126504 0 0 0 0
5212150000  0.556287168  0.368683040  0.074489672 -0.078877504 0 0 0 0
5217200000  0.590321664  0.320894752  0.068303920 -0.082301424 0 0 0 0
5222250000  0.618590208  0.269522176  0.062700040 -0.084745592 0 0 0 0
5227300000  0.643416256  0.214319440  0.056619776 -0.087109792 0 0 0 0
5232350000  0.664699840  0.158124624  0.050138644 -0.089153960 0 0 0 0
5237400000  0.680065728  0.103686888  0.046869824 -0.089339112 0 0 0 0
5242450000  0.686642944  0.039210796  0.040085844 -0.090743112 0 0 0 0
5247500000  0.693023744 -0.018193804  0.036536232 -0.090847632 0 0 0 0
5252550000  0.690623680 -0.080505552  0.032225590 -0.091311144 0 0 0 0
5257600000  0.683889408 -0.138076016  0.028238182 -0.091052080 0 0 0 0
5262650000  0.669042880 -0.197819840  0.024808922 -0.091074960 0 0 0 0
5267700000  0.650787072 -0.256801360  0.020971654 -0.091317560 0 0 0 0
5272750000  0.628805952 -0.314277088  0.018469638 -0.090940040 0 0 0 0
5277800000  0.598978688 -0.369510624  0.016141996 -0.091410464 0 0 0 0
5282850000  0.562750144 -0.420055552  0.013184940 -0.091746600 0 0 0 0
5287900000  0.521710880 -0.469314688  0.011414107 -0.092040032 0 0 0 0
5292950000  0.468409504 -0.514800480  0.008065851 -0.092762056 0 0 0 0
5298000000  0.422231872 -0.557641600  0.005574791 -0.093693736 0 0 0 0
5303050000  0.357539456 -0.595014272  0.003780180 -0.094838576 0 0 0 0
5308100000  0.301814944 -0.622352704  0.000542959 -0.096065264 0 0 0 0
5313150000  0.241991440 -0.647975232 -0.001221962 -0.097762208 0 0 0 0
5318200000  0.173880032 -0.664415936 -0.003948130 -0.099061040 0 0 0 0
5323250000  0.102229000 -0.676519232 -0.006296842 -0.100715336 0 0 0 0
5328300000  0.029775286 -0.677131328 -0.008967667 -0.102557960 0 0 0 0
5333350000 -0.040204440 -0.667629952 -0.012416231 -0.104490840 0 0 0 0
5338400000 -0.108296032 -0.653918400 -0.015062143 -0.106477816 0 0 0 0
5343450000 -0.178951680 -0.627072512 -0.018687610 -0.108320584 0 0 0 0
5348500000 -0.242430432 -0.601973184 -0.022494836 -0.110152424 0 0 0 0
5353550000 -0.285894144 -0.576731648 -0.024378816 -0.112637760 0 0 0 0
5358600000 -0.342086720 -0.534405472 -0.029624852 -0.114406952 0 0 0 0
5363650000 -0.408673600 -0.457098912 -0.033986268 -0.116333176 0 0 0 0
5368700000 -0.443923456 -0.407359616 -0.036837640 -0.118598336 0 0 0 0
5373750000 -0.473297760 -0.365370368 -0.041918824 -0.120805896 0 0 0 0
5378800000 -0.505744384 -0.296882464 -0.047988276 -0.122576336 0 0 0 0
5383850000 -0.525353856 -0.245909088 -0.052419908 -0.125195696 0 0 0 0
5388900000 -0.542767296 -0.182012288 -0.057464228 -0.127671120 0 0 0 0
5393950000 -0.555680768 -0.115932792 -0.065096924 -0.129644784 0 0 0 0
5399000000 -0.555969024 -0.065305264 -0.071067168 -0.131667032 0 0 0 0
5404050000 -0.554590208  0.006143888 -0.077721776 -0.133885192 0 0 0 0
5409100000 -0.546838592  0.064780324 -0.088195040 -0.133749176 0 0 0 0
5414150000 -0.532290592  0.125730456 -0.094233080 -0.136184880 0 0 0 0
5419200000 -0.511669280  0.186805248 -0.102901616 -0.137205232 0 0 0 0
5424250000 -0.481434400  0.240662880 -0.114097152 -0.135135968 0 0 0 0
5429300000 -0.448199872  0.295808960 -0.122389208 -0.135562256 0 0 0 0
5434350000 -0.420505376  0.333977120 -0.133109120 -0.133595232 0 0 0 0
5439400000 -0.373721984  0.378605280 -0.143219728 -0.131472784 0 0 0 0
5444450000 -0.325997568  0.418331328 -0.153124384 -0.129113600 0 0 0 0
5449500000 -0.283395008  0.445721088 -0.165068992 -0.123422168 0 0 0 0
5454550000 -0.228165984  0.476743200 -0.177145312 -0.116230440 0 0 0 0
5459600000 -0.195924752  0.501503296 -0.187166656 -0.110076904 0 0 0 0
5464650000 -0.132311344  0.514749600 -0.196740848 -0.103620584 0 0 0 0
5469700000 -0.081977864  0.529480928 -0.206400480 -0.093109376 0 0 0 0
5474750000 -0.027264920  0.530772096 -0.216035376 -0.081506456 0 0 0 0
5479800000  0.022607526  0.533047200 -0.223906160 -0.070885992 0 0 0 0
5484850000  0.070018200  0.532851872 -0.231471456 -0.056481220 0 0 0 0
5489900000  0.122474496  0.518104320 -0.236505600 -0.045514608 0 0 0 0
5494950000  0.172244768  0.505408640 -0.240433728 -0.032881942 0 0 0 0
5500000000  0.215680704  0.490388608 -0.243941104 -0.013900669 0 0 0 0
5505050000  0.262711760  0.468638880 -0.245912528 -0.000111083 0 0 0 0
5510100000  0.303674784  0.445158816 -0.245317376  0.016741828 0 0 0 0
5515150000  0.340893248  0.419521184 -0.244665136  0.026968570 0 0 0 0
5520200000  0.378300896  0.390250016 -0.241866592  0.041860132 0 0 0 0
5525250000  0.410392448  0.358545088 -0.239122784  0.055153964 0 0 0 0
5530300000  0.440461312  0.318008288 -0.235703360  0.066529184 0 0 0 0
5535350000  0.462893248  0.286500160 -0.230480432  0.078859336 0 0 0 0
5540400000  0.487137600  0.242679824 -0.226465040  0.087665040 0 0 0 0
5545450000  0.505473984  0.202502336 -0.220032784  0.099851144 0 0 0 0
5550500000  0.520345344  0.159529168 -0.213771568  0.110068000 0 0 0 0
5555550000  0.528460256  0.119624056 -0.208317648  0.117071112 0 0 0 0
5560600000  0.534751904  0.075452880 -0.200816848  0.127421784 0 0 0 0
5565650000  0.542479744  0.034206244 -0.198604672  0.129851384 0 0 0 0
5570700000  0.531531648 -0.013839880 -0.189579488  0.141292976 0 0 0 0
5575750000  0.534645216 -0.053547824 -0.183312144  0.148078320 0 0 0 0
5580800000  0.528851936 -0.097758072 -0.179533584  0.152120496 0 0 0 0
5585850000  0.512642752 -0.139119808 -0.173336176  0.159234624 0 0 0 0
5590900000  0.493780864 -0.180618112 -0.168121136  0.165950928 0 0 0 0
5595950000  0.477413504 -0.219783472 -0.165646464  0.169903728 0 0 0 0
5601000000  0.463020800 -0.256252736 -0.159860960  0.177047264 0 0 0 0
5606050000  0.432112608 -0.293605184 -0.154927856  0.183632656 0 0 0 0
5611100000  0.408394656 -0.326597088 -0.151300960  0.189913024 0 0 0 0
5616150000  0.371693792 -0.357013568 -0.146795712  0.196273968 0 0 0 0
5621200000  0.323900832 -0.388230080 -0.140170448  0.204716032 0 0 0 0
5626250000  0.303543616 -0.410392416 -0.136680704  0.211597216 0 0 0 0
5631300000  0.259480512 -0.440532256 -0.131324920  0.220080848 0 0 0 0
5636350000  0.220120944 -0.451826272 -0.126311016  0.227582768 0 0 0 0
5641400000  0.174206416 -0.470950208 -0.120854160  0.236207472 0 0 0 0
5646450000  0.115471336 -0.475277888 -0.115437880  0.244546336 0 0 0 0
5651500000  0.082318984 -0.486330784 -0.107867856  0.254230016 0 0 0 0
5656550000  0.023484402 -0.486052448 -0.099675464  0.264198816 0 0 0 0
5661600000 -0.017128042 -0.478276448 -0.090050264  0.273338976 0 0 0 0
5666650000 -0.064511672 -0.472092096 -0.084439128  0.281191104 0 0 0 0
5671700000 -0.121662880 -0.453489536 -0.072268536  0.290826624 0 0 0 0
5676750000 -0.159600624 -0.436311840 -0.060590820  0.299004000 0 0 0 0
5681800000 -0.204369520 -0.411423072 -0.051149732  0.308152192 0 0 0 0
5686850000 -0.240042384 -0.383522688 -0.037695096  0.316359488 0 0 0 0
5691900000 -0.283902400 -0.351613504 -0.024523178  0.324571392 0 0 0 0
5696950000 -0.321572736 -0.311270592 -0.007796183  0.332011456 0 0 0 0
5702000000 -0.340629504 -0.282424032  0.010244009  0.339135648 0 0 0 0
5707050000 -0.370873216 -0.236110080  0.021646578  0.345230656 0 0 0 0
5712100000 -0.389480224 -0.194092752  0.041018832  0.350447552 0 0 0 0
5717150000 -0.406496544 -0.149704832  0.058599456  0.354488192 0 0 0 0
5722200000 -0.420689120 -0.097597976  0.081573960  0.357067168 0 0 0 0
5727250000 -0.425890400 -0.054044356  0.102609880  0.358379552 0 0 0 0
5732300000 -0.426201376 -0.007700869  0.117940928  0.360398528 0 0 0 0
5737350000 -0.423247232  0.037829308  0.146554032  0.354888128 0 0 0 0
5742400000 -0.416404384  0.095739368  0.167551376  0.351069248 0 0 0 0
5747450000 -0.403025760  0.130678848  0.216889360  0.333026240 0 0 0 0
5752500000 -0.379580736  0.173657584  0.214805936  0.335376000 0 0 0 0
5757550000 -0.363507872  0.218743392  0.235912480  0.325050016 0 0 0 0
5762600000 -0.339618272  0.251474832  0.284096096  0.296011808 0 0 0 0
5767650000 -0.309023392  0.284324864  0.273995136  0.300034496 0 0 0 0
5772700000 -0.275099040  0.314924512  0.317865248  0.263437712 0 0 0 0
5777750000 -0.241355184  0.333967808  0.314487584  0.262616368 0 0 0 0
5782800000 -0.207173552  0.355537376  0.348253472  0.225943664 0 0 0 0
5787850000 -0.175581328  0.369358880  0.343173728  0.225018768 0 0 0 0
5792900000 -0.130525512  0.383111808  0.352816640  0.206994944 0 0 0 0
5797950000 -0.096290536  0.394764896  0.364549888  0.181833328 0 0 0 0
5803000000 -0.059801700  0.399782016  0.374487968  0.156752608 0 0 0 0
5808050000 -0.021932250  0.400372832  0.381788512  0.131681992 0 0 0 0
5813100000  0.011496633  0.399404512  0.385156928  0.111241072 0 0 0 0
5818150000  0.050816712  0.395966464  0.387036576  0.094476320 0 0 0 0
5823200000  0.084535440  0.387839392  0.388627968  0.069471936 0 0 0 0
5828250000  0.115810576  0.377828096  0.387740768  0.044947980 0 0 0 0
5833300000  0.146272384  0.366837024  0.385016768  0.025956778 0 0 0 0
5838350000  0.168693200  0.353912320  0.380775808  0.005077810 0 0 0 0
5843400000  0.198697904  0.337305248  0.377174368 -0.012964516 0 0 0 0
5848450000  0.225061776  0.317284480  0.370898176 -0.030666474 0 0 0 0
5853500000  0.246599648  0.302261856  0.363684320 -0.048027936 0 0 0 0
5858550000  0.266001728  0.274661920  0.356519648 -0.066829980 0 0 0 0
5863600000  0.280292672  0.251172272  0.348160320 -0.081764712 0 0 0 0
5868650000  0.298739360  0.236008496  0.340392928 -0.091855096 0 0 0 0
5873700000  0.318077152  0.204346400  0.330541600 -0.108965448 0 0 0 0
5878750000  0.329082080  0.184960416  0.323105280 -0.117157576 0 0 0 0
5883800000  0.336788672  0.158890672  0.314449952 -0.128533480 0 0 0 0
5888850000  0.344380032  0.133284424  0.305552192 -0.140051040 0 0 0 0
5893900000  0.362267488  0.108806952  0.299166464 -0.145748192 0 0 0 0
5898950000  0.359951648  0.086495584  0.289396128 -0.153970880 0 0 0 0
5904000000  0.371267840  0.064454324  0.280931104 -0.163123872 0 0 0 0
5909050000  0.372040096  0.039431660  0.273599904 -0.170718160 0 0 0 0
5914100000  0.358671648  0.004256215  0.264339392 -0.180795792 0 0 0 0
5919150000  0.372239936 -0.015334494  0.260312320 -0.182867520 0 0 0 0
5924200000  0.358296000 -0.047698744  0.247716400 -0.196771184 0 0 0 0
5929250000  0.369310528 -0.061872264  0.245127536 -0.197530976 0 0 0 0
5934300000  0.360661504 -0.094230920  0.236051456 -0.205979600 0 0 0 0
5939350000  0.346290784 -0.120018808  0.230289376 -0.212707600 0 0 0 0
5944400000  0.337501152 -0.147762032  0.224974640 -0.218379968 0 0 0 0
5949450000  0.331773024 -0.175291360  0.217921728 -0.225715936 0 0 0 0
5954500000  0.321452352 -0.202029376  0.207716384 -0.235230624 0 0 0 0
5959550000  0.307051648 -0.227353280  0.201521984 -0.240812832 0 0 0 0
5964600000  0.286919360 -0.250571216  0.194750272 -0.247286608 0 0 0 0
5969650000  0.270140352 -0.273184864  0.185548304 -0.255693712 0 0 0 0
5974700000  0.247166896 -0.300746848  0.177140656 -0.262469168 0 0 0 0
5979750000  0.224999200 -0.321356480  0.168941296 -0.269720160 0 0 0 0
5984800000  0.192586096 -0.345344416  0.159943216 -0.276682976 0 0 0 0
5989850000  0.156440240 -0.367709056  0.148344912 -0.284079520 0 0 0 0
5994900000  0.138606176 -0.376978080  0.140982144 -0.289214464 0 0 0 0
5999950000  0.080535808 -0.395460928  0.125791920 -0.297565376 0 0 0 0
6005000000  0.057510780 -0.403994560  0.112289176 -0.303971520 0 0 0 0
