!File created by NanoVNA
# Hz S RI R 50
4995000000  0.225197376 -0.712783552  0.003803290  0.061553936 0 0 0 0
5000050000  0.148832944 -0.727147136  0.006837105  0.061124316 0 0 0 0
5005100000  0.084208104 -0.738500096  0.009821029  0.060560292 0 0 0 0
5010150000  0.008950971 -0.741833984  0.011972451  0.060361896 0 0 0 0
5015200000 -0.070203240 -0.738719808  0.014783896  0.060047256 0 0 0 0
5020250000 -0.142437328 -0.723915776  0.019537462  0.059849696 0 0 0 0
5025300000 -0.222007696 -0.699500352  0.022714404  0.059151480 0 0 0 0
5030350000 -0.291820032 -0.666578624  0.026365410  0.058359152 0 0 0 0
5035400000 -0.362128288 -0.622565824  0.029008726  0.058078948 0 0 0 0
5040450000 -0.422206528 -0.572771264  0.032459550  0.056980224 0 0 0 0
5045500000 -0.477905248 -0.522321472  0.036185380  0.055739604 0 0 0 0
5050550000 -0.524445664 -0.453718112  0.039292280  0.054712316 0 0 0 0
5055600000 -0.562129280 -0.391893856  0.043242808  0.053088724 0 0 0 0
5060650000 -0.592692672 -0.328105760  0.046157664  0.051980540 0 0 0 0
5065700000 -0.616855424 -0.255147072  0.049758288  0.050204508 0 0 0 0
5070750000 -0.633339392 -0.191614864  0.053340808  0.048521444 0 0 0 0
5075800000 -0.643116992 -0.112360160  0.057188120  0.046513064 0 0 0 0
5080850000 -0.649021632 -0.062012112  0.060036016  0.045440968 0 0 0 0
5085900000 -0.642892864  0.026074698  0.064331496  0.042367488 0 0 0 0
5090950000 -0.635646400  0.096137064  0.068020960  0.040530264 0 0 0 0
5096000000 -0.618628800  0.153673872  0.071867328  0.037950424 0 0 0 0
5101050000 -0.589487872  0.233059824  0.075751184  0.034972048 0 0 0 0
5106100000 -0.564770368  0.286129792  0.079838712  0.031485844 0 0 0 0
5111150000 -0.529338656  0.343667584  0.084035416  0.027833116 0 0 0 0
5116200000 -0.487401984  0.401643296  0.087871632  0.023901590 0 0 0 0
5121250000 -0.440367552  0.446188064  0.091791352  0.018831180 0 0 0 0
5126300000 -0.387476608  0.494949600  0.095426592  0.013790043 0 0 0 0
5131350000 -0.339187264  0.530533440  0.098754240  0.008065053 0 0 0 0
5136400000 -0.280242976  0.564430848  0.101951952  0.002896419 0 0 0 0
5141450000 -0.220023120  0.593357824  0.104570136 -0.004136356 0 0 0 0
5146500000 -0.163146448  0.606135360  0.106615856 -0.011697748 0 0 0 0
5151550000 -0.094657376  0.626705600  0.107748648 -0.019700972 0 0 0 0
5156600000 -0.045218740  0.632665920  0.108434544 -0.026824620 0 0 0 0
5161650000  0.026815580  0.639203456  0.108129208 -0.035266172 0 0 0 0
5166700000  0.089465304  0.630945600  0.106900936 -0.042867704 0 0 0 0
5171750000  0.151299632  0.625959872  0.104334544 -0.051953872 0 0 0 0
5176800000  0.214432240  0.605959552  0.100953576 -0.059383792 0 0 0 0
5181850000  0.267105136  0.587335232  0.096944768 -0.066634044 0 0 0 0
5186900000  0.323851808  0.563437696  0.092538048 -0.072604608 0 0 0 0
5191950000  0.376377472  0.535126208  0.086754488 -0.078827184 0 0 0 0
5197000000  0.429584448  0.499780576  0.080472320 -0.084299776 0 0 0 0
5202050000  0.475013184  0.458722432  0.073746152 -0.088963312 0 0 0 0
5207100000  0.518844320  0.419325344  0.067004800 -0.092514640 0 0 0 0
5212150000  0.558549248  0.372747936  0.061115140 -0.094656248 0 0 0 0
5217200000  0.593740672  0.322725600  0.054456040 -0.096574408 0 0 0 0
5222250000  0.621723200  0.270756608  0.048667532 -0.097754168 0 0 0 0
5227300000  0.646740352  0.216269408  0.041918780 -0.098920928 0 0 0 0
5232350000  0.668231040  0.160447280  0.035589824 -0.099421264 0 0 0 0
5237400000  0.682635008  0.098313040  0.031179406 -0.098919552 0 0 0 0
5242450000  0.691156736  0.039773040  0.026736410 -0.098413144 0 0 0 0
5247500000  0.695307136 -0.021907740  0.021368156 -0.098301112 0 0 0 0
5252550000  0.693745536 -0.082843096  0.018570434 -0.097372032 0 0 0 0
5257600000  0.685592640 -0.142462336  0.014027464 -0.096561744 0 0 0 0
5262650000  0.669682112 -0.202657728  0.011703239 -0.095952272 0 0 0 0
5267700000  0.653286592 -0.260726032  0.007968152 -0.095429112 0 0 0 0
5272750000  0.627689472 -0.320982976  0.005491692 -0.094876416 0 0 0 0
5277800000  0.598706752 -0.376324960  0.003043602 -0.094710072 0 0 0 0
5282850000  0.564130112 -0.426115680  0.000827927 -0.094647544 0 0 0 0
5287900000  0.520090336 -0.476478112 -0.001454061 -0.094880728 0 0 0 0
5292950000  0.465848288 -0.522256128 -0.003448499 -0.095038328 0 0 0 0
5298000000  0.418234720 -0.565411264 -0.005987217 -0.095843272 0 0 0 0
5303050000  0.363061888 -0.602230464 -0.007582580 -0.096565280 0 0 0 0
5308100000  0.302675776 -0.629317760 -0.010339683 -0.097522952 0 0 0 0
5313150000  0.245996656 -0.657977472 -0.012123710 -0.099135240 0 0 0 0
5318200000  0.167978816 -0.672943232 -0.014229889 -0.100453880 0 0 0 0
5323250000  0.105060136 -0.687919616 -0.016942850 -0.102006888 0 0 0 0
5328300000  0.022048976 -0.685564800 -0.020086302 -0.103548104 0 0 0 0
5333350000 -0.036729092 -0.680490240 -0.022737936 -0.105401992 0 0 0 0
5338400000 -0.118502528 -0.660982272 -0.025823632 -0.107133224 0 0 0 0
5343450000 -0.176475232 -0.643682688 -0.027602946 -0.109509640 0 0 0 0
5348500000 -0.265062128 -0.584673984 -0.034466224 -0.109913360 0 0 0 0
5353550000 -0.309949632 -0.552643072 -0.038100784 -0.111566288 0 0 0 0
5358600000 -0.346193632 -0.534857568 -0.039796928 -0.114259720 0 0 0 0
5363650000 -0.406650624 -0.477387584 -0.042734312 -0.116987352 0 0 0 0
5368700000 -0.450502944 -0.417388544 -0.048382888 -0.118235112 0 0 0 0
5373750000 -0.482032096 -0.370923232 -0.053034624 -0.120609608 0 0 0 0
5378800000 -0.511172352 -0.306040096 -0.058229908 -0.122377976 0 0 0 0
5383850000 -0.530879840 -0.254524016 -0.063522584 -0.124673832 0 0 0 0
5388900000 -0.551905856 -0.185237296 -0.068757064 -0.126779128 0 0 0 0
5393950000 -0.562676352 -0.116138984 -0.076268856 -0.128161104 0 0 0 0
5399000000 -0.563657280 -0.060746404 -0.083769664 -0.129211472 0 0 0 0
5404050000 -0.562696128  0.019823318 -0.093147704 -0.129494536 0 0 0 0
5409100000 -0.552251264  0.046985404 -0.097464840 -0.133110048 0 0 0 0
5414150000 -0.536275136  0.126861304 -0.107449792 -0.132398976 0 0 0 0
5419200000 -0.517575744  0.182379584 -0.115013440 -0.134023712 0 0 0 0
5424250000 -0.487338368  0.233367872 -0.125681296 -0.132304240 0 0 0 0
5429300000 -0.454564128  0.286316576 -0.136617552 -0.129628944 0 0 0 0
5434350000 -0.425502816  0.330922944 -0.146109968 -0.128341616 0 0 0 0
5439400000 -0.380285024  0.372273696 -0.156362272 -0.125485344 0 0 0 0
5444450000 -0.334062144  0.413056320 -0.166508960 -0.122782520 0 0 0 0
5449500000 -0.289722144  0.442812416 -0.179299168 -0.114083912 0 0 0 0
5454550000 -0.237317392  0.466001920 -0.187998368 -0.110739760 0 0 0 0
5459600000 -0.200232112  0.502624448 -0.200273152 -0.099738256 0 0 0 0
5464650000 -0.139200368  0.509239616 -0.208640528 -0.094437320 0 0 0 0
5469700000 -0.088477504  0.525531936 -0.218816704 -0.080047368 0 0 0 0
5474750000 -0.034225916  0.527606560 -0.227722784 -0.068472576 0 0 0 0
5479800000  0.016034969  0.530936768 -0.234717872 -0.057318568 0 0 0 0
5484850000  0.064030120  0.531528832 -0.241633120 -0.040540940 0 0 0 0
5489900000  0.116395704  0.515836000 -0.245764128 -0.030574386 0 0 0 0
5494950000  0.166431552  0.505417056 -0.249475680 -0.016836030 0 0 0 0
5500000000  0.207923296  0.487223616 -0.251010864 -0.003415557 0 0 0 0
5505050000  0.257611328  0.468718880 -0.251884544  0.018408400 0 0 0 0
5510100000  0.297368416  0.444074880 -0.251149744  0.027011358 0 0 0 0
5515150000  0.336089824  0.419327168 -0.249054608  0.045178616 0 0 0 0
5520200000  0.373677184  0.390416160 -0.245381920  0.057990584 0 0 0 0
5525250000  0.406178400  0.359495680 -0.241103136  0.072030264 0 0 0 0
5530300000  0.437727296  0.319432512 -0.236947008  0.083112344 0 0 0 0
5535350000  0.461530784  0.287737408 -0.231452944  0.094937760 0 0 0 0
5540400000  0.484438784  0.243661392 -0.225494912  0.105496896 0 0 0 0
5545450000  0.504681472  0.203609584 -0.219137712  0.115643640 0 0 0 0
5550500000  0.522243616  0.162955952 -0.211973728  0.125085160 0 0 0 0
5555550000  0.526620576  0.117893912 -0.205204992  0.133936760 0 0 0 0
5560600000  0.538701568  0.077402000 -0.196884416  0.143130544 0 0 0 0
5565650000  0.542955200  0.032507186 -0.194188192  0.146125584 0 0 0 0
5570700000  0.539606272 -0.013167262 -0.187374752  0.153293664 0 0 0 0
5575750000  0.540135104 -0.053687344 -0.179895760  0.160997792 0 0 0 0
5580800000  0.532474624 -0.100342120 -0.174930432  0.165746768 0 0 0 0
5585850000  0.524454944 -0.138093760 -0.167469472  0.173392176 0 0 0 0
5590900000  0.508002944 -0.180244144 -0.163180960  0.178042912 0 0 0 0
5595950000  0.486188416 -0.223996576 -0.157651264  0.183975136 0 0 0 0
5601000000  0.478315424 -0.258783728 -0.153195024  0.189180784 0 0 0 0
5606050000  0.438575680 -0.299413952 -0.146909664  0.196620480 0 0 0 0
5611100000  0.406086496 -0.335743968 -0.139735424  0.204182304 0 0 0 0
5616150000  0.392525856 -0.365474880 -0.139862512  0.207913472 0 0 0 0
5621200000  0.355047264 -0.398423520 -0.137035488  0.213465872 0 0 0 0
5626250000  0.298379744 -0.425448672 -0.125449016  0.224985872 0 0 0 0
5631300000  0.269214080 -0.453752288 -0.123365352  0.230901040 0 0 0 0
5636350000  0.217768240 -0.466689504 -0.116547512  0.239111248 0 0 0 0
5641400000  0.173055104 -0.486317760 -0.110156104  0.248071872 0 0 0 0
5646450000  0.122851800 -0.497671744 -0.103838424  0.256655552 0 0 0 0
5651500000  0.086095528 -0.504493344 -0.096303104  0.264326032 0 0 0 0
5656550000  0.021419744 -0.499476544 -0.089286144  0.272778272 0 0 0 0
5661600000 -0.017595798 -0.495841280 -0.077986520  0.282153280 0 0 0 0
5666650000 -0.069878992 -0.487693952 -0.069357776  0.290214784 0 0 0 0
5671700000 -0.111711272 -0.475128768 -0.062508240  0.298217312 0 0 0 0
5676750000 -0.164465792 -0.453869088 -0.048758184  0.306861664 0 0 0 0
5681800000 -0.214969312 -0.421915232 -0.033876036  0.315357312 0 0 0 0
5686850000 -0.238035776 -0.404808000 -0.022363220  0.323084000 0 0 0 0
5691900000 -0.283512704 -0.367558848 -0.011367903  0.329851904 0 0 0 0
5696950000 -0.321599680 -0.327752032  0.004956395  0.336733504 0 0 0 0
5702000000 -0.345451904 -0.296224384  0.024298476  0.342986432 0 0 0 0
5707050000 -0.376295136 -0.247684288  0.037200284  0.348524256 0 0 0 0
5712100000 -0.394818976 -0.204100032  0.058088488  0.352381728 0 0 0 0
5717150000 -0.412575456 -0.158203232  0.075407752  0.355775200 0 0 0 0
5722200000 -0.423524704 -0.110620376  0.096032312  0.358088640 0 0 0 0
5727250000 -0.430679808 -0.061921972  0.117745840  0.358015936 0 0 0 0
5732300000 -0.431815328 -0.010472559  0.137414064  0.357246048 0 0 0 0
5737350000 -0.432352128  0.040362556  0.167053344  0.349847264 0 0 0 0
5742400000 -0.414706752  0.087025504  0.180949040  0.348701600 0 0 0 0
5747450000 -0.407376096  0.131514488  0.209486448  0.337291904 0 0 0 0
5752500000 -0.379821536  0.171453088  0.229591200  0.328537760 0 0 0 0
5757550000 -0.362920544  0.216804976  0.276067392  0.300270848 0 0 0 0
5762600000 -0.333917536  0.243943168  0.273614464  0.301447264 0 0 0 0
5767650000 -0.306520736  0.279803744  0.312664448  0.268143712 0 0 0 0
5772700000 -0.270882528  0.307823136  0.307467904  0.268822624 0 0 0 0
5777750000 -0.237572512  0.328820352  0.325791616  0.248417520 0 0 0 0
5782800000 -0.204479328  0.352071936  0.356174944  0.211059472 0 0 0 0
5787850000 -0.174352752  0.366435104  0.354593280  0.206838816 0 0 0 0
5792900000 -0.125462976  0.375638080  0.376439968  0.170666624 0 0 0 0
5797950000 -0.092513008  0.385571904  0.370615456  0.171838896 0 0 0 0
5803000000 -0.056790016  0.390947744  0.380676960  0.144334992 0 0 0 0
5808050000 -0.021717068  0.393475744  0.387839392  0.115715264 0 0 0 0
5813100000  0.012332718  0.391781888  0.388882816  0.098079312 0 0 0 0
5818150000  0.050810896  0.388157024  0.390226464  0.079902296 0 0 0 0
5823200000  0.082508712  0.379937920  0.390610752  0.051207220 0 0 0 0
5828250000  0.116016288  0.371100128  0.388000640  0.030412910 0 0 0 0
5833300000  0.144613408  0.359028800  0.385603264  0.013906301 0 0 0 0
5838350000  0.168122240  0.346840576  0.380686816 -0.008187975 0 0 0 0
5843400000  0.198307168  0.331634496  0.375789248 -0.023376394 0 0 0 0
5848450000  0.225458416  0.313266752  0.369225216 -0.040728136 0 0 0 0
5853500000  0.245498288  0.296540096  0.361263104 -0.059522144 0 0 0 0
5858550000  0.263597072  0.269514304  0.352589664 -0.078928984 0 0 0 0
5863600000  0.279313472  0.248271696  0.345488896 -0.090611176 0 0 0 0
5868650000  0.298833152  0.232630096  0.336438144 -0.101803880 0 0 0 0
5873700000  0.320318496  0.204019072  0.326189408 -0.118524992 0 0 0 0
5878750000  0.328428608  0.183482736  0.318057120 -0.127240960 0 0 0 0
5883800000  0.336272352  0.158202784  0.307780256 -0.140317872 0 0 0 0
5888850000  0.346006976  0.135683760  0.298609792 -0.148065136 0 0 0 0
5893900000  0.360185504  0.106588928  0.291723712 -0.155662016 0 0 0 0
5898950000  0.360773568  0.085684408  0.282935680 -0.162201632 0 0 0 0
5904000000  0.370223008  0.062264676  0.275308992 -0.170164752 0 0 0 0
5909050000  0.371595744  0.037084160  0.267394240 -0.177061472 0 0 0 0
5914100000  0.371044000  0.011163339  0.260142800 -0.183407424 0 0 0 0
5919150000  0.376491488 -0.013583747  0.253294464 -0.188729776 0 0 0 0
5924200000  0.366763296 -0.045452108  0.242672368 -0.199683296 0 0 0 0
5929250000  0.372461728 -0.063513584  0.235789168 -0.205416384 0 0 0 0
5934300000  0.370303328 -0.091870208  0.230565472 -0.208613712 0 0 0 0
5939350000  0.357744288 -0.119699736  0.223912704 -0.216052224 0 0 0 0
5944400000  0.344475136 -0.149009088  0.217579328 -0.222012688 0 0 0 0
5949450000  0.337831840 -0.177138832  0.209153056 -0.229528368 0 0 0 0
5954500000  0.325638464 -0.205192160  0.199425616 -0.238944128 0 0 0 0
5959550000  0.321006400 -0.225336528  0.195316352 -0.242717200 0 0 0 0
5964600000  0.289295808 -0.256789120  0.187519328 -0.249720048 0 0 0 0
5969650000  0.281592384 -0.277854368  0.178494640 -0.257816112 0 0 0 0
5974700000  0.250097184 -0.307343040  0.169416672 -0.265030944 0 0 0 0
5979750000  0.233646480 -0.329867616  0.161942160 -0.271159872 0 0 0 0
5984800000  0.204912064 -0.353765056  0.154067616 -0.277716064 0 0 0 0
5989850000  0.179108304 -0.373350368  0.144887984 -0.283880032 0 0 0 0
5994900000  0.132634400 -0.389618144  0.127926840 -0.292915648 0 0 0 0
5999950000  0.086165248 -0.406129472  0.120488600 -0.297566208 0 0 0 0
6005000000  0.068985544 -0.411733536  0.107690096 -0.303240736 0 0 0 0
