!File created by NanoVNA
# Hz S RI R 50
4995000000  0.205385024 -0.714791680 -0.015677786 -0.111621160 0 0 0 0
5000050000  0.137328320 -0.729650304 -0.015437314 -0.113020864 0 0 0 0
5005100000  0.065500424 -0.735293504 -0.018074112 -0.114040696 0 0 0 0
5010150000 -0.016440314 -0.733007168 -0.018144096 -0.115912472 0 0 0 0
5015200000 -0.090570928 -0.728144640 -0.019996210 -0.117819936 0 0 0 0
5020250000 -0.163259008 -0.707804864 -0.025838606 -0.120485704 0 0 0 0
5025300000 -0.246196144 -0.675244032 -0.027962768 -0.122566496 0 0 0 0
5030350000 -0.304651232 -0.644166336 -0.029788870 -0.124962272 0 0 0 0
5035400000 -0.371012416 -0.601729600 -0.031696164 -0.128026856 0 0 0 0
5040450000 -0.429376576 -0.547896512 -0.035056788 -0.130069424 0 0 0 0
5045500000 -0.479197248 -0.491633152 -0.038620748 -0.132352504 0 0 0 0
5050550000 -0.523330048 -0.424587296 -0.042303748 -0.135164720 0 0 0 0
5055600000 -0.556945152 -0.360933248 -0.046645328 -0.137344832 0 0 0 0
5060650000 -0.578787840 -0.307740192 -0.048197128 -0.141280816 0 0 0 0
5065700000 -0.602376192 -0.224570272 -0.054224668 -0.143498928 0 0 0 0
5070750000 -0.615985984 -0.165529840 -0.058958188 -0.147258096 0 0 0 0
5075800000 -0.622132480 -0.086735816 -0.065026792 -0.150373216 0 0 0 0
5080850000 -0.620995648 -0.030187680 -0.070159160 -0.154181104 0 0 0 0
5085900000 -0.610844160  0.048654648 -0.077378144 -0.157702416 0 0 0 0
5090950000 -0.601095872  0.105968600 -0.084703968 -0.161315776 0 0 0 0
5096000000 -0.578582912  0.166926480 -0.092737232 -0.165267088 0 0 0 0
5101050000 -0.547727488  0.237010368 -0.102670928 -0.168075504 0 0 0 0
5106100000 -0.519163488  0.293041440 -0.114058408 -0.170789888 0 0 0 0
5111150000 -0.485521600  0.338043776 -0.123945776 -0.175049328 0 0 0 0
5116200000 -0.442671424  0.392569248 -0.138478032 -0.175711360 0 0 0 0
5121250000 -0.395854144  0.430646688 -0.152122288 -0.176508256 0 0 0 0
5126300000 -0.346370176  0.470714496 -0.167111728 -0.177116560 0 0 0 0
5131350000 -0.300153888  0.501044032 -0.185122832 -0.173113440 0 0 0 0
5136400000 -0.244487472  0.529975584 -0.201046352 -0.170746496 0 0 0 0
5141450000 -0.188821152  0.554763072 -0.220797712 -0.162799840 0 0 0 0
5146500000 -0.135195008  0.566839360 -0.240594320 -0.151620128 0 0 0 0
5151550000 -0.077107456  0.582207232 -0.258570160 -0.140932960 0 0 0 0
5156600000 -0.028014398  0.588459520 -0.277740064 -0.123603264 0 0 0 0
5161650000  0.032896020  0.593375872 -0.293293440 -0.109055904 0 0 0 0
5166700000  0.085887144  0.584941312 -0.308083616 -0.089322616 0 0 0 0
5171750000  0.140235104  0.582492288 -0.321751584 -0.060463548 0 0 0 0
5176800000  0.194751536  0.565443904 -0.329763744 -0.037583276 0 0 0 0
5181850000  0.244720720  0.551319424 -0.335953952 -0.009077671 0 0 0 0
5186900000  0.300108128  0.532890752 -0.337861024  0.020796284 0 0 0 0
5191950000  0.349026048  0.509767584 -0.334852000  0.048695980 0 0 0 0
5197000000  0.394324544  0.480805888 -0.329693248  0.072250496 0 0 0 0
5202050000  0.441830752  0.445846368 -0.319547840  0.099927776 0 0 0 0
5207100000  0.482457632  0.413663648 -0.306745920  0.124170856 0 0 0 0
5212150000  0.523946944  0.371882400 -0.291583136  0.144811168 0 0 0 0
5217200000  0.559654272  0.328909024 -0.275549152  0.162594384 0 0 0 0
5222250000  0.589755328  0.283183424 -0.259352688  0.175851168 0 0 0 0
5227300000  0.618703424  0.230381184 -0.238895360  0.191324736 0 0 0 0
5232350000  0.642571392  0.180399792 -0.222103024  0.199254144 0 0 0 0
5237400000  0.660766464  0.118775728 -0.202689920  0.208904768 0 0 0 0
5242450000  0.674073216  0.066609608 -0.188000832  0.211640240 0 0 0 0
5247500000  0.681727936  0.006326103 -0.169818288  0.216489392 0 0 0 0
5252550000  0.683480960 -0.054495580 -0.157233200  0.217944016 0 0 0 0
5257600000  0.682987648 -0.110783696 -0.143625952  0.218260912 0 0 0 0
5262650000  0.670622080 -0.171872880 -0.130990328  0.218242416 0 0 0 0
5267700000  0.656793216 -0.230873616 -0.120044024  0.217934640 0 0 0 0
5272750000  0.638433920 -0.290259072 -0.109722288  0.216607840 0 0 0 0
5277800000  0.609367040 -0.348791392 -0.101192984  0.215788464 0 0 0 0
5282850000  0.575440128 -0.402096064 -0.092409000  0.215374016 0 0 0 0
5287900000  0.538236672 -0.453756992 -0.086398960  0.213395376 0 0 0 0
5292950000  0.486112032 -0.502387360 -0.076501760  0.213740416 0 0 0 0
5298000000  0.444653728 -0.547432128 -0.073307176  0.212137648 0 0 0 0
5303050000  0.390477856 -0.587115456 -0.067470248  0.212088240 0 0 0 0
5308100000  0.326731968 -0.619258560 -0.060480856  0.212845104 0 0 0 0
5313150000  0.264938768 -0.648165888 -0.055511868  0.213241472 0 0 0 0
5318200000  0.190883808 -0.667254208 -0.049645248  0.213809088 0 0 0 0
5323250000  0.124075760 -0.685013696 -0.044911576  0.214469488 0 0 0 0
5328300000  0.047076308 -0.688023296 -0.039683468  0.215337744 0 0 0 0
5333350000 -0.023188286 -0.682471424 -0.035395980  0.216229488 0 0 0 0
5338400000 -0.101725008 -0.665691584 -0.028953478  0.217599792 0 0 0 0
5343450000 -0.159987264 -0.650654464 -0.027405872  0.217961168 0 0 0 0
5348500000 -0.245209888 -0.606510656 -0.017750506  0.219270848 0 0 0 0
5353550000 -0.297056608 -0.572771392 -0.008655061  0.220396080 0 0 0 0
5358600000 -0.354666880 -0.516967520 -0.000358111  0.220656656 0 0 0 0
5363650000 -0.403421920 -0.474526144 -0.000421481  0.222506032 0 0 0 0
5368700000 -0.442056192 -0.420244192  0.006218852  0.222876096 0 0 0 0
5373750000 -0.477711968 -0.364429088  0.014077048  0.224250304 0 0 0 0
5378800000 -0.504082976 -0.311959040  0.019199024  0.225678960 0 0 0 0
5383850000 -0.529084160 -0.247281440  0.028855626  0.226730336 0 0 0 0
5388900000 -0.548525760 -0.179325088  0.034676232  0.227930448 0 0 0 0
5393950000 -0.558302848 -0.115374112  0.044134116  0.229507056 0 0 0 0
5399000000 -0.560488704 -0.061122832  0.052501028  0.230543712 0 0 0 0
5404050000 -0.556274944  0.011502771  0.061761744  0.231551216 0 0 0 0
5409100000 -0.547949824  0.069657560  0.074123656  0.231263968 0 0 0 0
5414150000 -0.532966624  0.133361128  0.082006864  0.232456592 0 0 0 0
5419200000 -0.511299424  0.187109120  0.091834952  0.233126016 0 0 0 0
5424250000 -0.481016928  0.236106400  0.107301256  0.230057024 0 0 0 0
5429300000 -0.446738048  0.295184032  0.119641024  0.227967536 0 0 0 0
5434350000 -0.419284448  0.334917280  0.130975832  0.226280496 0 0 0 0
5439400000 -0.371600704  0.380451808  0.144962960  0.221876800 0 0 0 0
5444450000 -0.324440896  0.416276672  0.155145760  0.218932160 0 0 0 0
5449500000 -0.280410272  0.447789472  0.173646336  0.209567408 0 0 0 0
5454550000 -0.226153008  0.474796352  0.186041120  0.202999168 0 0 0 0
5459600000 -0.191675296  0.502187328  0.198944528  0.194185056 0 0 0 0
5464650000 -0.128885536  0.514165408  0.211810176  0.184988544 0 0 0 0
5469700000 -0.079253184  0.527471296  0.224445728  0.171642624 0 0 0 0
5474750000 -0.026266796  0.526285472  0.237107568  0.156332832 0 0 0 0
5479800000  0.022985326  0.529497568  0.246414304  0.144746448 0 0 0 0
5484850000  0.068941120  0.527356096  0.255988208  0.129162000 0 0 0 0
5489900000  0.122333744  0.514482208  0.263521248  0.113466976 0 0 0 0
5494950000  0.170827392  0.503332800  0.270578496  0.096081624 0 0 0 0
5500000000  0.212174336  0.486900096  0.274331168  0.079526784 0 0 0 0
5505050000  0.259108640  0.466800096  0.278619072  0.058985072 0 0 0 0
5510100000  0.298177760  0.443159104  0.278666592  0.045902588 0 0 0 0
5515150000  0.335308960  0.418723136  0.279577536  0.026795218 0 0 0 0
5520200000  0.371346976  0.390257568  0.277359488  0.011193270 0 0 0 0
5525250000  0.403532672  0.359625056  0.275856032 -0.004810305 0 0 0 0
5530300000  0.433753184  0.320756224  0.272270784 -0.020425820 0 0 0 0
5535350000  0.456195680  0.290318656  0.267812128 -0.035025756 0 0 0 0
5540400000  0.480396480  0.248557088  0.262888880 -0.047082912 0 0 0 0
5545450000  0.499058880  0.208259504  0.257448944 -0.059764376 0 0 0 0
5550500000  0.514195616  0.166784640  0.250426256 -0.073743256 0 0 0 0
5555550000  0.524581088  0.128090128  0.245211728 -0.080859688 0 0 0 0
5560600000  0.533062944  0.086401456  0.237004704 -0.093603920 0 0 0 0
5565650000  0.535202144  0.041015964  0.231389184 -0.100105968 0 0 0 0
5570700000  0.532273952 -0.003508059  0.223546320 -0.110491616 0 0 0 0
5575750000  0.535636416 -0.041946248  0.216512672 -0.119060192 0 0 0 0
5580800000  0.527606016 -0.087241424  0.210888944 -0.124727272 0 0 0 0
5585850000  0.519441792 -0.125135736  0.203424352 -0.132955464 0 0 0 0
5590900000  0.503170144 -0.168518576  0.199277856 -0.137238432 0 0 0 0
5595950000  0.485614016 -0.209455408  0.191738320 -0.144986368 0 0 0 0
5601000000  0.472097280 -0.246023024  0.185310112 -0.151453952 0 0 0 0
5606050000  0.442051488 -0.285055776  0.180742528 -0.156865424 0 0 0 0
5611100000  0.424514176 -0.318274720  0.175368704 -0.163390464 0 0 0 0
5616150000  0.377158560 -0.354125216  0.168498288 -0.171021280 0 0 0 0
5621200000  0.340992800 -0.387824832  0.161791232 -0.178646368 0 0 0 0
5626250000  0.314325216 -0.413012608  0.155489136 -0.185454896 0 0 0 0
5631300000  0.274466976 -0.442596480  0.148312592 -0.193081808 0 0 0 0
5636350000  0.215544720 -0.455603616  0.140256672 -0.200464384 0 0 0 0
5641400000  0.178688912 -0.475507840  0.135122304 -0.206014304 0 0 0 0
5646450000  0.123206096 -0.482409024  0.125918728 -0.213929136 0 0 0 0
5651500000  0.090210112 -0.495621248  0.116708144 -0.221385296 0 0 0 0
5656550000  0.030105082 -0.493078336  0.107540208 -0.228807520 0 0 0 0
5661600000 -0.024251548 -0.486457184  0.096009568 -0.236438512 0 0 0 0
5666650000 -0.066750624 -0.481360992  0.086398656 -0.242785136 0 0 0 0
5671700000 -0.121184640 -0.463949792  0.075756800 -0.249219728 0 0 0 0
5676750000 -0.160681040 -0.448167552  0.063678840 -0.254840704 0 0 0 0
5681800000 -0.210225632 -0.420828448  0.049393256 -0.261740928 0 0 0 0
5686850000 -0.243394176 -0.393123360  0.037974696 -0.266656512 0 0 0 0
5691900000 -0.289209440 -0.360303744  0.021211016 -0.272284128 0 0 0 0
5696950000 -0.326364512 -0.320296928  0.005200459 -0.275908000 0 0 0 0
5702000000 -0.351534112 -0.285361408 -0.013761727 -0.279388960 0 0 0 0
5707050000 -0.384664032 -0.234319904 -0.028034694 -0.282097408 0 0 0 0
5712100000 -0.404919264 -0.187574288 -0.049762108 -0.282339008 0 0 0 0
5717150000 -0.414237568 -0.147402080 -0.062324384 -0.283044800 0 0 0 0
5722200000 -0.430497184 -0.089134712 -0.083256152 -0.281553600 0 0 0 0
5727250000 -0.436057024 -0.043429060 -0.108858104 -0.275140480 0 0 0 0
5732300000 -0.436659744  0.010744634 -0.125128776 -0.271753888 0 0 0 0
5737350000 -0.431580224  0.057259056 -0.149064864 -0.261253328 0 0 0 0
5742400000 -0.415705696  0.108452976 -0.165182656 -0.254611376 0 0 0 0
5747450000 -0.401393472  0.145186624 -0.185755216 -0.242400880 0 0 0 0
5752500000 -0.375027712  0.189044144 -0.203833456 -0.229242560 0 0 0 0
5757550000 -0.354978624  0.229796992 -0.221626608 -0.214572032 0 0 0 0
5762600000 -0.326933248  0.257098288 -0.237970432 -0.196994000 0 0 0 0
5767650000 -0.298738080  0.293501664 -0.250594848 -0.179042816 0 0 0 0
5772700000 -0.263272528  0.321602720 -0.264227328 -0.158058352 0 0 0 0
5777750000 -0.227284624  0.335402688 -0.274457696 -0.139057424 0 0 0 0
5782800000 -0.193821376  0.355317376 -0.283422944 -0.117706864 0 0 0 0
5787850000 -0.164294592  0.366635328 -0.291372672 -0.093796248 0 0 0 0
5792900000 -0.120183368  0.378780448 -0.294271136 -0.073775416 0 0 0 0
5797950000 -0.087089856  0.384211360 -0.297004928 -0.052555536 0 0 0 0
5803000000 -0.050992576  0.386861888 -0.297357088 -0.029902198 0 0 0 0
5808050000 -0.019135574  0.386996416 -0.295745088 -0.001120835 0 0 0 0
5813100000  0.011474173  0.384355488 -0.292241920  0.014215236 0 0 0 0
5818150000  0.045997776  0.381033120 -0.287794048  0.032533520 0 0 0 0
5823200000  0.075775968  0.373592064 -0.280237024  0.054688484 0 0 0 0
5828250000  0.105634128  0.365252896 -0.271997920  0.072088544 0 0 0 0
5833300000  0.131058472  0.355393568 -0.263014944  0.088280680 0 0 0 0
5838350000  0.151625296  0.344486880 -0.252787776  0.103983712 0 0 0 0
5843400000  0.173817952  0.330037280 -0.239715760  0.121671472 0 0 0 0
5848450000  0.200196528  0.314875296 -0.228615648  0.133137168 0 0 0 0
5853500000  0.219857568  0.302639872 -0.216740144  0.144126160 0 0 0 0
5858550000  0.239719552  0.281181408 -0.201440400  0.157811744 0 0 0 0
5863600000  0.261941552  0.269674784 -0.192900992  0.161479440 0 0 0 0
5868650000  0.275269216  0.250868880 -0.177584160  0.172163424 0 0 0 0
5873700000  0.298076096  0.226934400 -0.161726832  0.181460896 0 0 0 0
5878750000  0.310774752  0.210466800 -0.151235360  0.185051792 0 0 0 0
5883800000  0.328043424  0.193781904 -0.139637376  0.189263136 0 0 0 0
5888850000  0.339657120  0.168890864 -0.127017008  0.194130064 0 0 0 0
5893900000  0.357655744  0.142435728 -0.115048344  0.197420432 0 0 0 0
5898950000  0.363804832  0.121031096 -0.105890320  0.198267808 0 0 0 0
5904000000  0.380579808  0.098063840 -0.092815992  0.202128256 0 0 0 0
5909050000  0.387896960  0.071138640 -0.084857048  0.202944992 0 0 0 0
5914100000  0.393027008  0.041516456 -0.073933968  0.205050656 0 0 0 0
5919150000  0.407279648  0.015520811 -0.067518544  0.205770176 0 0 0 0
5924200000  0.403606688 -0.021218002 -0.054268892  0.208413296 0 0 0 0
5929250000  0.399486944 -0.055547780 -0.043394448  0.210467280 0 0 0 0
5934300000  0.404759840 -0.089795672 -0.036880372  0.211294816 0 0 0 0
5939350000  0.388377856 -0.122694328 -0.028158656  0.213227136 0 0 0 0
5944400000  0.384229888 -0.155954000 -0.019605178  0.214709456 0 0 0 0
5949450000  0.376087552 -0.193529040 -0.008784326  0.216764144 0 0 0 0
5954500000  0.361267264 -0.228905424  0.001625036  0.218827104 0 0 0 0
5959550000  0.334338848 -0.262881968  0.009997252  0.219859584 0 0 0 0
5964600000  0.310804320 -0.296400864  0.020088968  0.222342352 0 0 0 0
5969650000  0.294643456 -0.321810944  0.029762080  0.224351760 0 0 0 0
5974700000  0.252675440 -0.354843904  0.040672468  0.225210544 0 0 0 0
5979750000  0.232941040 -0.376090784  0.050723632  0.227176704 0 0 0 0
5984800000  0.174036720 -0.402965152  0.066730680  0.226303264 0 0 0 0
5989850000  0.157033360 -0.419885920  0.073319536  0.229136624 0 0 0 0
5994900000  0.102792728 -0.434016864  0.089618376  0.228294464 0 0 0 0
5999950000  0.034284892 -0.445351776  0.106796616  0.225752592 0 0 0 0
6005000000  0.014645308 -0.446187392  0.120085248  0.223492496 0 0 0 0
