!File created by NanoVNA
# Hz S RI R 50
4995000000  0.198291328 -0.713494272 -0.019667174 -0.113562136 0 0 0 0
5000050000  0.126904712 -0.727506112 -0.021099210 -0.114861280 0 0 0 0
5005100000  0.066077920 -0.736971008 -0.022260848 -0.115941192 0 0 0 0
5010150000 -0.015204358 -0.735336768 -0.022800808 -0.117939936 0 0 0 0
5015200000 -0.096361512 -0.724614144 -0.024973352 -0.119862152 0 0 0 0
5020250000 -0.154655344 -0.714967808 -0.029246756 -0.123066304 0 0 0 0
5025300000 -0.241719536 -0.680327552 -0.032791808 -0.124944224 0 0 0 0
5030350000 -0.306580288 -0.647635264 -0.035697376 -0.127139048 0 0 0 0
5035400000 -0.376758688 -0.597989888 -0.038845712 -0.129468384 0 0 0 0
5040450000 -0.432864064 -0.547075776 -0.041736340 -0.132003424 0 0 0 0
5045500000 -0.483400672 -0.491880256 -0.046473584 -0.134163056 0 0 0 0
5050550000 -0.530593504 -0.421713248 -0.049700772 -0.137017840 0 0 0 0
5055600000 -0.560801472 -0.366754400 -0.054048984 -0.139517648 0 0 0 0
5060650000 -0.585489088 -0.299963168 -0.058448392 -0.142235040 0 0 0 0
5065700000 -0.605493056 -0.231711584 -0.063088544 -0.145001072 0 0 0 0
5070750000 -0.619499264 -0.167860096 -0.070121816 -0.147594816 0 0 0 0
5075800000 -0.623676288 -0.089099712 -0.074885576 -0.151162256 0 0 0 0
5080850000 -0.624560704 -0.025606276 -0.081998568 -0.154109056 0 0 0 0
5085900000 -0.615153024  0.042301240 -0.089795080 -0.157051600 0 0 0 0
5090950000 -0.603012352  0.108332720 -0.097361336 -0.160751632 0 0 0 0
5096000000 -0.583200896  0.167318960 -0.107285712 -0.162960064 0 0 0 0
5101050000 -0.553265792  0.238802960 -0.116961856 -0.166083536 0 0 0 0
5106100000 -0.529036992  0.283362080 -0.128482176 -0.168008704 0 0 0 0
5111150000 -0.489992448  0.337007840 -0.141139456 -0.169624256 0 0 0 0
5116200000 -0.448008224  0.391447328 -0.155498640 -0.168932704 0 0 0 0
5121250000 -0.403478464  0.431029664 -0.171535696 -0.167448816 0 0 0 0
5126300000 -0.354146784  0.471104288 -0.186106064 -0.166150416 0 0 0 0
5131350000 -0.312888576  0.496933856 -0.203306256 -0.161714800 0 0 0 0
5136400000 -0.253292448  0.532845856 -0.220589936 -0.155182784 0 0 0 0
5141450000 -0.200725680  0.557425792 -0.240916688 -0.143639264 0 0 0 0
5146500000 -0.144349440  0.571199680 -0.259118592 -0.131022584 0 0 0 0
5151550000 -0.088559448  0.586069760 -0.275403200 -0.118485776 0 0 0 0
5156600000 -0.038920256  0.593779328 -0.292309760 -0.100007568 0 0 0 0
5161650000  0.026968848  0.601734912 -0.307373856 -0.078168024 0 0 0 0
5166700000  0.076393088  0.592447680 -0.319032736 -0.057501344 0 0 0 0
5171750000  0.133697808  0.591185216 -0.328864160 -0.028840578 0 0 0 0
5176800000  0.189094656  0.575559680 -0.334380096 -0.002058830 0 0 0 0
5181850000  0.242216464  0.562028096 -0.335309440  0.028017294 0 0 0 0
5186900000  0.295625888  0.543571584 -0.333203584  0.054714804 0 0 0 0
5191950000  0.344692512  0.520396128 -0.326986208  0.083673640 0 0 0 0
5197000000  0.395268672  0.490869216 -0.317554176  0.107127448 0 0 0 0
5202050000  0.441389632  0.456081088 -0.303916608  0.133662744 0 0 0 0
5207100000  0.485362464  0.423118720 -0.287420032  0.155957312 0 0 0 0
5212150000  0.527892160  0.379684288 -0.270834112  0.172833616 0 0 0 0
5217200000  0.565301952  0.335188256 -0.251713040  0.188445712 0 0 0 0
5222250000  0.595648128  0.288298176 -0.234691392  0.198513952 0 0 0 0
5227300000  0.624661888  0.233990416 -0.213406288  0.209423232 0 0 0 0
5232350000  0.649106880  0.181656128 -0.192622304  0.218286048 0 0 0 0
5237400000  0.667633728  0.122824568 -0.176958576  0.221439056 0 0 0 0
5242450000  0.681308480  0.066929832 -0.161640480  0.222851952 0 0 0 0
5247500000  0.689514560  0.005168728 -0.143608064  0.225287584 0 0 0 0
5252550000  0.690655296 -0.058400796 -0.128838928  0.226006432 0 0 0 0
5257600000  0.686512640 -0.116952432 -0.116346592  0.223795776 0 0 0 0
5262650000  0.676546112 -0.176141296 -0.107451472  0.221090320 0 0 0 0
5267700000  0.660878272 -0.238770544 -0.093573744  0.220973008 0 0 0 0
5272750000  0.637954048 -0.299984416 -0.085298192  0.218005920 0 0 0 0
5277800000  0.608564800 -0.358582720 -0.077397224  0.215817696 0 0 0 0
5282850000  0.578655616 -0.410886944 -0.068828352  0.214641952 0 0 0 0
5287900000  0.535206848 -0.464695808 -0.063488848  0.212431024 0 0 0 0
5292950000  0.494034560 -0.510115680 -0.056329328  0.210715296 0 0 0 0
5298000000  0.441715456 -0.556985984 -0.051045620  0.209637568 0 0 0 0
5303050000  0.382271488 -0.598639424 -0.045924220  0.209008320 0 0 0 0
5308100000  0.323686304 -0.629088448 -0.040613676  0.208396176 0 0 0 0
5313150000  0.262237008 -0.658737152 -0.036169144  0.208891152 0 0 0 0
5318200000  0.191751952 -0.678719936 -0.032422166  0.208530928 0 0 0 0
5323250000  0.119182688 -0.694339520 -0.026422246  0.208957360 0 0 0 0
5328300000  0.044708928 -0.696822336 -0.020721214  0.209267088 0 0 0 0
5333350000 -0.035742264 -0.685911488 -0.016128814  0.209855984 0 0 0 0
5338400000 -0.090654552 -0.682785664 -0.015324559  0.210487392 0 0 0 0
5343450000 -0.198963104 -0.631631040 -0.000036115  0.211541328 0 0 0 0
5348500000 -0.244178656 -0.620488832 -0.002757162  0.211971152 0 0 0 0
5353550000 -0.309609984 -0.570633408  0.010195741  0.211584288 0 0 0 0
5358600000 -0.362328032 -0.519020672  0.017600070  0.211751296 0 0 0 0
5363650000 -0.408380224 -0.480190624  0.017374956  0.213333472 0 0 0 0
5368700000 -0.452636640 -0.413780192  0.024681700  0.213482544 0 0 0 0
5373750000 -0.481049408 -0.369438368  0.031177460  0.214362464 0 0 0 0
5378800000 -0.514156160 -0.304167584  0.037498156  0.215204528 0 0 0 0
5383850000 -0.532574368 -0.248484288  0.045992864  0.215404528 0 0 0 0
5388900000 -0.551259328 -0.181404016  0.053136432  0.216709360 0 0 0 0
5393950000 -0.558669696 -0.126421840  0.060540000  0.217780416 0 0 0 0
5399000000 -0.563152896 -0.062381964  0.070932112  0.217684160 0 0 0 0
5404050000 -0.560289792  0.007851075  0.080179760  0.218224416 0 0 0 0
5409100000 -0.550592000  0.064961696  0.092355120  0.217153840 0 0 0 0
5414150000 -0.533625792  0.120331936  0.099981584  0.217245904 0 0 0 0
5419200000 -0.513945152  0.183659472  0.109567448  0.217665136 0 0 0 0
5424250000 -0.482359136  0.236597744  0.125074672  0.212872224 0 0 0 0
5429300000 -0.448728160  0.290682752  0.136814592  0.210243728 0 0 0 0
5434350000 -0.421854368  0.328790112  0.149020368  0.206993536 0 0 0 0
5439400000 -0.373923488  0.374795680  0.161735792  0.201534864 0 0 0 0
5444450000 -0.329080000  0.405812896  0.171363456  0.198502080 0 0 0 0
5449500000 -0.284570272  0.439052608  0.188550960  0.187204592 0 0 0 0
5454550000 -0.232556912  0.464142848  0.200643776  0.179781856 0 0 0 0
5459600000 -0.196164304  0.498215904  0.215257328  0.166094336 0 0 0 0
5464650000 -0.135262800  0.505359584  0.225164736  0.157390736 0 0 0 0
5469700000 -0.086745344  0.520030336  0.237694672  0.142171568 0 0 0 0
5474750000 -0.034723836  0.520944480  0.247908544  0.127473760 0 0 0 0
5479800000  0.014669642  0.524560704  0.256617312  0.113481936 0 0 0 0
5484850000  0.059290612  0.522437568  0.265097056  0.095766552 0 0 0 0
5489900000  0.112180672  0.511117824  0.270723360  0.080090720 0 0 0 0
5494950000  0.159519360  0.499726528  0.274772064  0.064649508 0 0 0 0
5500000000  0.200913568  0.484812064  0.277924512  0.043676976 0 0 0 0
5505050000  0.246834528  0.465723424  0.279179136  0.026063048 0 0 0 0
5510100000  0.287796128  0.444297216  0.278501216  0.004928461 0 0 0 0
5515150000  0.324457568  0.420961216  0.277369216 -0.010583465 0 0 0 0
5520200000  0.362036704  0.394482816  0.273640384 -0.025090406 0 0 0 0
5525250000  0.394749984  0.364754240  0.268821088 -0.043019096 0 0 0 0
5530300000  0.426860320  0.327730112  0.263876704 -0.057550844 0 0 0 0
5535350000  0.451316928  0.298646944  0.257097904 -0.070737696 0 0 0 0
5540400000  0.474572256  0.254895056  0.249964528 -0.084557360 0 0 0 0
5545450000  0.496340384  0.216761264  0.241268528 -0.098108360 0 0 0 0
5550500000  0.515569792  0.177874096  0.233899728 -0.107311008 0 0 0 0
5555550000  0.524755168  0.136023680  0.225352576 -0.117938416 0 0 0 0
5560600000  0.540516992  0.099036400  0.217242752 -0.124919832 0 0 0 0
5565650000  0.539166464  0.046680108  0.208109824 -0.134517888 0 0 0 0
5570700000  0.540486464  0.004599141  0.198121488 -0.143502784 0 0 0 0
5575750000  0.543230464 -0.036501524  0.189482464 -0.150230176 0 0 0 0
5580800000  0.540441664 -0.083788064  0.182645824 -0.155033024 0 0 0 0
5585850000  0.531076864 -0.123831032  0.173461904 -0.161264032 0 0 0 0
5590900000  0.516416960 -0.168520816  0.165938176 -0.166869600 0 0 0 0
5595950000  0.504769312 -0.210199776  0.159737840 -0.170467744 0 0 0 0
5601000000  0.485066240 -0.252353072  0.150694864 -0.177167168 0 0 0 0
5606050000  0.456005152 -0.293812256  0.143368464 -0.181997680 0 0 0 0
5611100000  0.424167904 -0.332982368  0.134650400 -0.188265872 0 0 0 0
5616150000  0.409131520 -0.365590848  0.131396248 -0.190759792 0 0 0 0
5621200000  0.374738656 -0.402486176  0.124214144 -0.195950576 0 0 0 0
5626250000  0.319204352 -0.432665312  0.112972160 -0.203409024 0 0 0 0
5631300000  0.283359872 -0.463413888  0.104827984 -0.209143104 0 0 0 0
5636350000  0.230690256 -0.478168800  0.097534184 -0.213506704 0 0 0 0
5641400000  0.187068608 -0.500429920  0.088401024 -0.219222464 0 0 0 0
5646450000  0.123710224 -0.508194144  0.078419816 -0.224456080 0 0 0 0
5651500000  0.088560728 -0.522214240  0.067985864 -0.229917296 0 0 0 0
5656550000  0.024227684 -0.518367232  0.058355156 -0.234542624 0 0 0 0
5661600000 -0.035025692 -0.506671712  0.042680384 -0.239644080 0 0 0 0
5666650000 -0.078748600 -0.499430944  0.034401564 -0.242983824 0 0 0 0
5671700000 -0.136124640 -0.481394592  0.021378522 -0.247686848 0 0 0 0
5676750000 -0.167300576 -0.467708896  0.013237119 -0.250523872 0 0 0 0
5681800000 -0.232718928 -0.427343008 -0.005730274 -0.253900208 0 0 0 0
5686850000 -0.263956960 -0.398477024 -0.019789264 -0.256010704 0 0 0 0
5691900000 -0.303516064 -0.362587360 -0.032456920 -0.257721600 0 0 0 0
5696950000 -0.346114528 -0.314960512 -0.050140016 -0.258055392 0 0 0 0
5702000000 -0.368232640 -0.279492512 -0.069942760 -0.257298528 0 0 0 0
5707050000 -0.396398848 -0.228308576 -0.083673016 -0.256900544 0 0 0 0
5712100000 -0.409387808 -0.183813712 -0.102285264 -0.253160208 0 0 0 0
5717150000 -0.421361216 -0.135689664 -0.118019448 -0.249451920 0 0 0 0
5722200000 -0.427913280 -0.084197336 -0.136904432 -0.243776928 0 0 0 0
5727250000 -0.434386016 -0.032719038 -0.156606384 -0.233836400 0 0 0 0
5732300000 -0.427692736  0.011991377 -0.171652256 -0.227830704 0 0 0 0
5737350000 -0.424642272  0.064365620 -0.193986560 -0.211155440 0 0 0 0
5742400000 -0.402596800  0.109136400 -0.206446176 -0.202430912 0 0 0 0
5747450000 -0.389727040  0.149415040 -0.224785664 -0.184341696 0 0 0 0
5752500000 -0.359724448  0.184976736 -0.237734752 -0.170316240 0 0 0 0
5757550000 -0.340963136  0.225525552 -0.251842048 -0.152314224 0 0 0 0
5762600000 -0.313151136  0.249761280 -0.263091184 -0.133263272 0 0 0 0
5767650000 -0.283425280  0.279998816 -0.271512384 -0.114841256 0 0 0 0
5772700000 -0.248046256  0.303285120 -0.279694752 -0.093673832 0 0 0 0
5777750000 -0.218732640  0.322699936 -0.287049952 -0.068754768 0 0 0 0
5782800000 -0.187275984  0.339485664 -0.290475520 -0.049930280 0 0 0 0
5787850000 -0.156607920  0.347155200 -0.292088160 -0.028476024 0 0 0 0
5792900000 -0.117351976  0.358322720 -0.292641600 -0.007134953 0 0 0 0
5797950000 -0.088637648  0.367024736 -0.290145088  0.016692600 0 0 0 0
5803000000 -0.055996084  0.370015424 -0.286186528  0.037864900 0 0 0 0
5808050000 -0.023111304  0.369451968 -0.280864480  0.059888636 0 0 0 0
5813100000  0.004422042  0.368300928 -0.273966496  0.075390032 0 0 0 0
5818150000  0.034999168  0.367149600 -0.265170816  0.092240592 0 0 0 0
5823200000  0.065816448  0.361934848 -0.254483792  0.112194392 0 0 0 0
5828250000  0.091223408  0.355711616 -0.242666032  0.128620344 0 0 0 0
5833300000  0.118193176  0.348502336 -0.232136064  0.140673152 0 0 0 0
5838350000  0.135981664  0.339367520 -0.217457328  0.156221968 0 0 0 0
5843400000  0.162920448  0.329145600 -0.206089216  0.165947872 0 0 0 0
5848450000  0.186193824  0.315134624 -0.189279552  0.180333216 0 0 0 0
5853500000  0.211962240  0.308350112 -0.179697824  0.184909776 0 0 0 0
5858550000  0.232428496  0.289370208 -0.161267520  0.196524560 0 0 0 0
5863600000  0.252152352  0.275242016 -0.149279984  0.201472112 0 0 0 0
5868650000  0.272963136  0.262103344 -0.136310176  0.206248416 0 0 0 0
5873700000  0.297490016  0.240094864 -0.120351088  0.212025792 0 0 0 0
5878750000  0.312900832  0.224689072 -0.108429320  0.214329888 0 0 0 0
5883800000  0.331613824  0.205446928 -0.096998360  0.216460016 0 0 0 0
5888850000  0.345739424  0.182113264 -0.083467040  0.218945808 0 0 0 0
5893900000  0.364143392  0.151733552 -0.070829304  0.220626800 0 0 0 0
5898950000  0.372786240  0.128294272 -0.060049736  0.220727520 0 0 0 0
5904000000  0.393954240  0.105839128 -0.048500232  0.221574144 0 0 0 0
5909050000  0.402808256  0.076712608 -0.039641764  0.222282672 0 0 0 0
5914100000  0.403885856  0.041787856 -0.029020084  0.222638384 0 0 0 0
5919150000  0.427866464  0.018783292 -0.022895954  0.222240480 0 0 0 0
5924200000  0.411756032 -0.028800818 -0.007497140  0.223381776 0 0 0 0
5929250000  0.433083552 -0.044775140 -0.003274699  0.223884848 0 0 0 0
5934300000  0.429275264 -0.088806216  0.006557995  0.224084560 0 0 0 0
5939350000  0.401119072 -0.135530112  0.018909106  0.225347696 0 0 0 0
5944400000  0.404322176 -0.166014032  0.026240364  0.226053776 0 0 0 0
5949450000  0.388300640 -0.208703136  0.037521844  0.227300144 0 0 0 0
5954500000  0.380695872 -0.240218048  0.049201400  0.227939136 0 0 0 0
5959550000  0.353583104 -0.277400544  0.058268632  0.228334528 0 0 0 0
5964600000  0.319774368 -0.311960192  0.070918216  0.228978272 0 0 0 0
5969650000  0.293166368 -0.343540480  0.081809912  0.230063216 0 0 0 0
5974700000  0.259405968 -0.373090240  0.094543912  0.229917744 0 0 0 0
5979750000  0.226018784 -0.393958048  0.107493928  0.228828608 0 0 0 0
5984800000  0.188334304 -0.419643136  0.119167576  0.229984144 0 0 0 0
5989850000  0.136120288 -0.439248576  0.134615856  0.227676192 0 0 0 0
5994900000  0.086908888 -0.446580512  0.151621264  0.223394048 0 0 0 0
5999950000  0.034733924 -0.452701248  0.167669088  0.218804304 0 0 0 0
6005000000 -0.002500685 -0.453372160  0.183826560  0.213466864 0 0 0 0
