!File created by NanoVNA
# Hz S RI R 50
4995000000  0.219831168 -0.717927104 -0.007869689 -0.109328216 0 0 0 0
5000050000  0.130718352 -0.730372352 -0.010044558 -0.110346240 0 0 0 0
5005100000  0.069741160 -0.739171712 -0.011471769 -0.111490408 0 0 0 0
5010150000 -0.020479814 -0.732872256 -0.012181540 -0.113105160 0 0 0 0
5015200000 -0.093991512 -0.727411008 -0.012567493 -0.114951384 0 0 0 0
5020250000 -0.163317632 -0.709305600 -0.018157270 -0.117832496 0 0 0 0
5025300000 -0.239256256 -0.685432704 -0.018383060 -0.120336176 0 0 0 0
5030350000 -0.307727904 -0.646821888 -0.021904076 -0.122276720 0 0 0 0
5035400000 -0.375200608 -0.600541696 -0.022716114 -0.124992920 0 0 0 0
5040450000 -0.437595264 -0.542934528 -0.026434700 -0.127267840 0 0 0 0
5045500000 -0.484353440 -0.488189248 -0.029248050 -0.129496800 0 0 0 0
5050550000 -0.526144096 -0.433084576 -0.030933074 -0.132829544 0 0 0 0
5055600000 -0.559412416 -0.368995296 -0.034937152 -0.135076320 0 0 0 0
5060650000 -0.586250048 -0.291855968 -0.037498320 -0.138316192 0 0 0 0
5065700000 -0.607614912 -0.222546464 -0.041189520 -0.141525376 0 0 0 0
5070750000 -0.620692416 -0.163720480 -0.045236840 -0.145264544 0 0 0 0
5075800000 -0.626015808 -0.083153536 -0.049834712 -0.149029248 0 0 0 0
5080850000 -0.625411008 -0.024378598 -0.054438392 -0.152940448 0 0 0 0
5085900000 -0.613762496  0.053600900 -0.060732960 -0.156945152 0 0 0 0
5090950000 -0.602640192  0.109634456 -0.065972164 -0.161725648 0 0 0 0
5096000000 -0.578702656  0.179037936 -0.074027856 -0.165701664 0 0 0 0
5101050000 -0.549218624  0.245642576 -0.080959256 -0.170623136 0 0 0 0
5106100000 -0.523878944  0.294241664 -0.090744968 -0.174712336 0 0 0 0
5111150000 -0.482213248  0.349848128 -0.101071776 -0.179076640 0 0 0 0
5116200000 -0.440970304  0.397448832 -0.111980984 -0.182607232 0 0 0 0
5121250000 -0.395171872  0.435938464 -0.125818088 -0.185101344 0 0 0 0
5126300000 -0.340765024  0.479672608 -0.139048208 -0.187460272 0 0 0 0
5131350000 -0.297545664  0.504955168 -0.155563088 -0.187033904 0 0 0 0
5136400000 -0.237022880  0.536026048 -0.171133136 -0.187680032 0 0 0 0
5141450000 -0.181642208  0.561489600 -0.192079216 -0.182275072 0 0 0 0
5146500000 -0.126725736  0.570468480 -0.210279728 -0.177378768 0 0 0 0
5151550000 -0.070107760  0.582933376 -0.228179616 -0.170868736 0 0 0 0
5156600000 -0.023863582  0.585759424 -0.247437952 -0.160386112 0 0 0 0
5161650000  0.041477284  0.591053760 -0.266380464 -0.147181600 0 0 0 0
5166700000  0.099226712  0.583262272 -0.285000832 -0.128625200 0 0 0 0
5171750000  0.148948384  0.576728000 -0.301188544 -0.108865392 0 0 0 0
5176800000  0.203902160  0.559005184 -0.314100704 -0.086551800 0 0 0 0
5181850000  0.253325136  0.543498432 -0.325137408 -0.060910192 0 0 0 0
5186900000  0.304318048  0.523696768 -0.332757792 -0.034497212 0 0 0 0
5191950000  0.350044064  0.499309856 -0.335611168 -0.008286581 0 0 0 0
5197000000  0.397464640  0.470203296 -0.335866016  0.019886748 0 0 0 0
5202050000  0.438824032  0.436160064 -0.331972704  0.044652264 0 0 0 0
5207100000  0.480582048  0.403133472 -0.324911392  0.072951128 0 0 0 0
5212150000  0.518196480  0.363144896 -0.315920064  0.091042584 0 0 0 0
5217200000  0.553810048  0.319875584 -0.303157568  0.114256896 0 0 0 0
5222250000  0.583898560  0.273743936 -0.289679104  0.133609680 0 0 0 0
5227300000  0.608851008  0.226796576 -0.277474048  0.144247904 0 0 0 0
5232350000  0.632806912  0.175283216 -0.258537168  0.162809664 0 0 0 0
5237400000  0.650504896  0.117643072 -0.241822208  0.177048080 0 0 0 0
5242450000  0.662497088  0.063001164 -0.226731824  0.184668144 0 0 0 0
5247500000  0.671787584  0.008220982 -0.212500224  0.190136768 0 0 0 0
5252550000  0.672644992 -0.053911692 -0.198388976  0.196714944 0 0 0 0
5257600000  0.670490496 -0.109803160 -0.184329744  0.200522624 0 0 0 0
5262650000  0.663804800 -0.163990720 -0.174436160  0.201216288 0 0 0 0
5267700000  0.647504576 -0.225227856 -0.159999600  0.205365472 0 0 0 0
5272750000  0.630701888 -0.282721952 -0.149901296  0.206272720 0 0 0 0
5277800000  0.599574080 -0.340741952 -0.140543984  0.207032944 0 0 0 0
5282850000  0.576631552 -0.390213312 -0.132531896  0.207872800 0 0 0 0
5287900000  0.534650912 -0.442941216 -0.124427600  0.208966144 0 0 0 0
5292950000  0.490627360 -0.490850176 -0.116512384  0.209749984 0 0 0 0
5298000000  0.446669024 -0.536649600 -0.109249608  0.211128144 0 0 0 0
5303050000  0.387507648 -0.576927872 -0.103553856  0.211877552 0 0 0 0
5308100000  0.336349056 -0.611059456 -0.097641800  0.213011760 0 0 0 0
5313150000  0.273887104 -0.639785920 -0.092423056  0.214789920 0 0 0 0
5318200000  0.200145472 -0.661623168 -0.085134320  0.216899392 0 0 0 0
5323250000  0.137667952 -0.681163392 -0.081251080  0.217993792 0 0 0 0
5328300000  0.059133588 -0.684227584 -0.073939536  0.220232416 0 0 0 0
5333350000 -0.011139194 -0.682522304 -0.069256296  0.221938368 0 0 0 0
5338400000 -0.088598472 -0.668550144 -0.063864948  0.224503360 0 0 0 0
5343450000 -0.144759984 -0.654287168 -0.060433204  0.225167024 0 0 0 0
5348500000 -0.230541216 -0.615418112 -0.051955244  0.227625760 0 0 0 0
5353550000 -0.297984128 -0.558772160 -0.036820368  0.230520912 0 0 0 0
5358600000 -0.331577536 -0.540911360 -0.037562896  0.231063872 0 0 0 0
5363650000 -0.394933824 -0.479612256 -0.034074528  0.232656128 0 0 0 0
5368700000 -0.436094848 -0.428525408 -0.026229042  0.234389120 0 0 0 0
5373750000 -0.470710528 -0.380119392 -0.018910778  0.236148064 0 0 0 0
5378800000 -0.503385056 -0.318475488 -0.012746074  0.238671504 0 0 0 0
5383850000 -0.526669504 -0.258629328 -0.005822672  0.240433520 0 0 0 0
5388900000 -0.549092224 -0.191875040  0.000924502  0.243013712 0 0 0 0
5393950000 -0.560669440 -0.123234392  0.011326197  0.245553952 0 0 0 0
5399000000 -0.562328384 -0.075764024  0.017454980  0.247900544 0 0 0 0
5404050000 -0.563913088 -0.002013915  0.028133018  0.250762368 0 0 0 0
5409100000 -0.557744000  0.064047652  0.041601380  0.252842464 0 0 0 0
5414150000 -0.541688256  0.119626848  0.049427312  0.254490768 0 0 0 0
5419200000 -0.521278688  0.185867280  0.058689400  0.256282896 0 0 0 0
5424250000 -0.490981152  0.242562816  0.073927088  0.255765744 0 0 0 0
5429300000 -0.458213984  0.295780544  0.086468640  0.256172688 0 0 0 0
5434350000 -0.427530240  0.341197984  0.100856616  0.254089952 0 0 0 0
5439400000 -0.380134240  0.386328992  0.113753800  0.252653536 0 0 0 0
5444450000 -0.331640640  0.426782592  0.126254144  0.250309296 0 0 0 0
5449500000 -0.289289600  0.450514720  0.142658752  0.244991136 0 0 0 0
5454550000 -0.232092176  0.482365408  0.156427856  0.240328080 0 0 0 0
5459600000 -0.196748144  0.511618304  0.169460992  0.234117216 0 0 0 0
5464650000 -0.132017864  0.522466176  0.183902800  0.226468448 0 0 0 0
5469700000 -0.078816464  0.540108352  0.201702448  0.213066240 0 0 0 0
5474750000 -0.025940118  0.535521344  0.212022416  0.204607056 0 0 0 0
5479800000  0.026959802  0.540156992  0.224414272  0.192344320 0 0 0 0
5484850000  0.076268792  0.540252992  0.237888448  0.177104240 0 0 0 0
5489900000  0.129856688  0.524167584  0.245944688  0.164233216 0 0 0 0
5494950000  0.179806560  0.511822656  0.255543616  0.148740368 0 0 0 0
5500000000  0.222706000  0.494408576  0.263056368  0.131680904 0 0 0 0
5505050000  0.269759104  0.471844384  0.268476640  0.116081368 0 0 0 0
5510100000  0.309999840  0.446563648  0.271801408  0.101542432 0 0 0 0
5515150000  0.348173216  0.419927808  0.275952576  0.081882384 0 0 0 0
5520200000  0.384852512  0.389564864  0.275973280  0.069490616 0 0 0 0
5525250000  0.416459136  0.357618016  0.277308768  0.052908480 0 0 0 0
5530300000  0.445866880  0.315312800  0.276339232  0.037706776 0 0 0 0
5535350000  0.468594208  0.283507744  0.274695488  0.025059840 0 0 0 0
5540400000  0.490348224  0.238551168  0.272653408  0.009891695 0 0 0 0
5545450000  0.509350592  0.198188432  0.269660064 -0.000480397 0 0 0 0
5550500000  0.521351328  0.153839360  0.265817312 -0.016243822 0 0 0 0
5555550000  0.529214688  0.114330648  0.262803760 -0.024234300 0 0 0 0
5560600000  0.535633568  0.070709416  0.258257840 -0.036307572 0 0 0 0
5565650000  0.535985760  0.025047910  0.254806464 -0.042824416 0 0 0 0
5570700000  0.530533600 -0.018808616  0.250207216 -0.052954192 0 0 0 0
5575750000  0.529924160 -0.058647664  0.246128768 -0.061908808 0 0 0 0
5580800000  0.521809888 -0.102121200  0.242939888 -0.066659652 0 0 0 0
5585850000  0.503288640 -0.142956560  0.237299856 -0.080022256 0 0 0 0
5590900000  0.488451424 -0.181549360  0.235034064 -0.084286344 0 0 0 0
5595950000  0.463992288 -0.220982560  0.231280880 -0.092007840 0 0 0 0
5601000000  0.448916480 -0.256510224  0.227237744 -0.100550952 0 0 0 0
5606050000  0.427757184 -0.287503616  0.226117952 -0.103983088 0 0 0 0
5611100000  0.396304448 -0.321229728  0.221573008 -0.114845192 0 0 0 0
5616150000  0.366693440 -0.350251264  0.219659664 -0.120299440 0 0 0 0
5621200000  0.315016160 -0.379319200  0.215135728 -0.130727904 0 0 0 0
5626250000  0.286274272 -0.399460544  0.211228848 -0.139961904 0 0 0 0
5631300000  0.254841984 -0.425247360  0.209198576 -0.146607776 0 0 0 0
5636350000  0.211333792 -0.437514976  0.204821664 -0.155943248 0 0 0 0
5641400000  0.176357840 -0.453689536  0.201616800 -0.164332464 0 0 0 0
5646450000  0.113594536 -0.460421632  0.195014208 -0.176139888 0 0 0 0
5651500000  0.090618792 -0.470821248  0.189985360 -0.185276144 0 0 0 0
5656550000  0.041994108 -0.469210848  0.186765232 -0.193185008 0 0 0 0
5661600000 -0.013997166 -0.460968000  0.176498896 -0.206817856 0 0 0 0
5666650000 -0.055806700 -0.456099072  0.169804144 -0.215822720 0 0 0 0
5671700000 -0.091959672 -0.445569760  0.162870912 -0.225171216 0 0 0 0
5676750000 -0.147628464 -0.424342112  0.151910432 -0.236264272 0 0 0 0
5681800000 -0.190172192 -0.402847456  0.141089360 -0.247659600 0 0 0 0
5686850000 -0.215909216 -0.385462464  0.131866112 -0.256999440 0 0 0 0
5691900000 -0.263123312 -0.355514464  0.117929272 -0.267849296 0 0 0 0
5696950000 -0.294667296 -0.324905152  0.107846968 -0.276577184 0 0 0 0
5702000000 -0.324841120 -0.292354336  0.088102560 -0.287868832 0 0 0 0
5707050000 -0.359443200 -0.247801200  0.075704232 -0.295636992 0 0 0 0
5712100000 -0.379314240 -0.210252720  0.057629552 -0.303783264 0 0 0 0
5717150000 -0.400973888 -0.165771984  0.042438864 -0.309618496 0 0 0 0
5722200000 -0.416488096 -0.119159032  0.023250110 -0.316083552 0 0 0 0
5727250000 -0.421174976 -0.080660200  0.001544393 -0.320039776 0 0 0 0
5732300000 -0.433264096 -0.023840100 -0.017721152 -0.323742976 0 0 0 0
5737350000 -0.439356480  0.031812166 -0.049113340 -0.322063520 0 0 0 0
5742400000 -0.421257184  0.070192704 -0.059329020 -0.324139520 0 0 0 0
5747450000 -0.420161056  0.123635424 -0.092262184 -0.318879040 0 0 0 0
5752500000 -0.396994144  0.168077504 -0.115399112 -0.313547232 0 0 0 0
5757550000 -0.378140128  0.209644544 -0.137474576 -0.307155680 0 0 0 0
5762600000 -0.355641248  0.246265568 -0.161056080 -0.296372288 0 0 0 0
5767650000 -0.325747520  0.281675136 -0.177925968 -0.286148928 0 0 0 0
5772700000 -0.291344576  0.315303104 -0.199941616 -0.272643936 0 0 0 0
5777750000 -0.256137008  0.340023712 -0.221257728 -0.254057824 0 0 0 0
5782800000 -0.222679504  0.365995936 -0.238862848 -0.236038176 0 0 0 0
5787850000 -0.190173856  0.381015680 -0.256855344 -0.215703760 0 0 0 0
5792900000 -0.139931088  0.394072672 -0.264515168 -0.202079328 0 0 0 0
5797950000 -0.106049984  0.407529440 -0.279614016 -0.173555056 0 0 0 0
5803000000 -0.065206572  0.411674336 -0.289281792 -0.152052480 0 0 0 0
5808050000 -0.026498106  0.412517888 -0.298165248 -0.125171632 0 0 0 0
5813100000  0.008337111  0.410392064 -0.300925888 -0.105306656 0 0 0 0
5818150000  0.049353768  0.406684640 -0.302913344 -0.086001008 0 0 0 0
5823200000  0.083127208  0.397870432 -0.304316384 -0.061153996 0 0 0 0
5828250000  0.115842432  0.387728768 -0.302735552 -0.039420436 0 0 0 0
5833300000  0.144683664  0.374425728 -0.299567840 -0.019073566 0 0 0 0
5838350000  0.171872576  0.361499616 -0.294926688 -0.001687988 0 0 0 0
5843400000  0.198196256  0.344410112 -0.289519872  0.018394834 0 0 0 0
5848450000  0.224093328  0.323730560 -0.281697792  0.036271288 0 0 0 0
5853500000  0.244628704  0.306602784 -0.273392512  0.054981444 0 0 0 0
5858550000  0.263567120  0.279714656 -0.263080032  0.072681184 0 0 0 0
5863600000  0.283849152  0.262955696 -0.254764848  0.082978400 0 0 0 0
5868650000  0.298823072  0.242098144 -0.244940016  0.095600520 0 0 0 0
5873700000  0.319317440  0.216381952 -0.233038416  0.108856464 0 0 0 0
5878750000  0.328809664  0.195629248 -0.222846432  0.118608680 0 0 0 0
5883800000  0.336978912  0.170594704 -0.211037280  0.128918704 0 0 0 0
5888850000  0.352702592  0.151661856 -0.202134208  0.134942704 0 0 0 0
5893900000  0.357999936  0.117060184 -0.189531456  0.144914784 0 0 0 0
5898950000  0.366011648  0.099766656 -0.179978016  0.149271088 0 0 0 0
5904000000  0.375534176  0.075644544 -0.170016160  0.155002176 0 0 0 0
5909050000  0.378338880  0.050550572 -0.159876112  0.160861376 0 0 0 0
5914100000  0.376149952  0.020580786 -0.148598336  0.166960784 0 0 0 0
5919150000  0.392816640 -0.000592591 -0.141554144  0.169437184 0 0 0 0
5924200000  0.389083744 -0.031499808 -0.131411584  0.174663424 0 0 0 0
5929250000  0.382460928 -0.060959912 -0.119974088  0.180222880 0 0 0 0
5934300000  0.383702528 -0.091530232 -0.113860720  0.182487232 0 0 0 0
5939350000  0.374810240 -0.118917192 -0.104725576  0.186612336 0 0 0 0
5944400000  0.361738048 -0.154265584 -0.094134032  0.191274032 0 0 0 0
5949450000  0.350694208 -0.188778320 -0.086472872  0.194132560 0 0 0 0
5954500000  0.348080192 -0.215123840 -0.076727688  0.198184672 0 0 0 0
5959550000  0.325180768 -0.246539824 -0.068748064  0.201384224 0 0 0 0
5964600000  0.297449056 -0.277932544 -0.058535420  0.205185520 0 0 0 0
5969650000  0.280240992 -0.302395360 -0.050295020  0.208297600 0 0 0 0
5974700000  0.254678512 -0.334938976 -0.040168580  0.211783328 0 0 0 0
5979750000  0.229327520 -0.354731680 -0.029692652  0.214704512 0 0 0 0
5984800000  0.193512016 -0.381871360 -0.022540654  0.217684544 0 0 0 0
5989850000  0.128320664 -0.406989216 -0.004737478  0.220401904 0 0 0 0
5994900000  0.123207224 -0.414115552  0.000793773  0.222672704 0 0 0 0
5999950000  0.057863816 -0.428509536  0.015635323  0.223928960 0 0 0 0
6005000000  0.024636680 -0.433713792  0.029504754  0.224147472 0 0 0 0
