!File created by NanoVNA
# Hz S RI R 50
4995000000  0.203619744 -0.719616384 -0.011857313 -0.110830184 0 0 0 0
5000050000  0.132666768 -0.732182912 -0.012531317 -0.111977880 0 0 0 0
5005100000  0.064963224 -0.738545344 -0.014373895 -0.112906504 0 0 0 0
5010150000 -0.013359427 -0.740169664 -0.013617705 -0.114903096 0 0 0 0
5015200000 -0.095120832 -0.729070528 -0.015630885 -0.116579072 0 0 0 0
5020250000 -0.172190272 -0.709491328 -0.021189202 -0.119700792 0 0 0 0
5025300000 -0.247834864 -0.682132096 -0.022647144 -0.121891032 0 0 0 0
5030350000 -0.311565056 -0.650699520 -0.024632092 -0.124220168 0 0 0 0
5035400000 -0.375309760 -0.606663424 -0.026277212 -0.126577672 0 0 0 0
5040450000 -0.439191360 -0.547892800 -0.029145094 -0.129287560 0 0 0 0
5045500000 -0.491278048 -0.493891520 -0.031968396 -0.132079928 0 0 0 0
5050550000 -0.530731008 -0.428066528 -0.035417220 -0.134357920 0 0 0 0
5055600000 -0.566222656 -0.366408928 -0.039728188 -0.136867600 0 0 0 0
5060650000 -0.590955584 -0.297227872 -0.042227904 -0.140338976 0 0 0 0
5065700000 -0.612808768 -0.225617792 -0.047000136 -0.143245040 0 0 0 0
5070750000 -0.625571200 -0.158825232 -0.051760856 -0.146653856 0 0 0 0
5075800000 -0.631169088 -0.087297744 -0.055104212 -0.150904752 0 0 0 0
5080850000 -0.628696960 -0.025371488 -0.061883984 -0.154147264 0 0 0 0
5085900000 -0.619128832  0.058594600 -0.067290392 -0.158597232 0 0 0 0
5090950000 -0.607242624  0.115297672 -0.074381704 -0.162769056 0 0 0 0
5096000000 -0.584032768  0.176741888 -0.082093648 -0.166795648 0 0 0 0
5101050000 -0.554750464  0.244931584 -0.090941368 -0.170675552 0 0 0 0
5106100000 -0.527878240  0.296234240 -0.101112176 -0.174360800 0 0 0 0
5111150000 -0.488664928  0.349898592 -0.111704096 -0.178502448 0 0 0 0
5116200000 -0.445690816  0.401403648 -0.123502528 -0.181304832 0 0 0 0
5121250000 -0.402313568  0.436284384 -0.137438592 -0.183878592 0 0 0 0
5126300000 -0.349654368  0.478113216 -0.151458288 -0.185372512 0 0 0 0
5131350000 -0.303346976  0.507782816 -0.168822000 -0.183612368 0 0 0 0
5136400000 -0.246695264  0.536415456 -0.184939968 -0.182868784 0 0 0 0
5141450000 -0.192222048  0.559696384 -0.205154960 -0.176513888 0 0 0 0
5146500000 -0.140471184  0.567836544 -0.222685520 -0.170960400 0 0 0 0
5151550000 -0.079601032  0.584841600 -0.242937296 -0.161229072 0 0 0 0
5156600000 -0.020484724  0.596524352 -0.265871312 -0.142191888 0 0 0 0
5161650000  0.031284128  0.594681920 -0.280115360 -0.133560136 0 0 0 0
5166700000  0.090783224  0.589111232 -0.298280672 -0.112993760 0 0 0 0
5171750000  0.142778592  0.583578816 -0.313245248 -0.089271680 0 0 0 0
5176800000  0.197457792  0.566012288 -0.324190016 -0.067318888 0 0 0 0
5181850000  0.249004656  0.551552576 -0.333289280 -0.039281952 0 0 0 0
5186900000  0.298781824  0.531644480 -0.338113792 -0.011602683 0 0 0 0
5191950000  0.348826016  0.508184800 -0.339177152  0.016282859 0 0 0 0
5197000000  0.395085376  0.478548768 -0.336450560  0.044224636 0 0 0 0
5202050000  0.438665792  0.443477120 -0.329922176  0.069560968 0 0 0 0
5207100000  0.479492928  0.411499904 -0.320357568  0.096079152 0 0 0 0
5212150000  0.520742464  0.370012864 -0.308535968  0.117272728 0 0 0 0
5217200000  0.556148096  0.327110880 -0.294543552  0.136024336 0 0 0 0
5222250000  0.585025792  0.282345824 -0.280185792  0.150456064 0 0 0 0
5227300000  0.614036672  0.228763728 -0.260954704  0.169883136 0 0 0 0
5232350000  0.638039616  0.178713808 -0.243654080  0.182884032 0 0 0 0
5237400000  0.656212992  0.122562880 -0.228434368  0.190397872 0 0 0 0
5242450000  0.668818048  0.066771532 -0.211632096  0.198346048 0 0 0 0
5247500000  0.678685888  0.010066450 -0.197698112  0.201924896 0 0 0 0
5252550000  0.680535680 -0.051328392 -0.181472000  0.208124896 0 0 0 0
5257600000  0.677878976 -0.109898768 -0.167282336  0.209987040 0 0 0 0
5262650000  0.670304768 -0.166382368 -0.157146912  0.209877200 0 0 0 0
5267700000  0.654472000 -0.228507232 -0.143424096  0.212718016 0 0 0 0
5272750000  0.633252928 -0.288306080 -0.132274912  0.212971072 0 0 0 0
5277800000  0.608850112 -0.345355136 -0.124907704  0.212262128 0 0 0 0
5282850000  0.576357120 -0.398818112 -0.113773960  0.213517680 0 0 0 0
5287900000  0.537799808 -0.450887712 -0.108685416  0.212165200 0 0 0 0
5292950000  0.494660960 -0.498601376 -0.100021608  0.212358864 0 0 0 0
5298000000  0.449281344 -0.544328576 -0.094517048  0.212463424 0 0 0 0
5303050000  0.390029088 -0.585934592 -0.087672248  0.213214208 0 0 0 0
5308100000  0.331523904 -0.618767424 -0.081090888  0.214439584 0 0 0 0
5313150000  0.278804512 -0.652435200 -0.077466384  0.215256624 0 0 0 0
5318200000  0.197853568 -0.672906560 -0.070820264  0.216430832 0 0 0 0
5323250000  0.132318600 -0.690169152 -0.065605804  0.217441920 0 0 0 0
5328300000  0.046518260 -0.691636032 -0.060228164  0.218664976 0 0 0 0
5333350000 -0.022953790 -0.688101440 -0.053921696  0.220614160 0 0 0 0
5338400000 -0.084383608 -0.682623552 -0.053549040  0.221170480 0 0 0 0
5343450000 -0.169815200 -0.651498688 -0.042871940  0.223932784 0 0 0 0
5348500000 -0.252590128 -0.600384448 -0.030670842  0.225453760 0 0 0 0
5353550000 -0.296249024 -0.576040256 -0.027327752  0.226390144 0 0 0 0
5358600000 -0.339759072 -0.549619200 -0.023191810  0.227621104 0 0 0 0
5363650000 -0.405958752 -0.484798944 -0.019059246  0.229006624 0 0 0 0
5368700000 -0.448236960 -0.426457120 -0.011913225  0.230150800 0 0 0 0
5373750000 -0.479167744 -0.385171520 -0.005894454  0.232199600 0 0 0 0
5378800000 -0.512757312 -0.323374464 -0.001018524  0.234226912 0 0 0 0
5383850000 -0.536206912 -0.255210192  0.010048735  0.235642256 0 0 0 0
5388900000 -0.555149824 -0.195665440  0.013425333  0.238080976 0 0 0 0
5393950000 -0.568149504 -0.131823656  0.024198372  0.240247088 0 0 0 0
5399000000 -0.574466816 -0.059409168  0.036050996  0.241511280 0 0 0 0
5404050000 -0.569380352 -0.009294112  0.040639016  0.244406016 0 0 0 0
5409100000 -0.562584960  0.066867100  0.055296320  0.245110256 0 0 0 0
5414150000 -0.546652160  0.127094240  0.064790564  0.246116272 0 0 0 0
5419200000 -0.524996576  0.186340128  0.072741664  0.247841008 0 0 0 0
5424250000 -0.496504448  0.238155040  0.088069792  0.246779088 0 0 0 0
5429300000 -0.460416288  0.298413216  0.100466936  0.245795792 0 0 0 0
5434350000 -0.431823328  0.336936256  0.113236488  0.244030096 0 0 0 0
5439400000 -0.384839808  0.375348928  0.124911544  0.242563360 0 0 0 0
5444450000 -0.333375648  0.428365536  0.141175360  0.237636032 0 0 0 0
5449500000 -0.292599488  0.445895136  0.155294864  0.232747024 0 0 0 0
5454550000 -0.237288320  0.475654464  0.168797600  0.227035152 0 0 0 0
5459600000 -0.199439456  0.507957408  0.184728800  0.217601136 0 0 0 0
5464650000 -0.136056688  0.518847360  0.196873504  0.210480480 0 0 0 0
5469700000 -0.086055096  0.531590592  0.211425488  0.199049856 0 0 0 0
5474750000 -0.030296236  0.532726592  0.223842528  0.186361680 0 0 0 0
5479800000  0.022622224  0.537433792  0.236369776  0.172255088 0 0 0 0
5484850000  0.069017640  0.534889760  0.248278128  0.157091072 0 0 0 0
5489900000  0.122319776  0.520605152  0.255365696  0.144383744 0 0 0 0
5494950000  0.171922080  0.506933824  0.262188704  0.131186736 0 0 0 0
5500000000  0.215494992  0.491389024  0.270910368  0.109063880 0 0 0 0
5505050000  0.262788560  0.469261248  0.275604128  0.092749200 0 0 0 0
5510100000  0.302688256  0.444564768  0.277431680  0.080027144 0 0 0 0
5515150000  0.340577152  0.419311296  0.280417696  0.060625636 0 0 0 0
5520200000  0.377599328  0.389863136  0.279348896  0.045535700 0 0 0 0
5525250000  0.409361664  0.358126080  0.279916448  0.028912378 0 0 0 0
5530300000  0.439635040  0.317540288  0.278373696  0.013751518 0 0 0 0
5535350000  0.462919936  0.285939136  0.275295328  0.000782891 0 0 0 0
5540400000  0.485258016  0.242400288  0.272283584 -0.012005737 0 0 0 0
5545450000  0.502526272  0.199578944  0.267788944 -0.027118174 0 0 0 0
5550500000  0.519528640  0.159427904  0.263472496 -0.038628912 0 0 0 0
5555550000  0.526257440  0.118005288  0.258375728 -0.049909892 0 0 0 0
5560600000  0.539559040  0.080347936  0.253469584 -0.058043100 0 0 0 0
5565650000  0.534365536  0.029420052  0.247595680 -0.070424136 0 0 0 0
5570700000  0.535866752 -0.010728628  0.241571568 -0.079685080 0 0 0 0
5575750000  0.533281152 -0.051750372  0.236562192 -0.087207800 0 0 0 0
5580800000  0.530139040 -0.095832536  0.233040576 -0.091449040 0 0 0 0
5585850000  0.516894816 -0.135794528  0.226707248 -0.101925936 0 0 0 0
5590900000  0.501201920 -0.176943840  0.222835792 -0.107780848 0 0 0 0
5595950000  0.479180032 -0.217888656  0.216775872 -0.116980040 0 0 0 0
5601000000  0.466206656 -0.253499744  0.213221984 -0.122233552 0 0 0 0
5606050000  0.431912576 -0.289840256  0.207574000 -0.131487712 0 0 0 0
5611100000  0.411970336 -0.323062016  0.203882400 -0.137806832 0 0 0 0
5616150000  0.361813504 -0.359001824  0.197692256 -0.148371280 0 0 0 0
5621200000  0.348690080 -0.386077568  0.196512752 -0.151049648 0 0 0 0
5626250000  0.310382144 -0.411694848  0.191132816 -0.160522496 0 0 0 0
5631300000  0.268049392 -0.439611712  0.185471424 -0.169539152 0 0 0 0
5636350000  0.220489376 -0.451731488  0.179199216 -0.177574688 0 0 0 0
5641400000  0.180003472 -0.471170688  0.173250352 -0.187284400 0 0 0 0
5646450000  0.126800064 -0.478284352  0.167723344 -0.195255232 0 0 0 0
5651500000  0.092199464 -0.488889792  0.158820016 -0.204743952 0 0 0 0
5656550000  0.036175112 -0.488246944  0.153211216 -0.212758640 0 0 0 0
5661600000 -0.007159841 -0.485965536  0.144241856 -0.222864384 0 0 0 0
5666650000 -0.057365064 -0.478223328  0.135321424 -0.231028144 0 0 0 0
5671700000 -0.106589992 -0.463403232  0.124785768 -0.240453424 0 0 0 0
5676750000 -0.154084000 -0.447806240  0.111694096 -0.249720848 0 0 0 0
5681800000 -0.194489696 -0.424831328  0.102369168 -0.257911824 0 0 0 0
5686850000 -0.232921472 -0.400396704  0.090082520 -0.266235568 0 0 0 0
5691900000 -0.271668384 -0.372202752  0.078137864 -0.273536576 0 0 0 0
5696950000 -0.309749600 -0.335108480  0.063096620 -0.280846432 0 0 0 0
5702000000 -0.340584416 -0.301254080  0.043833488 -0.289214144 0 0 0 0
5707050000 -0.370055712 -0.257595120  0.029745722 -0.294590688 0 0 0 0
5712100000 -0.392053312 -0.214789200  0.009958637 -0.299404736 0 0 0 0
5717150000 -0.413218112 -0.167515856 -0.005589982 -0.302970848 0 0 0 0
5722200000 -0.429165408 -0.116981136 -0.027878040 -0.305759520 0 0 0 0
5727250000 -0.443757760 -0.061047292 -0.053736084 -0.305398080 0 0 0 0
5732300000 -0.440792032 -0.016726332 -0.067814824 -0.305797920 0 0 0 0
5737350000 -0.433988864  0.025182104 -0.090309648 -0.302296320 0 0 0 0
5742400000 -0.424348064  0.082127448 -0.108235496 -0.299171680 0 0 0 0
5747450000 -0.418213920  0.129042640 -0.135941760 -0.290224864 0 0 0 0
5752500000 -0.391521984  0.172710592 -0.158530288 -0.280489088 0 0 0 0
5757550000 -0.373514496  0.217076448 -0.178629520 -0.270425632 0 0 0 0
5762600000 -0.346624512  0.249279664 -0.199780016 -0.256560624 0 0 0 0
5767650000 -0.317852896  0.288041920 -0.215595120 -0.241907248 0 0 0 0
5772700000 -0.280999360  0.315469280 -0.235619536 -0.223812512 0 0 0 0
5777750000 -0.246003040  0.336384064 -0.252263632 -0.202679248 0 0 0 0
5782800000 -0.210849056  0.359260608 -0.264257136 -0.185932272 0 0 0 0
5787850000 -0.177954240  0.372845920 -0.277715008 -0.161770528 0 0 0 0
5792900000 -0.129663152  0.383374624 -0.282913024 -0.148120016 0 0 0 0
5797950000 -0.096829832  0.394964064 -0.293310528 -0.119351856 0 0 0 0
5803000000 -0.060328856  0.399422880 -0.299683808 -0.092467584 0 0 0 0
5808050000 -0.020377482  0.397846400 -0.301905440 -0.072840616 0 0 0 0
5813100000  0.010488682  0.396250976 -0.302274944 -0.050515300 0 0 0 0
5818150000  0.048875620  0.392392896 -0.301008928 -0.032881696 0 0 0 0
5823200000  0.081501200  0.384100992 -0.298201344 -0.007594218 0 0 0 0
5828250000  0.112966512  0.373656160 -0.293253984  0.013757823 0 0 0 0
5833300000  0.139303856  0.361821312 -0.286974144  0.031395644 0 0 0 0
5838350000  0.163718640  0.350715200 -0.279797024  0.049498732 0 0 0 0
5843400000  0.190138976  0.334431552 -0.271548256  0.066872016 0 0 0 0
5848450000  0.214178880  0.315325120 -0.261367952  0.083571008 0 0 0 0
5853500000  0.233140224  0.299262176 -0.250662832  0.098564472 0 0 0 0
5858550000  0.259447632  0.281517696 -0.241041856  0.108819208 0 0 0 0
5863600000  0.269713856  0.258851408 -0.228036352  0.123750560 0 0 0 0
5868650000  0.289655360  0.244116336 -0.216092272  0.134226016 0 0 0 0
5873700000  0.313822048  0.222333872 -0.205195120  0.142088336 0 0 0 0
5878750000  0.324807232  0.203340272 -0.193079280  0.151072912 0 0 0 0
5883800000  0.335498016  0.181102992 -0.181148624  0.158823856 0 0 0 0
5888850000  0.345098144  0.155761600 -0.169785776  0.164800192 0 0 0 0
5893900000  0.362924000  0.131350816 -0.158975136  0.169491216 0 0 0 0
5898950000  0.369878176  0.110949392 -0.148140176  0.174019888 0 0 0 0
5904000000  0.381083392  0.084838512 -0.136165392  0.179426944 0 0 0 0
5909050000  0.385552032  0.059341988 -0.126352280  0.182980896 0 0 0 0
5914100000  0.387642656  0.028935976 -0.116119088  0.186281872 0 0 0 0
5919150000  0.395136288  0.000118074 -0.106385928  0.189289056 0 0 0 0
5924200000  0.407746816 -0.020916018 -0.099956240  0.191146464 0 0 0 0
5929250000  0.388959712 -0.064566336 -0.084216192  0.197403520 0 0 0 0
5934300000  0.405396736 -0.087560664 -0.082067456  0.196872480 0 0 0 0
5939350000  0.384765888 -0.123819944 -0.069462992  0.201224816 0 0 0 0
5944400000  0.384718016 -0.150459696 -0.063303068  0.202958576 0 0 0 0
5949450000  0.371281088 -0.191010448 -0.052331304  0.206465488 0 0 0 0
5954500000  0.360383616 -0.223468896 -0.043738040  0.209125264 0 0 0 0
5959550000  0.345077440 -0.254347536 -0.034834540  0.212019296 0 0 0 0
5964600000  0.317365376 -0.286453280 -0.024412870  0.214977392 0 0 0 0
5969650000  0.291494176 -0.317866272 -0.015960172  0.217656016 0 0 0 0
5974700000  0.256610128 -0.351563808 -0.002678908  0.220414816 0 0 0 0
5979750000  0.233165360 -0.371766432  0.006856149  0.222121216 0 0 0 0
5984800000  0.212323728 -0.393145472  0.012307534  0.224671120 0 0 0 0
5989850000  0.147053216 -0.419967776  0.027875868  0.226337600 0 0 0 0
5994900000  0.096479920 -0.433904576  0.044759796  0.226618656 0 0 0 0
5999950000  0.066636616 -0.444114400  0.050844916  0.228759552 0 0 0 0
6005000000  0.026547688 -0.447513504  0.067137904  0.227738784 0 0 0 0
