!File created by NanoVNA
# Hz S RI R 50
4995000000  0.208515680 -0.720506112 -0.006301992 -0.108570488 0 0 0 0
5000050000  0.130261336 -0.734746240 -0.007408604 -0.109616632 0 0 0 0
5005100000  0.064207964 -0.743028288 -0.009052556 -0.110790824 0 0 0 0
5010150000 -0.013787003 -0.741843456 -0.008613160 -0.112509128 0 0 0 0
5015200000 -0.088160104 -0.735258624 -0.008707477 -0.114093960 0 0 0 0
5020250000 -0.167206064 -0.713490240 -0.014625785 -0.117430800 0 0 0 0
5025300000 -0.251977680 -0.681347072 -0.016087983 -0.119510400 0 0 0 0
5030350000 -0.314476672 -0.651979008 -0.018264740 -0.121576656 0 0 0 0
5035400000 -0.382241152 -0.603470080 -0.019987726 -0.124226112 0 0 0 0
5040450000 -0.443511744 -0.543841600 -0.022433926 -0.126439632 0 0 0 0
5045500000 -0.491613440 -0.499699488 -0.024568162 -0.129126504 0 0 0 0
5050550000 -0.537427712 -0.423283648 -0.027396244 -0.131940488 0 0 0 0
5055600000 -0.569004032 -0.362724576 -0.029879866 -0.134661024 0 0 0 0
5060650000 -0.595668480 -0.297383904 -0.033303944 -0.137630560 0 0 0 0
5065700000 -0.614498240 -0.225714656 -0.036258268 -0.140843520 0 0 0 0
5070750000 -0.626921088 -0.166407392 -0.039366376 -0.144905824 0 0 0 0
5075800000 -0.634193984 -0.080707336 -0.043076836 -0.148941872 0 0 0 0
5080850000 -0.633199872 -0.019168104 -0.048664240 -0.152440672 0 0 0 0
5085900000 -0.624572608  0.048087700 -0.052361148 -0.157563888 0 0 0 0
5090950000 -0.610758336  0.119132808 -0.059798536 -0.161081968 0 0 0 0
5096000000 -0.589648960  0.175559472 -0.066003704 -0.166396416 0 0 0 0
5101050000 -0.558758656  0.249036976 -0.073545848 -0.170997984 0 0 0 0
5106100000 -0.530122880  0.299227520 -0.083178048 -0.175177440 0 0 0 0
5111150000 -0.487932448  0.357018784 -0.091610440 -0.180724272 0 0 0 0
5116200000 -0.446222944  0.407177952 -0.104020304 -0.183952384 0 0 0 0
5121250000 -0.399968224  0.442535232 -0.113870208 -0.188715504 0 0 0 0
5126300000 -0.347986336  0.483350560 -0.128475976 -0.191571472 0 0 0 0
5131350000 -0.299228704  0.514416992 -0.144797040 -0.191947984 0 0 0 0
5136400000 -0.242980016  0.541156800 -0.158962048 -0.193306448 0 0 0 0
5141450000 -0.186902928  0.564944448 -0.178787152 -0.190783920 0 0 0 0
5146500000 -0.129466536  0.576155200 -0.197217552 -0.186856864 0 0 0 0
5151550000 -0.074201816  0.586866240 -0.215786384 -0.181508176 0 0 0 0
5156600000 -0.016929314  0.596123136 -0.238455296 -0.168722896 0 0 0 0
5161650000  0.037651800  0.593715136 -0.253914512 -0.162852592 0 0 0 0
5166700000  0.102680480  0.588206528 -0.276530752 -0.140111904 0 0 0 0
5171750000  0.152494176  0.581103232 -0.292696992 -0.123800120 0 0 0 0
5176800000  0.206776128  0.562431424 -0.306419520 -0.104418400 0 0 0 0
5181850000  0.252852048  0.545304576 -0.318565728 -0.081364736 0 0 0 0
5186900000  0.305386944  0.525188640 -0.327766944 -0.057412404 0 0 0 0
5191950000  0.351063328  0.500576512 -0.333619968 -0.031774012 0 0 0 0
5197000000  0.396794400  0.470138336 -0.335137408 -0.004778197 0 0 0 0
5202050000  0.439239424  0.435266848 -0.333698592  0.022950298 0 0 0 0
5207100000  0.479976032  0.402648512 -0.328591744  0.050686508 0 0 0 0
5212150000  0.517651328  0.362273248 -0.321929088  0.069517848 0 0 0 0
5217200000  0.553429120  0.317627648 -0.311344288  0.094050464 0 0 0 0
5222250000  0.580955584  0.273252416 -0.300245760  0.112353096 0 0 0 0
5227300000  0.607391488  0.224395536 -0.287389600  0.127392072 0 0 0 0
5232350000  0.630226304  0.175323856 -0.271330336  0.145820592 0 0 0 0
5237400000  0.647803712  0.119903792 -0.257117088  0.158317824 0 0 0 0
5242450000  0.660211968  0.064013364 -0.242969408  0.168085616 0 0 0 0
5247500000  0.668339904  0.007695904 -0.227193904  0.178088272 0 0 0 0
5252550000  0.671890368 -0.050044548 -0.216622176  0.181563712 0 0 0 0
5257600000  0.669912128 -0.105792856 -0.201564816  0.188618784 0 0 0 0
5262650000  0.661425856 -0.162719712 -0.190131840  0.191353344 0 0 0 0
5267700000  0.648604672 -0.221471920 -0.178131296  0.195594048 0 0 0 0
5272750000  0.626906048 -0.282215776 -0.166757728  0.198257376 0 0 0 0
5277800000  0.600876288 -0.338152832 -0.158001520  0.200202960 0 0 0 0
5282850000  0.573961088 -0.389509024 -0.148885120  0.202573504 0 0 0 0
5287900000  0.534995264 -0.441381824 -0.141894752  0.203245808 0 0 0 0
5292950000  0.494142528 -0.488946752 -0.133537936  0.205108304 0 0 0 0
5298000000  0.447420224 -0.536095872 -0.127226176  0.206616464 0 0 0 0
5303050000  0.399176736 -0.577435712 -0.122721088  0.207356048 0 0 0 0
5308100000  0.337026304 -0.611458240 -0.113936304  0.210978720 0 0 0 0
5313150000  0.277750240 -0.642953600 -0.108145800  0.213371472 0 0 0 0
5318200000  0.202744032 -0.663553664 -0.102304784  0.214984544 0 0 0 0
5323250000  0.139140480 -0.684986624 -0.098451224  0.217050784 0 0 0 0
5328300000  0.062470084 -0.690611008 -0.091836416  0.219552688 0 0 0 0
5333350000 -0.011836947 -0.685038080 -0.085730592  0.222095856 0 0 0 0
5338400000 -0.070652072 -0.684027584 -0.083927992  0.224060416 0 0 0 0
5343450000 -0.172222496 -0.633613632 -0.069098720  0.228894032 0 0 0 0
5348500000 -0.235274960 -0.622731904 -0.066085756  0.230146784 0 0 0 0
5353550000 -0.287619520 -0.579989888 -0.056935204  0.232707200 0 0 0 0
5358600000 -0.312012480 -0.585907072 -0.060111884  0.233169808 0 0 0 0
5363650000 -0.405429984 -0.481821568 -0.047441392  0.236585104 0 0 0 0
5368700000 -0.447951904 -0.431865504 -0.043214932  0.238230544 0 0 0 0
5373750000 -0.478848736 -0.391228832 -0.034367668  0.241249360 0 0 0 0
5378800000 -0.515283584 -0.325119840 -0.028213622  0.243852016 0 0 0 0
5383850000 -0.534866400 -0.272340608 -0.019573464  0.246435008 0 0 0 0
5388900000 -0.556121344 -0.211746800 -0.015160108  0.249009680 0 0 0 0
5393950000 -0.571020352 -0.136515728 -0.004909969  0.252224512 0 0 0 0
5399000000 -0.579095424 -0.069162056  0.005025888  0.254789584 0 0 0 0
5404050000 -0.574403648 -0.018276512  0.010621861  0.258291328 0 0 0 0
5409100000 -0.568360576  0.059164824  0.024462198  0.261175312 0 0 0 0
5414150000 -0.555350912  0.120200736  0.033509500  0.263306560 0 0 0 0
5419200000 -0.534808032  0.180877872  0.042545340  0.265896080 0 0 0 0
5424250000 -0.504083456  0.234123520  0.056980928  0.266194400 0 0 0 0
5429300000 -0.471375680  0.293615360  0.068821280  0.267502992 0 0 0 0
5434350000 -0.440441440  0.340680256  0.084509808  0.266548016 0 0 0 0
5439400000 -0.395792960  0.376125696  0.094489768  0.267073392 0 0 0 0
5444450000 -0.340626848  0.433267680  0.113020416  0.263063824 0 0 0 0
5449500000 -0.300436160  0.450123712  0.125078664  0.261634208 0 0 0 0
5454550000 -0.242294768  0.485687008  0.142135984  0.256427200 0 0 0 0
5459600000 -0.203944592  0.518001312  0.158356960  0.248916832 0 0 0 0
5464650000 -0.142485344  0.522222272  0.167949184  0.245636656 0 0 0 0
5469700000 -0.086698256  0.543762496  0.189086576  0.231915520 0 0 0 0
5474750000 -0.031833384  0.541144896  0.200704688  0.223425024 0 0 0 0
5479800000  0.022589402  0.546419136  0.213948304  0.212013312 0 0 0 0
5484850000  0.070793288  0.544231744  0.226799536  0.198934304 0 0 0 0
5489900000  0.126572776  0.528873920  0.237281344  0.185572336 0 0 0 0
5494950000  0.177527840  0.515760256  0.245483456  0.173538432 0 0 0 0
5500000000  0.222823360  0.499353184  0.257422688  0.152102896 0 0 0 0
5505050000  0.271071360  0.475998784  0.263923472  0.136653104 0 0 0 0
5510100000  0.311889248  0.450241536  0.267206160  0.124553872 0 0 0 0
5515150000  0.350484576  0.423455040  0.272015680  0.107650032 0 0 0 0
5520200000  0.388224224  0.391665856  0.273440480  0.091037440 0 0 0 0
5525250000  0.420114528  0.357658784  0.275934912  0.074993680 0 0 0 0
5530300000  0.450964800  0.315674752  0.276375616  0.060774848 0 0 0 0
5535350000  0.473310496  0.282787648  0.275603488  0.045805588 0 0 0 0
5540400000  0.495339808  0.236364624  0.274106944  0.035145804 0 0 0 0
5545450000  0.512142240  0.192480512  0.271919296  0.020513202 0 0 0 0
5550500000  0.527142656  0.150479472  0.269248512  0.009571718 0 0 0 0
5555550000  0.533801792  0.107372912  0.266736064 -0.000524020 0 0 0 0
5560600000  0.548111616  0.070331168  0.263190032 -0.008139333 0 0 0 0
5565650000  0.538135680  0.016755857  0.260391568 -0.020960918 0 0 0 0
5570700000  0.535784320 -0.025967340  0.256361424 -0.029848428 0 0 0 0
5575750000  0.533369952 -0.065920108  0.253270512 -0.037936536 0 0 0 0
5580800000  0.523761440 -0.111889744  0.250296560 -0.043939280 0 0 0 0
5585850000  0.509402144 -0.150110240  0.247382928 -0.054301648 0 0 0 0
5590900000  0.497179872 -0.188842960  0.245924848 -0.058219452 0 0 0 0
5595950000  0.468603840 -0.229464032  0.242206416 -0.067736648 0 0 0 0
5601000000  0.456805184 -0.263129920  0.239910592 -0.074757248 0 0 0 0
5606050000  0.415663456 -0.300227808  0.237893152 -0.082549728 0 0 0 0
5611100000  0.396427200 -0.328791904  0.236317360 -0.088031232 0 0 0 0
5616150000  0.352870944 -0.359841600  0.234022880 -0.098260904 0 0 0 0
5621200000  0.323688192 -0.386652672  0.232839072 -0.104570104 0 0 0 0
5626250000  0.284599072 -0.405561792  0.230125552 -0.114089272 0 0 0 0
5631300000  0.244014720 -0.430109856  0.227164464 -0.124703560 0 0 0 0
5636350000  0.202727200 -0.439633696  0.225830544 -0.131807640 0 0 0 0
5641400000  0.165704720 -0.454527616  0.223780432 -0.140549248 0 0 0 0
5646450000  0.110985056 -0.458293824  0.218523024 -0.152889568 0 0 0 0
5651500000  0.081134600 -0.467930688  0.213298800 -0.164884448 0 0 0 0
5656550000  0.030794288 -0.463840512  0.211914016 -0.172505648 0 0 0 0
5661600000 -0.002835372 -0.462726688  0.207173136 -0.183157248 0 0 0 0
5666650000 -0.048165176 -0.456271744  0.201116736 -0.194822880 0 0 0 0
5671700000 -0.096387816 -0.441687968  0.193398688 -0.207350960 0 0 0 0
5676750000 -0.136203200 -0.428545568  0.187831264 -0.217677296 0 0 0 0
5681800000 -0.191025920 -0.400769696  0.176677328 -0.232441104 0 0 0 0
5686850000 -0.211078112 -0.384553888  0.170160496 -0.241441296 0 0 0 0
5691900000 -0.242277088 -0.364664288  0.160902096 -0.252659536 0 0 0 0
5696950000 -0.283252768 -0.328457856  0.146702992 -0.265602672 0 0 0 0
5702000000 -0.310157824 -0.304098720  0.134074432 -0.278181568 0 0 0 0
5707050000 -0.342099136 -0.263341600  0.122314896 -0.288085696 0 0 0 0
5712100000 -0.371260512 -0.220598848  0.104819728 -0.299183200 0 0 0 0
5717150000 -0.393396480 -0.176704384  0.087084648 -0.308489760 0 0 0 0
5722200000 -0.409710496 -0.134463584  0.071088648 -0.317628608 0 0 0 0
5727250000 -0.427451328 -0.085543048  0.045121796 -0.326256256 0 0 0 0
5732300000 -0.421336160 -0.052405328  0.038091148 -0.330876128 0 0 0 0
5737350000 -0.433647616  0.005619593  0.004282447 -0.336320320 0 0 0 0
5742400000 -0.424996064  0.055139436 -0.010170959 -0.339476320 0 0 0 0
5747450000 -0.421435040  0.099623472 -0.038439636 -0.340591808 0 0 0 0
5752500000 -0.404474496  0.148541072 -0.063429356 -0.339159712 0 0 0 0
5757550000 -0.388107808  0.192948912 -0.085293424 -0.337670784 0 0 0 0
5762600000 -0.366917728  0.230228656 -0.112828840 -0.331148992 0 0 0 0
5767650000 -0.341174624  0.272467360 -0.133730816 -0.323351104 0 0 0 0
5772700000 -0.308067680  0.308184128 -0.162539712 -0.310900704 0 0 0 0
5777750000 -0.272086880  0.331540928 -0.181304992 -0.298950048 0 0 0 0
5782800000 -0.238253840  0.360579744 -0.202799408 -0.284470336 0 0 0 0
5787850000 -0.206588208  0.381240032 -0.228293248 -0.263679408 0 0 0 0
5792900000 -0.154808064  0.394090816 -0.235545872 -0.254234848 0 0 0 0
5797950000 -0.115361304  0.406232032 -0.252444480 -0.233246624 0 0 0 0
5803000000 -0.079052848  0.418347168 -0.272026464 -0.205362864 0 0 0 0
5808050000 -0.036598360  0.418916032 -0.283660672 -0.182861360 0 0 0 0
5813100000 -0.000270275  0.419352576 -0.290696736 -0.163543664 0 0 0 0
5818150000  0.043548740  0.416245920 -0.295524288 -0.144845056 0 0 0 0
5823200000  0.081403312  0.408195904 -0.301308480 -0.119804688 0 0 0 0
5828250000  0.114514856  0.397588448 -0.305090752 -0.093112960 0 0 0 0
5833300000  0.147793248  0.384994528 -0.304865632 -0.073612344 0 0 0 0
5838350000  0.174482336  0.370391232 -0.303351744 -0.053948772 0 0 0 0
5843400000  0.205155056  0.353656832 -0.300548160 -0.034630544 0 0 0 0
5848450000  0.232885264  0.330401696 -0.296592128 -0.012913202 0 0 0 0
5853500000  0.253734000  0.312099616 -0.291002528  0.008319821 0 0 0 0
5858550000  0.281666656  0.288775104 -0.285100672  0.022322966 0 0 0 0
5863600000  0.291328448  0.261092096 -0.276776672  0.041268256 0 0 0 0
5868650000  0.313493504  0.243536768 -0.268628608  0.054564608 0 0 0 0
5873700000  0.333133952  0.214971104 -0.259415568  0.068991464 0 0 0 0
5878750000  0.342988480  0.192641424 -0.250138336  0.080804536 0 0 0 0
5883800000  0.349565440  0.164821952 -0.239627232  0.094849800 0 0 0 0
5888850000  0.360333504  0.141785872 -0.230459072  0.103883552 0 0 0 0
5893900000  0.373441216  0.111961880 -0.221598896  0.111838824 0 0 0 0
5898950000  0.373969600  0.090036536 -0.211324864  0.120493800 0 0 0 0
5904000000  0.388497376  0.068325592 -0.201830224  0.127732544 0 0 0 0
5909050000  0.384614112  0.038641612 -0.192832672  0.135095440 0 0 0 0
5914100000  0.387369792  0.013273057 -0.183737840  0.141610064 0 0 0 0
5919150000  0.392440096 -0.013883172 -0.174507600  0.148021664 0 0 0 0
5924200000  0.385425600 -0.045730072 -0.163731072  0.155865200 0 0 0 0
5929250000  0.373144320 -0.077413880 -0.151809440  0.164231344 0 0 0 0
5934300000  0.388139040 -0.097033272 -0.148698736  0.164235184 0 0 0 0
5939350000  0.366311616 -0.129750896 -0.137598016  0.171594320 0 0 0 0
5944400000  0.358019136 -0.160436992 -0.129604760  0.176088032 0 0 0 0
5949450000  0.344940000 -0.192699232 -0.120352936  0.181309120 0 0 0 0
5954500000  0.335013984 -0.222503120 -0.108703336  0.187663552 0 0 0 0
5959550000  0.326323904 -0.248737120 -0.104263320  0.189820880 0 0 0 0
5964600000  0.297688320 -0.275797024 -0.092743424  0.195538000 0 0 0 0
5969650000  0.281421696 -0.300543168 -0.085098976  0.199370576 0 0 0 0
5974700000  0.253823248 -0.331045312 -0.074033232  0.204086672 0 0 0 0
5979750000  0.225759232 -0.355251072 -0.064007344  0.208656448 0 0 0 0
5984800000  0.188178496 -0.378832608 -0.054337068  0.211739312 0 0 0 0
5989850000  0.152031120 -0.399964000 -0.043248756  0.215307504 0 0 0 0
5994900000  0.122825344 -0.411894368 -0.032396398  0.218426720 0 0 0 0
5999950000  0.065939948 -0.426538272 -0.020012572  0.220866240 0 0 0 0
6005000000  0.044619016 -0.433459680 -0.009699743  0.222948672 0 0 0 0
