!File created by NanoVNA
# Hz S RI R 50
4995000000  0.212173856 -0.719841472 -0.005224763 -0.107323720 0 0 0 0
5000050000  0.130362288 -0.731854912 -0.006611550 -0.108426888 0 0 0 0
5005100000  0.069073864 -0.741668672 -0.006741232 -0.109487720 0 0 0 0
5010150000 -0.014738350 -0.739303296 -0.006776471 -0.111071232 0 0 0 0
5015200000 -0.089956656 -0.731957824 -0.007774982 -0.112777520 0 0 0 0
5020250000 -0.169442032 -0.708957504 -0.013636889 -0.115925968 0 0 0 0
5025300000 -0.243173040 -0.685198400 -0.014035459 -0.118008760 0 0 0 0
5030350000 -0.310366080 -0.650020416 -0.015953839 -0.120303752 0 0 0 0
5035400000 -0.373348896 -0.608075136 -0.016989920 -0.122845552 0 0 0 0
5040450000 -0.435390976 -0.550313088 -0.019800418 -0.125122104 0 0 0 0
5045500000 -0.485064672 -0.493959104 -0.022267460 -0.127130864 0 0 0 0
5050550000 -0.532437312 -0.424221056 -0.024864418 -0.130149544 0 0 0 0
5055600000 -0.565219712 -0.360111648 -0.027830374 -0.132865624 0 0 0 0
5060650000 -0.589748864 -0.296551424 -0.029556538 -0.136040528 0 0 0 0
5065700000 -0.610116096 -0.221484768 -0.033289060 -0.139072512 0 0 0 0
5070750000 -0.623455424 -0.162686448 -0.037106708 -0.143042304 0 0 0 0
5075800000 -0.628733056 -0.087442776 -0.039609736 -0.147131088 0 0 0 0
5080850000 -0.627917888 -0.020518536 -0.044784992 -0.150732112 0 0 0 0
5085900000 -0.617620608  0.057085664 -0.049881784 -0.155263472 0 0 0 0
5090950000 -0.606761600  0.109362912 -0.054497596 -0.159935408 0 0 0 0
5096000000 -0.582541760  0.180676192 -0.060854292 -0.164660688 0 0 0 0
5101050000 -0.552626240  0.244677104 -0.067354920 -0.169694960 0 0 0 0
5106100000 -0.526161440  0.296166976 -0.076142808 -0.174356320 0 0 0 0
5111150000 -0.480762816  0.356468416 -0.085634888 -0.179372688 0 0 0 0
5116200000 -0.439125760  0.406505568 -0.097075888 -0.182970016 0 0 0 0
5121250000 -0.392582592  0.444402880 -0.107483592 -0.187550272 0 0 0 0
5126300000 -0.340252160  0.483026560 -0.120373792 -0.191111888 0 0 0 0
5131350000 -0.294738592  0.511085280 -0.134824848 -0.193085520 0 0 0 0
5136400000 -0.236048848  0.540026944 -0.150422400 -0.194505776 0 0 0 0
5141450000 -0.179525040  0.564504576 -0.169162144 -0.192547744 0 0 0 0
5146500000 -0.122262440  0.573430656 -0.187477312 -0.188548000 0 0 0 0
5151550000 -0.066412116  0.585625216 -0.205703552 -0.184545104 0 0 0 0
5156600000 -0.017057986  0.589171200 -0.224689472 -0.177922272 0 0 0 0
5161650000  0.047640216  0.592297216 -0.243686352 -0.167362016 0 0 0 0
5166700000  0.102291200  0.581933248 -0.263069280 -0.152136416 0 0 0 0
5171750000  0.155390704  0.575279936 -0.281055552 -0.134983696 0 0 0 0
5176800000  0.209605936  0.556745472 -0.295391680 -0.117171184 0 0 0 0
5181850000  0.259406208  0.539710080 -0.309617504 -0.093538832 0 0 0 0
5186900000  0.308277952  0.519060032 -0.320073312 -0.071582888 0 0 0 0
5191950000  0.355532096  0.494155520 -0.326984352 -0.044357220 0 0 0 0
5197000000  0.401193696  0.463113216 -0.330164896 -0.020302248 0 0 0 0
5202050000  0.442593632  0.428229152 -0.330498400  0.006757553 0 0 0 0
5207100000  0.480919488  0.395578240 -0.327391616  0.034396352 0 0 0 0
5212150000  0.518898496  0.354799200 -0.321856992  0.052772404 0 0 0 0
5217200000  0.552084736  0.312671680 -0.314265088  0.073527400 0 0 0 0
5222250000  0.579207104  0.269101216 -0.304460256  0.091930728 0 0 0 0
5227300000  0.605373824  0.217380256 -0.291485856  0.114218160 0 0 0 0
5232350000  0.627707520  0.171475552 -0.277585600  0.131093544 0 0 0 0
5237400000  0.644584128  0.114931072 -0.264820272  0.144475648 0 0 0 0
5242450000  0.655669952  0.060958740 -0.250900768  0.155064400 0 0 0 0
5247500000  0.664440064  0.005167133 -0.236706352  0.165387936 0 0 0 0
5252550000  0.666251776 -0.053055964 -0.224695008  0.173122192 0 0 0 0
5257600000  0.663704640 -0.107285296 -0.212364256  0.178194496 0 0 0 0
5262650000  0.653434368 -0.164931440 -0.200404608  0.183064368 0 0 0 0
5267700000  0.644663360 -0.218925216 -0.189104848  0.187653024 0 0 0 0
5272750000  0.625180864 -0.277373408 -0.178413888  0.190301056 0 0 0 0
5277800000  0.596002176 -0.334795936 -0.169308144  0.193379216 0 0 0 0
5282850000  0.569021440 -0.384441312 -0.160347408  0.196383536 0 0 0 0
5287900000  0.528833632 -0.436221184 -0.152871856  0.198181536 0 0 0 0
5292950000  0.484285024 -0.483589696 -0.143910544  0.200990624 0 0 0 0
5298000000  0.447022880 -0.529023648 -0.139056896  0.202394320 0 0 0 0
5303050000  0.393751264 -0.568253632 -0.132463288  0.204652032 0 0 0 0
5308100000  0.339595392 -0.602875264 -0.125545312  0.207855648 0 0 0 0
5313150000  0.279853184 -0.633422016 -0.120769944  0.209884128 0 0 0 0
5318200000  0.209054688 -0.654780160 -0.113968736  0.212784224 0 0 0 0
5323250000  0.147324080 -0.675157440 -0.109234608  0.215059664 0 0 0 0
5328300000  0.068509640 -0.680234816 -0.104165104  0.217470448 0 0 0 0
5333350000 -0.007631570 -0.676842880 -0.096086480  0.221721376 0 0 0 0
5338400000 -0.080224440 -0.665354048 -0.091691552  0.224638400 0 0 0 0
5343450000 -0.142461600 -0.651205952 -0.088869712  0.226094976 0 0 0 0
5348500000 -0.228412928 -0.612807936 -0.079193416  0.229464960 0 0 0 0
5353550000 -0.289795072 -0.561228160 -0.065262036  0.234159040 0 0 0 0
5358600000 -0.331076768 -0.542538816 -0.064185820  0.235222896 0 0 0 0
5363650000 -0.389407040 -0.492965536 -0.061116632  0.237380496 0 0 0 0
5368700000 -0.437684448 -0.426828000 -0.052696852  0.240003376 0 0 0 0
5373750000 -0.467942464 -0.390387104 -0.047261356  0.242467856 0 0 0 0
5378800000 -0.504914176 -0.323681344 -0.040092284  0.245982464 0 0 0 0
5383850000 -0.523199904 -0.274080704 -0.031405632  0.248968704 0 0 0 0
5388900000 -0.550373824 -0.201781376 -0.026045228  0.251731568 0 0 0 0
5393950000 -0.563330624 -0.132239256 -0.015539893  0.255384448 0 0 0 0
5399000000 -0.569048064 -0.074978624 -0.007702403  0.258597488 0 0 0 0
5404050000 -0.569021056 -0.003918533  0.003947052  0.262237488 0 0 0 0
5409100000 -0.562353216  0.053026724  0.012831958  0.265478816 0 0 0 0
5414150000 -0.548600896  0.122280464  0.023882758  0.267930128 0 0 0 0
5419200000 -0.528325376  0.181341328  0.032090978  0.270662016 0 0 0 0
5424250000 -0.498972416  0.235758288  0.046456440  0.271561504 0 0 0 0
5429300000 -0.465618944  0.295726432  0.057115848  0.273557376 0 0 0 0
5434350000 -0.435862016  0.340179392  0.073122264  0.272597952 0 0 0 0
5439400000 -0.389180032  0.384183136  0.085659864  0.273041728 0 0 0 0
5444450000 -0.337282880  0.434606112  0.101725176  0.270724672 0 0 0 0
5449500000 -0.293677248  0.461106496  0.119416976  0.267268864 0 0 0 0
5454550000 -0.237530896  0.488242432  0.132436600  0.264015760 0 0 0 0
5459600000 -0.202666192  0.516729824  0.145058048  0.259536096 0 0 0 0
5464650000 -0.136380848  0.529340736  0.160968816  0.253058784 0 0 0 0
5469700000 -0.082264456  0.546631040  0.179707312  0.241975792 0 0 0 0
5474750000 -0.026914384  0.545808704  0.192590640  0.232948768 0 0 0 0
5479800000  0.026448648  0.549157568  0.205596976  0.222641488 0 0 0 0
5484850000  0.076032288  0.547186432  0.219564416  0.208944704 0 0 0 0
5489900000  0.132367272  0.532863808  0.229398640  0.197350736 0 0 0 0
5494950000  0.182814816  0.518941472  0.240834944  0.182082816 0 0 0 0
5500000000  0.226527856  0.500943904  0.248290848  0.168911536 0 0 0 0
5505050000  0.276627552  0.478294784  0.258529392  0.148858880 0 0 0 0
5510100000  0.316728992  0.451782784  0.259249952  0.141236720 0 0 0 0
5515150000  0.355369440  0.424259520  0.266145104  0.122409128 0 0 0 0
5520200000  0.393290912  0.392194304  0.269281568  0.104778640 0 0 0 0
5525250000  0.425216960  0.359230528  0.271782752  0.091161152 0 0 0 0
5530300000  0.455404224  0.316241536  0.272296224  0.077249144 0 0 0 0
5535350000  0.477791360  0.282378624  0.272280608  0.065073020 0 0 0 0
5540400000  0.500296640  0.237570256  0.271654336  0.050810436 0 0 0 0
5545450000  0.519796736  0.194829808  0.270094752  0.040554360 0 0 0 0
5550500000  0.530836768  0.148624832  0.268968960  0.024867114 0 0 0 0
5555550000  0.533387232  0.103809784  0.266060240  0.012280528 0 0 0 0
5560600000  0.544640576  0.064616068  0.263083008  0.005207827 0 0 0 0
5565650000  0.541311168  0.015778680  0.260855888 -0.002905734 0 0 0 0
5570700000  0.534814880 -0.028306750  0.258171920 -0.013314533 0 0 0 0
5575750000  0.529746464 -0.070464312  0.255511456 -0.021098150 0 0 0 0
5580800000  0.517818208 -0.116528696  0.253232752 -0.028724410 0 0 0 0
5585850000  0.503128768 -0.154072736  0.250313488 -0.038636208 0 0 0 0
5590900000  0.488639040 -0.192338080  0.249346560 -0.041262140 0 0 0 0
5595950000  0.464399520 -0.231405376  0.247091984 -0.050093264 0 0 0 0
5601000000  0.447233632 -0.264972576  0.245221360 -0.057533104 0 0 0 0
5606050000  0.413661472 -0.298649920  0.244291760 -0.063560436 0 0 0 0
5611100000  0.367570656 -0.330413952  0.240861728 -0.077526584 0 0 0 0
5616150000  0.363165600 -0.354383168  0.243497136 -0.073973280 0 0 0 0
5621200000  0.305286944 -0.382359040  0.240343744 -0.087910776 0 0 0 0
5626250000  0.279502464 -0.399860928  0.239247264 -0.096327912 0 0 0 0
5631300000  0.236359520 -0.420931296  0.238423552 -0.104546136 0 0 0 0
5636350000  0.195088480 -0.429486688  0.236660944 -0.113437832 0 0 0 0
5641400000  0.152869456 -0.442984512  0.235774912 -0.122374448 0 0 0 0
5646450000  0.094053456 -0.443283168  0.231799648 -0.134709040 0 0 0 0
5651500000  0.068910704 -0.454038592  0.229188448 -0.145625824 0 0 0 0
5656550000  0.032674068 -0.452644704  0.228712448 -0.153697104 0 0 0 0
5661600000 -0.029020388 -0.438260928  0.221550352 -0.169326880 0 0 0 0
5666650000 -0.055716904 -0.436089088  0.219039776 -0.178054992 0 0 0 0
5671700000 -0.087400312 -0.425425888  0.214762368 -0.188768400 0 0 0 0
5676750000 -0.139741856 -0.406161504  0.206671968 -0.202964256 0 0 0 0
5681800000 -0.169235440 -0.389344448  0.201419376 -0.214268032 0 0 0 0
5686850000 -0.207135760 -0.367177120  0.193977856 -0.227121440 0 0 0 0
5691900000 -0.240070896 -0.344932096  0.185638784 -0.238968320 0 0 0 0
5696950000 -0.280659200 -0.311117152  0.173660480 -0.252921552 0 0 0 0
5702000000 -0.299005696 -0.288316576  0.160608352 -0.267389232 0 0 0 0
5707050000 -0.332823776 -0.248262048  0.152380608 -0.276945696 0 0 0 0
5712100000 -0.354643968 -0.215385312  0.136827312 -0.290299328 0 0 0 0
5717150000 -0.381902496 -0.167458368  0.121111920 -0.301107008 0 0 0 0
5722200000 -0.394728864 -0.131285144  0.107225728 -0.311910912 0 0 0 0
5727250000 -0.402810976 -0.095700568  0.090694168 -0.320871968 0 0 0 0
5732300000 -0.417685568 -0.044456816  0.071399176 -0.330553088 0 0 0 0
5737350000 -0.423125792  0.003980781  0.043581000 -0.337942400 0 0 0 0
5742400000 -0.416362496  0.049574356  0.029863130 -0.343515328 0 0 0 0
5747450000 -0.420750784  0.102248112 -0.001472109 -0.348339456 0 0 0 0
5752500000 -0.400609568  0.141497456 -0.024834406 -0.350802880 0 0 0 0
5757550000 -0.385298624  0.183919520 -0.044756448 -0.351743360 0 0 0 0
5762600000 -0.367181376  0.223238288 -0.073188272 -0.348267040 0 0 0 0
5767650000 -0.343028384  0.265925056 -0.094981024 -0.343436448 0 0 0 0
5772700000 -0.311669216  0.302066592 -0.123257584 -0.336500288 0 0 0 0
5777750000 -0.277527616  0.327476288 -0.146033808 -0.326868832 0 0 0 0
5782800000 -0.245352336  0.359385344 -0.170915808 -0.314835584 0 0 0 0
5787850000 -0.213629328  0.378678368 -0.193629552 -0.300674304 0 0 0 0
5792900000 -0.163416448  0.395831968 -0.205750160 -0.290360960 0 0 0 0
5797950000 -0.128778472  0.415090368 -0.232330912 -0.266088880 0 0 0 0
5803000000 -0.087046736  0.422657568 -0.248203968 -0.247454848 0 0 0 0
5808050000 -0.044493924  0.426832192 -0.265353408 -0.224652912 0 0 0 0
5813100000 -0.007081747  0.427765920 -0.275663648 -0.204655904 0 0 0 0
5818150000  0.036766580  0.425974144 -0.283010656 -0.187385472 0 0 0 0
5823200000  0.076384632  0.419202240 -0.292621920 -0.162266864 0 0 0 0
5828250000  0.111938352  0.409979936 -0.299375520 -0.137776336 0 0 0 0
5833300000  0.144490272  0.396202656 -0.302384448 -0.117064688 0 0 0 0
5838350000  0.173546160  0.382136224 -0.304091360 -0.095061504 0 0 0 0
5843400000  0.204773312  0.363402752 -0.304522688 -0.074364080 0 0 0 0
5848450000  0.236052880  0.341646976 -0.302527808 -0.053468092 0 0 0 0
5853500000  0.259734896  0.322752480 -0.299482048 -0.033750240 0 0 0 0
5858550000  0.285873728  0.296971104 -0.294851968 -0.015835556 0 0 0 0
5863600000  0.305620512  0.274905120 -0.289563136 -0.002028774 0 0 0 0
5868650000  0.316306368  0.244580128 -0.283226560  0.020520696 0 0 0 0
5873700000  0.336176160  0.213534736 -0.275776032  0.033401132 0 0 0 0
5878750000  0.348521504  0.193542880 -0.268337136  0.045299848 0 0 0 0
5883800000  0.356478368  0.164642128 -0.259604752  0.061142304 0 0 0 0
5888850000  0.367127584  0.139765488 -0.251346672  0.072367896 0 0 0 0
5893900000  0.376235488  0.107496392 -0.243456960  0.083055016 0 0 0 0
5898950000  0.378525600  0.084531056 -0.234500848  0.091795328 0 0 0 0
5904000000  0.385166336  0.058910064 -0.224856800  0.103544160 0 0 0 0
5909050000  0.383969536  0.031087786 -0.217821504  0.109492824 0 0 0 0
5914100000  0.378702656  0.001199684 -0.208242608  0.120140680 0 0 0 0
5919150000  0.382620352 -0.026569730 -0.199413456  0.127862736 0 0 0 0
5924200000  0.386083744 -0.047980116 -0.193181600  0.132408408 0 0 0 0
5929250000  0.363495648 -0.084223336 -0.179391520  0.145956064 0 0 0 0
5934300000  0.377999296 -0.103145856 -0.174042384  0.148435072 0 0 0 0
5939350000  0.355390144 -0.133903880 -0.164492720  0.156349968 0 0 0 0
5944400000  0.341998112 -0.162716256 -0.156637648  0.161610384 0 0 0 0
5949450000  0.337098880 -0.191752480 -0.147790656  0.168019408 0 0 0 0
5954500000  0.329820896 -0.216713856 -0.137245312  0.175515248 0 0 0 0
5959550000  0.315600320 -0.240643264 -0.130701912  0.179204784 0 0 0 0
5964600000  0.280855712 -0.273522400 -0.120943072  0.184871392 0 0 0 0
5969650000  0.266776448 -0.294031808 -0.111836728  0.190412080 0 0 0 0
5974700000  0.240203120 -0.322648864 -0.101214128  0.195957344 0 0 0 0
5979750000  0.214805968 -0.343010656 -0.091879040  0.200580736 0 0 0 0
5984800000  0.195591248 -0.363922240 -0.084393048  0.204325472 0 0 0 0
5989850000  0.126716840 -0.390490816 -0.067947712  0.210399920 0 0 0 0
5994900000  0.132741856 -0.395804768 -0.062596372  0.212654368 0 0 0 0
5999950000  0.058564844 -0.415232832 -0.048426208  0.217020560 0 0 0 0
6005000000  0.034412856 -0.419022080 -0.035776752  0.219432304 0 0 0 0
