!File created by NanoVNA
# Hz S RI R 50
4995000000  0.205209072 -0.720275136 -0.003674836 -0.106896176 0 0 0 0
5000050000  0.130295336 -0.734437312 -0.004603130 -0.107849456 0 0 0 0
5005100000  0.065245168 -0.743561728 -0.005697829 -0.109031656 0 0 0 0
5010150000 -0.016902668 -0.740389184 -0.005899688 -0.110544736 0 0 0 0
5015200000 -0.086760336 -0.738264960 -0.005634844 -0.112341856 0 0 0 0
5020250000 -0.167638080 -0.715649472 -0.010899789 -0.115456408 0 0 0 0
5025300000 -0.252915152 -0.684057280 -0.011949816 -0.117590864 0 0 0 0
5030350000 -0.308692544 -0.660241920 -0.013115970 -0.119697816 0 0 0 0
5035400000 -0.377856512 -0.612349120 -0.014277224 -0.122291416 0 0 0 0
5040450000 -0.441727456 -0.554055360 -0.016797516 -0.124616856 0 0 0 0
5045500000 -0.492851104 -0.496280448 -0.019221402 -0.127144960 0 0 0 0
5050550000 -0.537195008 -0.434447264 -0.020953904 -0.129811336 0 0 0 0
5055600000 -0.572408512 -0.365471232 -0.024681832 -0.132522896 0 0 0 0
5060650000 -0.597513408 -0.291778080 -0.026183230 -0.135530176 0 0 0 0
5065700000 -0.618263488 -0.218566608 -0.030308408 -0.138461440 0 0 0 0
5070750000 -0.630754368 -0.169593136 -0.032095104 -0.142972096 0 0 0 0
5075800000 -0.638706368 -0.086284048 -0.036600740 -0.146590912 0 0 0 0
5080850000 -0.634895424 -0.013130780 -0.041048688 -0.150305792 0 0 0 0
5085900000 -0.625962816  0.055932672 -0.045153528 -0.155047200 0 0 0 0
5090950000 -0.613342592  0.120900216 -0.049708852 -0.159749104 0 0 0 0
5096000000 -0.591699200  0.177748112 -0.054773440 -0.164849840 0 0 0 0
5101050000 -0.559041024  0.251859840 -0.062391288 -0.169463344 0 0 0 0
5106100000 -0.532238080  0.301408800 -0.071158480 -0.174264208 0 0 0 0
5111150000 -0.489792320  0.358348224 -0.079033032 -0.179913360 0 0 0 0
5116200000 -0.446197728  0.408138528 -0.089422832 -0.184242784 0 0 0 0
5121250000 -0.399403936  0.446977056 -0.100841176 -0.188171872 0 0 0 0
5126300000 -0.347171328  0.486628640 -0.112400768 -0.192794384 0 0 0 0
5131350000 -0.296785728  0.518454848 -0.127214416 -0.195018640 0 0 0 0
5136400000 -0.238404416  0.546065600 -0.141890272 -0.196832192 0 0 0 0
5141450000 -0.181839984  0.569046272 -0.159790640 -0.196402000 0 0 0 0
5146500000 -0.128380728  0.578096832 -0.176231616 -0.196207680 0 0 0 0
5151550000 -0.066979252  0.590890240 -0.194927536 -0.192049680 0 0 0 0
5156600000 -0.016088691  0.596076160 -0.216978176 -0.183129584 0 0 0 0
5161650000  0.047402040  0.598248512 -0.234884912 -0.175841024 0 0 0 0
5166700000  0.105515632  0.588706560 -0.255312048 -0.161239568 0 0 0 0
5171750000  0.155703568  0.579479936 -0.272767328 -0.146697456 0 0 0 0
5176800000  0.210152624  0.560278592 -0.288043392 -0.129116672 0 0 0 0
5181850000  0.261455872  0.543655040 -0.303031520 -0.106593528 0 0 0 0
5186900000  0.308865792  0.521248992 -0.314511744 -0.085495384 0 0 0 0
5191950000  0.356494912  0.495656416 -0.322646048 -0.059482096 0 0 0 0
5197000000  0.400917152  0.465185856 -0.327310496 -0.035122076 0 0 0 0
5202050000  0.442286048  0.429385920 -0.328972320 -0.009574630 0 0 0 0
5207100000  0.479975296  0.396938848 -0.327985184  0.014568087 0 0 0 0
5212150000  0.517282016  0.355400832 -0.323327296  0.037900600 0 0 0 0
5217200000  0.551787392  0.312093152 -0.316851232  0.059054132 0 0 0 0
5222250000  0.579414912  0.267361584 -0.307932224  0.078775112 0 0 0 0
5227300000  0.603849472  0.219255376 -0.296530048  0.099553440 0 0 0 0
5232350000  0.626173248  0.170926096 -0.285178496  0.116342736 0 0 0 0
5237400000  0.642566912  0.114341184 -0.273184864  0.129262984 0 0 0 0
5242450000  0.654007360  0.058985340 -0.259842688  0.142449904 0 0 0 0
5247500000  0.664032768  0.007520826 -0.247648784  0.151239408 0 0 0 0
5252550000  0.665071040 -0.051770852 -0.235020944  0.160861808 0 0 0 0
5257600000  0.663777152 -0.106080008 -0.223188544  0.167413696 0 0 0 0
5262650000  0.652344512 -0.163943920 -0.211480784  0.173179936 0 0 0 0
5267700000  0.641970368 -0.219233280 -0.200903712  0.178180912 0 0 0 0
5272750000  0.624935040 -0.276904032 -0.191039776  0.181232768 0 0 0 0
5277800000  0.593838336 -0.334297376 -0.180901072  0.186030128 0 0 0 0
5282850000  0.568570240 -0.385157760 -0.171806032  0.189865232 0 0 0 0
5287900000  0.531295232 -0.435191456 -0.165665280  0.191385824 0 0 0 0
5292950000  0.489842496 -0.482248448 -0.156617248  0.194980208 0 0 0 0
5298000000  0.448123584 -0.528540128 -0.149753728  0.198241712 0 0 0 0
5303050000  0.390488224 -0.569755520 -0.144519072  0.200228240 0 0 0 0
5308100000  0.342658912 -0.602928192 -0.138646320  0.202963584 0 0 0 0
5313150000  0.279715904 -0.635617216 -0.132675704  0.207014400 0 0 0 0
5318200000  0.213112784 -0.657882304 -0.127425376  0.209173776 0 0 0 0
5323250000  0.140430592 -0.676723264 -0.122738200  0.212102464 0 0 0 0
5328300000  0.066487172 -0.683095296 -0.115284768  0.216026944 0 0 0 0
5333350000 -0.008374570 -0.679288576 -0.108695504  0.220049888 0 0 0 0
5338400000 -0.057240156 -0.683115136 -0.110590936  0.219982528 0 0 0 0
5343450000 -0.166585776 -0.640221312 -0.092763000  0.229064912 0 0 0 0
5348500000 -0.217935808 -0.630363328 -0.094928224  0.228365488 0 0 0 0
5353550000 -0.281876416 -0.595578496 -0.083193664  0.233513184 0 0 0 0
5358600000 -0.339183488 -0.543472000 -0.073346160  0.236899344 0 0 0 0
5363650000 -0.390501728 -0.505504128 -0.074533520  0.238130944 0 0 0 0
5368700000 -0.439586944 -0.441218880 -0.065165700  0.241363920 0 0 0 0
5373750000 -0.478119392 -0.390015232 -0.058432596  0.244608784 0 0 0 0
5378800000 -0.509760864 -0.331856832 -0.052786996  0.247848576 0 0 0 0
5383850000 -0.530968000 -0.279512480 -0.045712432  0.250699696 0 0 0 0
5388900000 -0.556356672 -0.212581008 -0.039839004  0.254096720 0 0 0 0
5393950000 -0.571282368 -0.147536288 -0.028620736  0.259057664 0 0 0 0
5399000000 -0.576210560 -0.093960912 -0.023122122  0.262308592 0 0 0 0
5404050000 -0.577651200 -0.014913533 -0.011766805  0.265805152 0 0 0 0
5409100000 -0.571872512  0.047724544  0.000719670  0.269359776 0 0 0 0
5414150000 -0.558362048  0.111954912  0.009462400  0.273157760 0 0 0 0
5419200000 -0.539191424  0.181519808  0.019467600  0.276367680 0 0 0 0
5424250000 -0.509934016  0.232546064  0.033724588  0.277798624 0 0 0 0
5429300000 -0.477244320  0.289252064  0.046234732  0.280235616 0 0 0 0
5434350000 -0.446824672  0.339146688  0.060291728  0.280647776 0 0 0 0
5439400000 -0.400244064  0.377790016  0.071422704  0.281602272 0 0 0 0
5444450000 -0.348725856  0.431945760  0.089516656  0.280065088 0 0 0 0
5449500000 -0.305009152  0.459192800  0.105800336  0.278264896 0 0 0 0
5454550000 -0.248857744  0.486337440  0.119005960  0.276096672 0 0 0 0
5459600000 -0.209811392  0.521627840  0.137617152  0.269075040 0 0 0 0
5464650000 -0.142146464  0.537353344  0.152282512  0.263536400 0 0 0 0
5469700000 -0.092573200  0.545805696  0.166738336  0.256711632 0 0 0 0
5474750000 -0.033872960  0.548918336  0.182650688  0.246343072 0 0 0 0
5479800000  0.021085804  0.553933888  0.197702256  0.235329328 0 0 0 0
5484850000  0.072163904  0.553110400  0.211192064  0.223961328 0 0 0 0
5489900000  0.128529488  0.536938944  0.220400512  0.213596336 0 0 0 0
5494950000  0.180384624  0.523893344  0.232209312  0.199109152 0 0 0 0
5500000000  0.225400032  0.505499072  0.242827360  0.182163888 0 0 0 0
5505050000  0.272803808  0.480640288  0.247077744  0.173543968 0 0 0 0
5510100000  0.317211296  0.456228480  0.256767872  0.153448464 0 0 0 0
5515150000  0.355879456  0.428385760  0.261228864  0.140171968 0 0 0 0
5520200000  0.395169120  0.395024704  0.266036240  0.121130960 0 0 0 0
5525250000  0.427586944  0.361161216  0.269076896  0.108173064 0 0 0 0
5530300000  0.458451360  0.317893632  0.269907712  0.094979848 0 0 0 0
5535350000  0.481764032  0.284011072  0.270958208  0.080210456 0 0 0 0
5540400000  0.504340832  0.237138656  0.270337312  0.069162528 0 0 0 0
5545450000  0.522664800  0.193711488  0.269937696  0.055858372 0 0 0 0
5550500000  0.535524960  0.148222112  0.268624064  0.043719944 0 0 0 0
5555550000  0.539834112  0.102463296  0.267085520  0.034172248 0 0 0 0
5560600000  0.549598784  0.061471984  0.264845824  0.022339736 0 0 0 0
5565650000  0.544826944  0.009589803  0.262770320  0.014163795 0 0 0 0
5570700000  0.542278656 -0.033448876  0.260544688  0.006421643 0 0 0 0
5575750000  0.536733920 -0.075887792  0.258585424 -0.005325330 0 0 0 0
5580800000  0.525076992 -0.121320152  0.256801728 -0.009413761 0 0 0 0
5585850000  0.508183296 -0.160663968  0.254234576 -0.021149376 0 0 0 0
5590900000  0.482119296 -0.202829504  0.253223184 -0.027465938 0 0 0 0
5595950000  0.465830752 -0.239692560  0.251966112 -0.030709618 0 0 0 0
5601000000  0.446460832 -0.274674944  0.250731312 -0.039917660 0 0 0 0
5606050000  0.416575072 -0.307868096  0.250262624 -0.045765176 0 0 0 0
5611100000  0.385335776 -0.336295424  0.249220480 -0.053475740 0 0 0 0
5616150000  0.351961120 -0.364992672  0.250126752 -0.057958576 0 0 0 0
5621200000  0.302672032 -0.391281888  0.248406624 -0.069960952 0 0 0 0
5626250000  0.273685344 -0.408776608  0.248213536 -0.077351592 0 0 0 0
5631300000  0.234001888 -0.430144512  0.247953552 -0.085718032 0 0 0 0
5636350000  0.188158064 -0.437065472  0.247958336 -0.093501304 0 0 0 0
5641400000  0.149650352 -0.448652576  0.247460176 -0.103199176 0 0 0 0
5646450000  0.105425952 -0.451481696  0.246387488 -0.113349264 0 0 0 0
5651500000  0.073444712 -0.459196448  0.244030288 -0.125298936 0 0 0 0
5656550000  0.021953852 -0.451326784  0.242394016 -0.135295504 0 0 0 0
5661600000 -0.026899264 -0.441019200  0.239102656 -0.148710432 0 0 0 0
5666650000 -0.050973784 -0.438373120  0.237170912 -0.157878976 0 0 0 0
5671700000 -0.091750120 -0.425826272  0.234189792 -0.169542480 0 0 0 0
5676750000 -0.137164960 -0.408211936  0.227433616 -0.184660672 0 0 0 0
5681800000 -0.172986592 -0.389462368  0.224107264 -0.196293744 0 0 0 0
5686850000 -0.197951728 -0.369899968  0.217490288 -0.209067840 0 0 0 0
5691900000 -0.230608896 -0.347515360  0.212728624 -0.220736960 0 0 0 0
5696950000 -0.267187360 -0.317229792  0.202574192 -0.235768112 0 0 0 0
5702000000 -0.296236032 -0.290234336  0.189759472 -0.252873456 0 0 0 0
5707050000 -0.328935712 -0.249795072  0.182856400 -0.263545392 0 0 0 0
5712100000 -0.344281792 -0.221882560  0.170645760 -0.276834464 0 0 0 0
5717150000 -0.367820800 -0.182412096  0.157461040 -0.288922848 0 0 0 0
5722200000 -0.388522432 -0.139374576  0.141922128 -0.303279008 0 0 0 0
5727250000 -0.399930432 -0.101308864  0.123212744 -0.315631136 0 0 0 0
5732300000 -0.410207584 -0.056021120  0.108414640 -0.325294624 0 0 0 0
5737350000 -0.418390144 -0.011719932  0.083266776 -0.336046944 0 0 0 0
5742400000 -0.412550592  0.035431492  0.070488256 -0.343456384 0 0 0 0
5747450000 -0.414834336  0.079088608  0.043478236 -0.351207424 0 0 0 0
5752500000 -0.401584480  0.127447520  0.018748710 -0.357197952 0 0 0 0
5757550000 -0.388943488  0.169584416 -0.003516858 -0.361577056 0 0 0 0
5762600000 -0.371911552  0.208417936 -0.030875436 -0.362553824 0 0 0 0
5767650000 -0.351197760  0.252514304 -0.051200272 -0.361131744 0 0 0 0
5772700000 -0.319541504  0.289639552 -0.081086224 -0.356990272 0 0 0 0
5777750000 -0.288130592  0.317495104 -0.107617184 -0.350045248 0 0 0 0
5782800000 -0.256196384  0.348364160 -0.130943176 -0.342569568 0 0 0 0
5787850000 -0.225119856  0.371554240 -0.158595440 -0.330999712 0 0 0 0
5792900000 -0.176890192  0.391739808 -0.174528144 -0.320368768 0 0 0 0
5797950000 -0.140744400  0.411690880 -0.200791568 -0.302343104 0 0 0 0
5803000000 -0.100266032  0.423201728 -0.221458368 -0.284703200 0 0 0 0
5808050000 -0.056799672  0.427505088 -0.239461680 -0.265862912 0 0 0 0
5813100000 -0.018437942  0.431037920 -0.253369040 -0.246908992 0 0 0 0
5818150000  0.026876284  0.431311840 -0.264220752 -0.229593712 0 0 0 0
5823200000  0.068156896  0.425155392 -0.277752320 -0.204752064 0 0 0 0
5828250000  0.107616352  0.417388928 -0.285480800 -0.184945840 0 0 0 0
5833300000  0.141885264  0.405565216 -0.291057600 -0.164770064 0 0 0 0
5838350000  0.172365648  0.392172512 -0.298133056 -0.140632288 0 0 0 0
5843400000  0.208445152  0.374305568 -0.299924256 -0.122727552 0 0 0 0
5848450000  0.238896016  0.351531104 -0.302513792 -0.098479632 0 0 0 0
5853500000  0.262978144  0.330668672 -0.302131520 -0.076625584 0 0 0 0
5858550000  0.291039584  0.303569344 -0.299936608 -0.059430156 0 0 0 0
5863600000  0.309044288  0.276596000 -0.297530368 -0.040849964 0 0 0 0
5868650000  0.328764800  0.254738448 -0.293328864 -0.022621874 0 0 0 0
5873700000  0.350764704  0.220185680 -0.288273760 -0.007079476 0 0 0 0
5878750000  0.359195168  0.194169824 -0.282512544  0.009351412 0 0 0 0
5883800000  0.372312288  0.166964864 -0.276433408  0.023268472 0 0 0 0
5888850000  0.380196000  0.138748768 -0.269393984  0.037000564 0 0 0 0
5893900000  0.388840320  0.103181888 -0.262457216  0.050644244 0 0 0 0
5898950000  0.389160800  0.077421928 -0.254442720  0.060869904 0 0 0 0
5904000000  0.394878880  0.050647316 -0.246827632  0.073488528 0 0 0 0
5909050000  0.393692064  0.022827492 -0.239826400  0.082977296 0 0 0 0
5914100000  0.384323616 -0.009222098 -0.231041424  0.095125200 0 0 0 0
5919150000  0.391741984 -0.032668862 -0.224536608  0.100521096 0 0 0 0
5924200000  0.378587648 -0.066958740 -0.214788400  0.114453264 0 0 0 0
5929250000  0.384566016 -0.082839096 -0.208794048  0.119265120 0 0 0 0
5934300000  0.375735072 -0.115879160 -0.200486192  0.128277184 0 0 0 0
5939350000  0.357855584 -0.142972448 -0.192737520  0.136310816 0 0 0 0
5944400000  0.345903968 -0.171162000 -0.184240160  0.144554560 0 0 0 0
5949450000  0.338278720 -0.197744208 -0.176013376  0.152018672 0 0 0 0
5954500000  0.328796160 -0.223104960 -0.167021120  0.159469136 0 0 0 0
5959550000  0.303095296 -0.250158432 -0.159418592  0.165615552 0 0 0 0
5964600000  0.285385952 -0.272179232 -0.150000432  0.172697232 0 0 0 0
5969650000  0.268119152 -0.297564224 -0.141747376  0.179234928 0 0 0 0
5974700000  0.239611824 -0.323279008 -0.130515752  0.186409440 0 0 0 0
5979750000  0.221472944 -0.341577760 -0.122475256  0.191553296 0 0 0 0
5984800000  0.177960016 -0.366904672 -0.110562736  0.198385632 0 0 0 0
5989850000  0.157649152 -0.383865760 -0.102530712  0.202358880 0 0 0 0
5994900000  0.119939216 -0.397277760 -0.089255464  0.208780752 0 0 0 0
5999950000  0.058713180 -0.413322464 -0.076359656  0.213609408 0 0 0 0
6005000000  0.030703938 -0.418772960 -0.065106728  0.216724896 0 0 0 0
