!File created by NanoVNA
# Hz S RI R 50
4995000000  0.209164688 -0.720058112 -0.002946439 -0.106136056 0 0 0 0
5000050000  0.129952120 -0.732224064 -0.003212943 -0.106996976 0 0 0 0
5005100000  0.064494624 -0.741146496 -0.004321896 -0.108096920 0 0 0 0
5010150000 -0.011541677 -0.739330368 -0.003771138 -0.109434672 0 0 0 0
5015200000 -0.089866704 -0.732888000 -0.005109910 -0.111256664 0 0 0 0
5020250000 -0.165429760 -0.713071360 -0.009706309 -0.114457224 0 0 0 0
5025300000 -0.246689072 -0.683136256 -0.010924961 -0.116398024 0 0 0 0
5030350000 -0.310937152 -0.653264576 -0.012660107 -0.118702488 0 0 0 0
5035400000 -0.381978560 -0.600530880 -0.013548689 -0.120983608 0 0 0 0
5040450000 -0.440277056 -0.547377536 -0.016274438 -0.123261144 0 0 0 0
5045500000 -0.490167264 -0.492668320 -0.018475154 -0.125586928 0 0 0 0
5050550000 -0.530410240 -0.430421856 -0.020011296 -0.128363608 0 0 0 0
5055600000 -0.566435584 -0.365299840 -0.022977228 -0.131101640 0 0 0 0
5060650000 -0.590027584 -0.303919520 -0.023999802 -0.134185840 0 0 0 0
5065700000 -0.612173248 -0.227814544 -0.027571918 -0.137335344 0 0 0 0
5070750000 -0.624510976 -0.161575728 -0.031401240 -0.141056480 0 0 0 0
5075800000 -0.630673536 -0.088332152 -0.033066814 -0.145224128 0 0 0 0
5080850000 -0.630769152 -0.022351982 -0.037324992 -0.148942672 0 0 0 0
5085900000 -0.618304128  0.054974984 -0.042590928 -0.153306432 0 0 0 0
5090950000 -0.607032960  0.121407496 -0.047262548 -0.158099856 0 0 0 0
5096000000 -0.586611712  0.175752464 -0.051692908 -0.163270736 0 0 0 0
5101050000 -0.555355776  0.247472896 -0.057594448 -0.168649536 0 0 0 0
5106100000 -0.528402144  0.296697792 -0.066498928 -0.173301136 0 0 0 0
5111150000 -0.485327328  0.355305984 -0.074073024 -0.178886000 0 0 0 0
5116200000 -0.440311776  0.409229824 -0.084975216 -0.183133664 0 0 0 0
5121250000 -0.395692576  0.444247488 -0.095058936 -0.188097152 0 0 0 0
5126300000 -0.340743104  0.485807232 -0.107390224 -0.191827568 0 0 0 0
5131350000 -0.292500864  0.516690848 -0.120201976 -0.195864496 0 0 0 0
5136400000 -0.229959424  0.547032256 -0.135948368 -0.196638816 0 0 0 0
5141450000 -0.176403568  0.567145856 -0.153831472 -0.196542128 0 0 0 0
5146500000 -0.123033848  0.574253184 -0.168907472 -0.196768944 0 0 0 0
5151550000 -0.059324436  0.589276928 -0.189239584 -0.191490992 0 0 0 0
5156600000 -0.010032592  0.592718912 -0.208006720 -0.186363968 0 0 0 0
5161650000  0.052252252  0.594035840 -0.226147984 -0.178896432 0 0 0 0
5166700000  0.109096184  0.583756736 -0.246273504 -0.166166336 0 0 0 0
5171750000  0.160002544  0.575524736 -0.263447584 -0.152726112 0 0 0 0
5176800000  0.213910000  0.555685248 -0.280044256 -0.135235552 0 0 0 0
5181850000  0.265180592  0.538156032 -0.295789248 -0.111983840 0 0 0 0
5186900000  0.314060800  0.515975904 -0.306736064 -0.093456792 0 0 0 0
5191950000  0.359778240  0.490251936 -0.316313280 -0.068686632 0 0 0 0
5197000000  0.403380064  0.459115520 -0.321598560 -0.045677772 0 0 0 0
5202050000  0.444390496  0.423968704 -0.324527200 -0.021192174 0 0 0 0
5207100000  0.482298112  0.390558208 -0.324023424  0.004004956 0 0 0 0
5212150000  0.519196576  0.349364640 -0.320908800  0.025308374 0 0 0 0
5217200000  0.551957696  0.306443840 -0.315122048  0.046666704 0 0 0 0
5222250000  0.579115904  0.260660112 -0.306514240  0.070675824 0 0 0 0
5227300000  0.603078208  0.213189280 -0.297792480  0.087039440 0 0 0 0
5232350000  0.624789248  0.165896256 -0.287583936  0.103434208 0 0 0 0
5237400000  0.640194496  0.109664912 -0.276185440  0.118059192 0 0 0 0
5242450000  0.651013696  0.056617372 -0.263844160  0.131446096 0 0 0 0
5247500000  0.658502208  0.001464226 -0.251273776  0.142801888 0 0 0 0
5252550000  0.659949440 -0.054538736 -0.240963296  0.150945184 0 0 0 0
5257600000  0.658832768 -0.107061816 -0.228948448  0.157950720 0 0 0 0
5262650000  0.648115392 -0.163272288 -0.217987632  0.164019360 0 0 0 0
5267700000  0.635300608 -0.220140144 -0.206756048  0.171333040 0 0 0 0
5272750000  0.617885568 -0.276709344 -0.196239456  0.176046752 0 0 0 0
5277800000  0.588283392 -0.332445440 -0.188301088  0.179200464 0 0 0 0
5282850000  0.563928192 -0.380500736 -0.179743056  0.183688480 0 0 0 0
5287900000  0.528643424 -0.429421952 -0.173141680  0.185424272 0 0 0 0
5292950000  0.484937376 -0.477317152 -0.164194448  0.190134240 0 0 0 0
5298000000  0.445099296 -0.523199424 -0.159505200  0.191920208 0 0 0 0
5303050000  0.389654528 -0.561827712 -0.151384736  0.196615664 0 0 0 0
5308100000  0.337117984 -0.595091968 -0.144782704  0.200494848 0 0 0 0
5313150000  0.282228352 -0.627395456 -0.142597920  0.202225568 0 0 0 0
5318200000  0.214081552 -0.649064704 -0.136079472  0.205490032 0 0 0 0
5323250000  0.144788512 -0.667429504 -0.129152072  0.210386896 0 0 0 0
5328300000  0.061345596 -0.672993856 -0.122473120  0.214308368 0 0 0 0
5333350000  0.005499785 -0.675602688 -0.118645768  0.216961616 0 0 0 0
5338400000 -0.071705192 -0.662841344 -0.113999632  0.220526128 0 0 0 0
5343450000 -0.127896608 -0.653070720 -0.110633512  0.222948544 0 0 0 0
5348500000 -0.217968704 -0.616344256 -0.099973584  0.228572496 0 0 0 0
5353550000 -0.285054336 -0.562483648 -0.085742336  0.234049024 0 0 0 0
5358600000 -0.326315264 -0.540067840 -0.084508384  0.235667568 0 0 0 0
5363650000 -0.381607968 -0.499089056 -0.083120856  0.237428304 0 0 0 0
5368700000 -0.431443584 -0.437331904 -0.073300552  0.241456576 0 0 0 0
5373750000 -0.463727712 -0.396227360 -0.066539900  0.244822960 0 0 0 0
5378800000 -0.505466464 -0.323139776 -0.058478360  0.248628464 0 0 0 0
5383850000 -0.525599488 -0.268859200 -0.052243232  0.252047056 0 0 0 0
5388900000 -0.549670976 -0.204787984 -0.046504708  0.255415328 0 0 0 0
5393950000 -0.561632960 -0.143723760 -0.037173196  0.259739728 0 0 0 0
5399000000 -0.570675968 -0.076221904 -0.027892222  0.263867056 0 0 0 0
5404050000 -0.570465984 -0.010008862 -0.019308356  0.267748736 0 0 0 0
5409100000 -0.564236416  0.049811752 -0.008012915  0.271871584 0 0 0 0
5414150000 -0.550168896  0.118486184  0.002291701  0.275016640 0 0 0 0
5419200000 -0.533090656  0.178064080  0.010026290  0.278895264 0 0 0 0
5424250000 -0.503150752  0.230857312  0.025012494  0.280619392 0 0 0 0
5429300000 -0.470637120  0.292815648  0.038354420  0.283382368 0 0 0 0
5434350000 -0.442408512  0.338914688  0.053347396  0.284192928 0 0 0 0
5439400000 -0.395295968  0.382140416  0.063289776  0.285393248 0 0 0 0
5444450000 -0.344675456  0.429921536  0.078301416  0.285221056 0 0 0 0
5449500000 -0.298423296  0.466571168  0.100082240  0.281700576 0 0 0 0
5454550000 -0.245175712  0.484578880  0.110974280  0.280286176 0 0 0 0
5459600000 -0.207621184  0.518912064  0.127596544  0.275267200 0 0 0 0
5464650000 -0.138901808  0.537618816  0.144795232  0.269643968 0 0 0 0
5469700000 -0.087672808  0.547845056  0.158269168  0.263526672 0 0 0 0
5474750000 -0.028520328  0.551527616  0.175692352  0.252647792 0 0 0 0
5479800000  0.024789620  0.554267200  0.188063072  0.244677072 0 0 0 0
5484850000  0.075157136  0.554071168  0.204226352  0.231700544 0 0 0 0
5489900000  0.131730048  0.538167744  0.214233488  0.221090448 0 0 0 0
5494950000  0.184095792  0.524474560  0.225147456  0.208371856 0 0 0 0
5500000000  0.229501904  0.507520256  0.238123744  0.189446496 0 0 0 0
5505050000  0.278438208  0.483216672  0.243574496  0.178150336 0 0 0 0
5510100000  0.320626336  0.456956800  0.250661968  0.163630496 0 0 0 0
5515150000  0.360205600  0.429091168  0.257203872  0.147448688 0 0 0 0
5520200000  0.398889280  0.396313056  0.259936064  0.133834648 0 0 0 0
5525250000  0.430662880  0.361033696  0.264816288  0.117604696 0 0 0 0
5530300000  0.461256384  0.317868832  0.266489216  0.103113848 0 0 0 0
5535350000  0.484044640  0.282671552  0.267830544  0.089072360 0 0 0 0
5540400000  0.506706304  0.236068448  0.267432656  0.078682288 0 0 0 0
5545450000  0.523637056  0.191611504  0.266441648  0.066474684 0 0 0 0
5550500000  0.534517120  0.144212208  0.266928672  0.050912656 0 0 0 0
5555550000  0.545770752  0.106027616  0.264235760  0.048701300 0 0 0 0
5560600000  0.547528128  0.057708532  0.263555376  0.031812388 0 0 0 0
5565650000  0.545329024  0.009326243  0.261371200  0.027036894 0 0 0 0
5570700000  0.541169728 -0.033516248  0.259276448  0.016272035 0 0 0 0
5575750000  0.533650272 -0.076995584  0.257782912  0.006587172 0 0 0 0
5580800000  0.524464672 -0.121971008  0.256225232  0.003704304 0 0 0 0
5585850000  0.507102432 -0.160610144  0.254347120 -0.008690445 0 0 0 0
5590900000  0.482199232 -0.201760384  0.253859200 -0.012382687 0 0 0 0
5595950000  0.457713600 -0.241733264  0.252559184 -0.022435910 0 0 0 0
5601000000  0.440191008 -0.275320928  0.252013392 -0.027478378 0 0 0 0
5606050000  0.405467488 -0.308251584  0.251887408 -0.033339356 0 0 0 0
5611100000  0.375104512 -0.336393120  0.251658144 -0.041670608 0 0 0 0
5616150000  0.338325664 -0.361093504  0.252125472 -0.046357868 0 0 0 0
5621200000  0.297783168 -0.386327648  0.252070480 -0.053553712 0 0 0 0
5626250000  0.256774816 -0.404270592  0.252308784 -0.064916448 0 0 0 0
5631300000  0.221408464 -0.422105984  0.252793008 -0.070894328 0 0 0 0
5636350000  0.176536160 -0.429503168  0.252405936 -0.081304536 0 0 0 0
5641400000  0.138644256 -0.438621696  0.252838848 -0.089168696 0 0 0 0
5646450000  0.086215448 -0.438599616  0.251523072 -0.101996048 0 0 0 0
5651500000  0.060394784 -0.445443712  0.251211680 -0.110505752 0 0 0 0
5656550000  0.021311308 -0.438571168  0.250791456 -0.120006184 0 0 0 0
5661600000 -0.022742976 -0.430970144  0.248944480 -0.133121968 0 0 0 0
5666650000 -0.059065340 -0.423241824  0.247248448 -0.142995488 0 0 0 0
5671700000 -0.102717680 -0.406557152  0.243827616 -0.156793664 0 0 0 0
5676750000 -0.129984040 -0.395961856  0.241633456 -0.167469424 0 0 0 0
5681800000 -0.175642752 -0.370774592  0.236653552 -0.182802368 0 0 0 0
5686850000 -0.196264048 -0.354085120  0.231203408 -0.196070400 0 0 0 0
5691900000 -0.231897152 -0.329505376  0.226541136 -0.208058688 0 0 0 0
5696950000 -0.268483584 -0.298752128  0.219088624 -0.222714656 0 0 0 0
5702000000 -0.290423968 -0.274321088  0.207764656 -0.240374000 0 0 0 0
5707050000 -0.317578272 -0.238181360  0.201925760 -0.250732992 0 0 0 0
5712100000 -0.338097056 -0.207549056  0.188717504 -0.266647872 0 0 0 0
5717150000 -0.356976704 -0.175768128  0.179647632 -0.278497600 0 0 0 0
5722200000 -0.371399488 -0.135718976  0.165918192 -0.292446752 0 0 0 0
5727250000 -0.398964768 -0.084475872  0.142829184 -0.309039552 0 0 0 0
5732300000 -0.394194528 -0.058340356  0.138509584 -0.316091488 0 0 0 0
5737350000 -0.411788256 -0.002910627  0.107985128 -0.331504512 0 0 0 0
5742400000 -0.405570848  0.038462468  0.097058240 -0.339332416 0 0 0 0
5747450000 -0.405453504  0.079151792  0.070550056 -0.349756288 0 0 0 0
5752500000 -0.392464384  0.125221624  0.047833612 -0.357232928 0 0 0 0
5757550000 -0.381875392  0.165585872  0.031237610 -0.362314688 0 0 0 0
5762600000 -0.367936576  0.205561104 -0.000373461 -0.366098688 0 0 0 0
5767650000 -0.345856832  0.246777408 -0.019566596 -0.367130816 0 0 0 0
5772700000 -0.318625472  0.286106816 -0.048472040 -0.366723168 0 0 0 0
5777750000 -0.289276704  0.313369856 -0.077406024 -0.362635072 0 0 0 0
5782800000 -0.259235888  0.347387872 -0.103791176 -0.355907872 0 0 0 0
5787850000 -0.227136384  0.364723808 -0.121870816 -0.351205504 0 0 0 0
5792900000 -0.185488672  0.395222848 -0.151208080 -0.338301184 0 0 0 0
5797950000 -0.143901344  0.407505216 -0.165894960 -0.328786976 0 0 0 0
5803000000 -0.105841480  0.423124672 -0.195984736 -0.309007680 0 0 0 0
5808050000 -0.062810088  0.429457024 -0.216012976 -0.292338144 0 0 0 0
5813100000 -0.024635168  0.434413088 -0.231258240 -0.275150816 0 0 0 0
5818150000  0.021072350  0.435552800 -0.244631936 -0.258513840 0 0 0 0
5823200000  0.062379076  0.431522496 -0.260255520 -0.236698032 0 0 0 0
5828250000  0.100844288  0.423926816 -0.273890720 -0.212782944 0 0 0 0
5833300000  0.137506016  0.413449728 -0.279136032 -0.197125328 0 0 0 0
5838350000  0.169089856  0.400494080 -0.289391872 -0.172101152 0 0 0 0
5843400000  0.205018592  0.383148864 -0.293532416 -0.153925952 0 0 0 0
5848450000  0.237069216  0.360084864 -0.297358976 -0.132046152 0 0 0 0
5853500000  0.264955488  0.341949216 -0.298566080 -0.113889064 0 0 0 0
5858550000  0.289834432  0.310526976 -0.300200128 -0.090662928 0 0 0 0
5863600000  0.312237568  0.285113696 -0.298738080 -0.074888784 0 0 0 0
5868650000  0.331444192  0.261650496 -0.295924864 -0.055152236 0 0 0 0
5873700000  0.351388256  0.224741184 -0.293122720 -0.036154260 0 0 0 0
5878750000  0.365914496  0.200289488 -0.289326240 -0.021063048 0 0 0 0
5883800000  0.376550528  0.170299632 -0.284492352 -0.004939064 0 0 0 0
5888850000  0.384284960  0.139594928 -0.278834080  0.008909284 0 0 0 0
5893900000  0.396998144  0.106824784 -0.274053856  0.021389648 0 0 0 0
5898950000  0.392566816  0.077081080 -0.266915408  0.034251856 0 0 0 0
5904000000  0.397931616  0.049691428 -0.260247344  0.047469340 0 0 0 0
5909050000  0.394528960  0.017905338 -0.255940432  0.055938860 0 0 0 0
5914100000  0.382800992 -0.016393088 -0.248177536  0.070867440 0 0 0 0
5919150000  0.389668000 -0.040235184 -0.241931824  0.078680504 0 0 0 0
5924200000  0.380293088 -0.069998240 -0.234184000  0.091537640 0 0 0 0
5929250000  0.378072000 -0.091164736 -0.228361648  0.099512432 0 0 0 0
5934300000  0.369111488 -0.121085800 -0.220921600  0.108342840 0 0 0 0
5939350000  0.347389088 -0.149325552 -0.213239392  0.118908768 0 0 0 0
5944400000  0.337795808 -0.175510448 -0.205372912  0.128000576 0 0 0 0
5949450000  0.325267360 -0.201371792 -0.198307440  0.136252352 0 0 0 0
5954500000  0.313948480 -0.225885200 -0.189836912  0.145063008 0 0 0 0
5959550000  0.290164160 -0.250687744 -0.181516800  0.153291472 0 0 0 0
5964600000  0.265299232 -0.275098592 -0.170923680  0.163066128 0 0 0 0
5969650000  0.255551728 -0.291475712 -0.164691712  0.168073552 0 0 0 0
5974700000  0.227283536 -0.317682784 -0.153684144  0.177100384 0 0 0 0
5979750000  0.210518144 -0.333072576 -0.146057360  0.182896176 0 0 0 0
5984800000  0.168438688 -0.359027232 -0.135632304  0.190582368 0 0 0 0
5989850000  0.134952816 -0.374293024 -0.124615584  0.196234576 0 0 0 0
5994900000  0.109593800 -0.387065344 -0.113142560  0.202934944 0 0 0 0
5999950000  0.051661628 -0.401700800 -0.099287536  0.209251840 0 0 0 0
6005000000  0.041908104 -0.404500160 -0.089911048  0.212743968 0 0 0 0
