!File created by NanoVNA
# Hz S RI R 50
4995000000  0.213178768 -0.721078016 -0.000009420 -0.105193160 0 0 0 0
5000050000  0.131399128 -0.733912896 -0.001684493 -0.106098352 0 0 0 0
5005100000  0.071686536 -0.743418048 -0.002169405 -0.107095976 0 0 0 0
5010150000 -0.012379285 -0.741587392 -0.001822170 -0.108491704 0 0 0 0
5015200000 -0.089956512 -0.734835520 -0.003015327 -0.110039328 0 0 0 0
5020250000 -0.164651008 -0.714921472 -0.007255010 -0.113097072 0 0 0 0
5025300000 -0.242910272 -0.688094848 -0.007963085 -0.115246544 0 0 0 0
5030350000 -0.310340576 -0.651931520 -0.009711528 -0.117218296 0 0 0 0
5035400000 -0.378517120 -0.605440256 -0.010959049 -0.119834656 0 0 0 0
5040450000 -0.438052736 -0.551069824 -0.012737274 -0.122015856 0 0 0 0
5045500000 -0.487042880 -0.502519072 -0.014669514 -0.124233336 0 0 0 0
5050550000 -0.534319744 -0.425306432 -0.016992928 -0.126924352 0 0 0 0
5055600000 -0.567533312 -0.365961984 -0.019472210 -0.129500224 0 0 0 0
5060650000 -0.592669696 -0.300283072 -0.021224770 -0.132501664 0 0 0 0
5065700000 -0.613813632 -0.224673392 -0.023459940 -0.135689616 0 0 0 0
5070750000 -0.627016832 -0.160324208 -0.026621264 -0.139499392 0 0 0 0
5075800000 -0.634281920 -0.078878216 -0.029780184 -0.143252560 0 0 0 0
5080850000 -0.631670144 -0.025705182 -0.031802786 -0.147424064 0 0 0 0
5085900000 -0.620327104  0.058108360 -0.037478344 -0.151579792 0 0 0 0
5090950000 -0.609849536  0.117977120 -0.041353760 -0.156491168 0 0 0 0
5096000000 -0.586627904  0.180932832 -0.045917532 -0.161458144 0 0 0 0
5101050000 -0.555056576  0.249151136 -0.051200500 -0.166629040 0 0 0 0
5106100000 -0.527541984  0.301633152 -0.059910408 -0.171716048 0 0 0 0
5111150000 -0.484977312  0.359265728 -0.068593728 -0.177099936 0 0 0 0
5116200000 -0.441182752  0.411121472 -0.076766664 -0.182227456 0 0 0 0
5121250000 -0.394852608  0.448014112 -0.086464680 -0.187236576 0 0 0 0
5126300000 -0.338251296  0.492380480 -0.098812728 -0.191242720 0 0 0 0
5131350000 -0.293348160  0.517483168 -0.110257504 -0.195623296 0 0 0 0
5136400000 -0.233341584  0.546132416 -0.123356048 -0.198768416 0 0 0 0
5141450000 -0.175889664  0.568492480 -0.140759776 -0.199432640 0 0 0 0
5146500000 -0.117653952  0.579261696 -0.157610848 -0.198661648 0 0 0 0
5151550000 -0.057125816  0.591213632 -0.176432304 -0.195404880 0 0 0 0
5156600000 -0.008356395  0.594269568 -0.194238528 -0.192632160 0 0 0 0
5161650000  0.051577084  0.593663744 -0.211420560 -0.187592656 0 0 0 0
5166700000  0.116654704  0.586081600 -0.233575376 -0.173068912 0 0 0 0
5171750000  0.166683888  0.576883136 -0.251100064 -0.161896832 0 0 0 0
5176800000  0.217522400  0.555350336 -0.266498272 -0.147022576 0 0 0 0
5181850000  0.271096000  0.537700032 -0.283943552 -0.125114936 0 0 0 0
5186900000  0.316230816  0.514500032 -0.295173184 -0.111074720 0 0 0 0
5191950000  0.363424320  0.488129760 -0.306124352 -0.086028360 0 0 0 0
5197000000  0.407320256  0.456280640 -0.313227968 -0.063793520 0 0 0 0
5202050000  0.446543360  0.420391008 -0.316941440 -0.041235844 0 0 0 0
5207100000  0.484530496  0.386493184 -0.318940672 -0.016962332 0 0 0 0
5212150000  0.520198240  0.345659680 -0.317771104  0.003960393 0 0 0 0
5217200000  0.552577344  0.302258112 -0.313558752  0.027303820 0 0 0 0
5222250000  0.578673280  0.257106816 -0.308041216  0.046944396 0 0 0 0
5227300000  0.602085440  0.210280752 -0.300689856  0.065287480 0 0 0 0
5232350000  0.623040960  0.160956080 -0.291371360  0.083443928 0 0 0 0
5237400000  0.638280064  0.107429632 -0.282419200  0.096117208 0 0 0 0
5242450000  0.648231872  0.053116972 -0.271240352  0.111828800 0 0 0 0
5247500000  0.656291136  0.001345226 -0.260320400  0.123535280 0 0 0 0
5252550000  0.655712256 -0.056692572 -0.249193488  0.134886928 0 0 0 0
5257600000  0.656331968 -0.106552680 -0.239744736  0.140574480 0 0 0 0
5262650000  0.645262784 -0.164664576 -0.229763184  0.148160496 0 0 0 0
5267700000  0.631400704 -0.219745520 -0.219078304  0.156197040 0 0 0 0
5272750000  0.613189504 -0.275082752 -0.209170064  0.162066896 0 0 0 0
5277800000  0.587539648 -0.329348064 -0.201772752  0.166155808 0 0 0 0
5282850000  0.556102016 -0.379995456 -0.191916400  0.172829888 0 0 0 0
5287900000  0.527210112 -0.425955200 -0.187609680  0.173293936 0 0 0 0
5292950000  0.483183936 -0.473074848 -0.178717824  0.179668928 0 0 0 0
5298000000  0.443399616 -0.517403360 -0.173242592  0.182731264 0 0 0 0
5303050000  0.388724480 -0.557297600 -0.167744960  0.186517168 0 0 0 0
5308100000  0.336423456 -0.589345984 -0.160942016  0.191272512 0 0 0 0
5313150000  0.280092256 -0.620352448 -0.156522016  0.195401680 0 0 0 0
5318200000  0.212161696 -0.641145856 -0.151818880  0.198371840 0 0 0 0
5323250000  0.147976096 -0.663433344 -0.145015360  0.203816064 0 0 0 0
5328300000  0.078110264 -0.671496896 -0.140420880  0.207375488 0 0 0 0
5333350000  0.010769364 -0.672266432 -0.133903120  0.212861216 0 0 0 0
5338400000 -0.072766424 -0.658104192 -0.128788280  0.216655552 0 0 0 0
5343450000 -0.125856104 -0.651819392 -0.127346728  0.218794944 0 0 0 0
5348500000 -0.236729712 -0.595498432 -0.110226304  0.228510752 0 0 0 0
5353550000 -0.267853712 -0.576329024 -0.105108472  0.231117952 0 0 0 0
5358600000 -0.319325312 -0.544296192 -0.100801368  0.234020256 0 0 0 0
5363650000 -0.376741632 -0.500170176 -0.099158256  0.236472496 0 0 0 0
5368700000 -0.426662144 -0.440328512 -0.090398592  0.240794592 0 0 0 0
5373750000 -0.462459520 -0.392521184 -0.084248312  0.244311200 0 0 0 0
5378800000 -0.497845312 -0.330716000 -0.077495504  0.248491264 0 0 0 0
5383850000 -0.521531776 -0.276578848 -0.069733648  0.252751776 0 0 0 0
5388900000 -0.547942400 -0.208633312 -0.064009248  0.256688656 0 0 0 0
5393950000 -0.564069248 -0.135356464 -0.051411620  0.262230128 0 0 0 0
5399000000 -0.569268672 -0.085857488 -0.047140068  0.266134656 0 0 0 0
5404050000 -0.572536704 -0.008595298 -0.034327760  0.271443168 0 0 0 0
5409100000 -0.564551040  0.040781532 -0.026774552  0.275750112 0 0 0 0
5414150000 -0.553491264  0.107615280 -0.016720173  0.280238752 0 0 0 0
5419200000 -0.534951040  0.171655488 -0.008161082  0.284089824 0 0 0 0
5424250000 -0.507145632  0.225256448  0.006605782  0.287398720 0 0 0 0
5429300000 -0.474961088  0.288889024  0.020461662  0.289876064 0 0 0 0
5434350000 -0.446651808  0.336720960  0.035401988  0.292340992 0 0 0 0
5439400000 -0.398509696  0.384672288  0.048682872  0.293833248 0 0 0 0
5444450000 -0.349155680  0.430060224  0.061132384  0.294347712 0 0 0 0
5449500000 -0.304937312  0.459846272  0.080077224  0.292924704 0 0 0 0
5454550000 -0.247880848  0.490707744  0.093485616  0.291835552 0 0 0 0
5459600000 -0.210588368  0.521317600  0.109223904  0.288004672 0 0 0 0
5464650000 -0.143332992  0.537735616  0.125352384  0.284395680 0 0 0 0
5469700000 -0.089208408  0.553235712  0.146368192  0.275407744 0 0 0 0
5474750000 -0.031317670  0.555114816  0.161602608  0.267275216 0 0 0 0
5479800000  0.023050380  0.558727872  0.174766464  0.258977472 0 0 0 0
5484850000  0.072892208  0.557082688  0.190505520  0.247971472 0 0 0 0
5489900000  0.130255480  0.542068224  0.201026192  0.238174320 0 0 0 0
5494950000  0.185254784  0.530760160  0.215941536  0.223680480 0 0 0 0
5500000000  0.230140160  0.511217184  0.225719584  0.209831120 0 0 0 0
5505050000  0.279933856  0.487373696  0.233564576  0.197083040 0 0 0 0
5510100000  0.323173376  0.461313248  0.242919680  0.180917536 0 0 0 0
5515150000  0.362629760  0.433121376  0.249464800  0.165319648 0 0 0 0
5520200000  0.401572832  0.399907456  0.252789376  0.151856992 0 0 0 0
5525250000  0.434276480  0.363946976  0.258936224  0.135594016 0 0 0 0
5530300000  0.465988928  0.321137312  0.259698368  0.125187008 0 0 0 0
5535350000  0.487741856  0.283815776  0.262581376  0.109916784 0 0 0 0
5540400000  0.511644480  0.238175104  0.262488784  0.099108656 0 0 0 0
5545450000  0.528438688  0.192428784  0.262476624  0.086790216 0 0 0 0
5550500000  0.542060352  0.146555664  0.262945952  0.074199680 0 0 0 0
5555550000  0.545705088  0.099079896  0.262520128  0.064732276 0 0 0 0
5560600000  0.555305408  0.057219324  0.261079760  0.054049348 0 0 0 0
5565650000  0.552941056  0.007876282  0.259510576  0.047436240 0 0 0 0
5570700000  0.541481152 -0.038765392  0.258202560  0.036380364 0 0 0 0
5575750000  0.538699904 -0.080784328  0.257038208  0.028205386 0 0 0 0
5580800000  0.526769824 -0.127603648  0.256036368  0.023876540 0 0 0 0
5585850000  0.508287008 -0.167011568  0.255081360  0.013894560 0 0 0 0
5590900000  0.483679296 -0.210072240  0.255051104  0.007449215 0 0 0 0
5595950000  0.464538848 -0.244253760  0.254266832  0.001340514 0 0 0 0
5601000000  0.441066240 -0.281132288  0.254166400 -0.005158985 0 0 0 0
5606050000  0.394792864 -0.315188224  0.254813616 -0.011627060 0 0 0 0
5611100000  0.381866976 -0.341417984  0.255512960 -0.015120093 0 0 0 0
5616150000  0.333099456 -0.369574976  0.256369088 -0.022463972 0 0 0 0
5621200000  0.286685184 -0.392148992  0.257103824 -0.031741474 0 0 0 0
5626250000  0.249591312 -0.407569152  0.258056640 -0.039366288 0 0 0 0
5631300000  0.215036960 -0.426080928  0.259494272 -0.047635472 0 0 0 0
5636350000  0.172989968 -0.429111456  0.260558608 -0.053643644 0 0 0 0
5641400000  0.126990464 -0.438868768  0.261822256 -0.064125388 0 0 0 0
5646450000  0.074292944 -0.435900512  0.263083344 -0.071979480 0 0 0 0
5651500000  0.055984656 -0.443144832  0.263388096 -0.083318288 0 0 0 0
5656550000  0.008525784 -0.433493728  0.264056448 -0.092468368 0 0 0 0
5661600000 -0.038322616 -0.422421408  0.263900720 -0.105428800 0 0 0 0
5666650000 -0.068231496 -0.413315040  0.263687552 -0.115497736 0 0 0 0
5671700000 -0.111055576 -0.396756256  0.261852704 -0.129430544 0 0 0 0
5676750000 -0.138175792 -0.383631680  0.260219152 -0.142428848 0 0 0 0
5681800000 -0.173264000 -0.361675776  0.260354736 -0.151679424 0 0 0 0
5686850000 -0.201842880 -0.338682400  0.255023952 -0.168268048 0 0 0 0
5691900000 -0.228750048 -0.317841760  0.252620720 -0.180468496 0 0 0 0
5696950000 -0.264815056 -0.286057248  0.246579792 -0.196297104 0 0 0 0
5702000000 -0.286660480 -0.259233808  0.236588448 -0.215361424 0 0 0 0
5707050000 -0.309475328 -0.228790592  0.233659360 -0.226496208 0 0 0 0
5712100000 -0.329533152 -0.196586928  0.223864848 -0.242918016 0 0 0 0
5717150000 -0.340467392 -0.170036048  0.217896144 -0.253169008 0 0 0 0
5722200000 -0.370593152 -0.119076984  0.201539296 -0.273598016 0 0 0 0
5727250000 -0.381450016 -0.086724096  0.186625296 -0.288712576 0 0 0 0
5732300000 -0.378371968 -0.059574976  0.183215664 -0.296349184 0 0 0 0
5737350000 -0.391444000 -0.014316110  0.156652368 -0.316081920 0 0 0 0
5742400000 -0.392834880  0.032921062  0.145795392 -0.325919744 0 0 0 0
5747450000 -0.394279584  0.070847656  0.124694256 -0.338690944 0 0 0 0
5752500000 -0.383888992  0.113871872  0.103855552 -0.349977408 0 0 0 0
5757550000 -0.376746432  0.153319904  0.082451328 -0.359407296 0 0 0 0
5762600000 -0.364185408  0.194795968  0.053391796 -0.367970400 0 0 0 0
5767650000 -0.346178368  0.233217024  0.037932976 -0.372005440 0 0 0 0
5772700000 -0.319807712  0.271563840  0.012174954 -0.375639936 0 0 0 0
5777750000 -0.291721056  0.298483648 -0.018360122 -0.376575456 0 0 0 0
5782800000 -0.264782544  0.333482400 -0.041889988 -0.375634656 0 0 0 0
5787850000 -0.237746992  0.356624736 -0.068246728 -0.372282432 0 0 0 0
5792900000 -0.192031456  0.379192000 -0.087916416 -0.367234752 0 0 0 0
5797950000 -0.157935376  0.402152608 -0.112994304 -0.358980864 0 0 0 0
5803000000 -0.119459664  0.416953536 -0.140837856 -0.347442944 0 0 0 0
5808050000 -0.077868832  0.427032992 -0.168647456 -0.332650080 0 0 0 0
5813100000 -0.039793484  0.433715552 -0.184905856 -0.320377248 0 0 0 0
5818150000  0.005772443  0.437998592 -0.200654352 -0.307009024 0 0 0 0
5823200000  0.048263332  0.436034496 -0.218892400 -0.288597344 0 0 0 0
5828250000  0.087632952  0.430384960 -0.238643664 -0.267454560 0 0 0 0
5833300000  0.124305424  0.421892416 -0.248487728 -0.251147920 0 0 0 0
5838350000  0.157738832  0.410551424 -0.263065664 -0.229041056 0 0 0 0
5843400000  0.195306720  0.394371584 -0.272252384 -0.210535872 0 0 0 0
5848450000  0.233213904  0.375028864 -0.276977792 -0.194284352 0 0 0 0
5853500000  0.261362432  0.354054624 -0.285419328 -0.170936784 0 0 0 0
5858550000  0.292133536  0.326588224 -0.289138880 -0.152716704 0 0 0 0
5863600000  0.317023456  0.302463520 -0.290544768 -0.137609936 0 0 0 0
5868650000  0.337927136  0.275307168 -0.292800224 -0.117642280 0 0 0 0
5873700000  0.357992128  0.235669632 -0.294432416 -0.094676640 0 0 0 0
5878750000  0.376891104  0.212637728 -0.292805824 -0.081668584 0 0 0 0
5883800000  0.386937792  0.177017360 -0.291954400 -0.066073052 0 0 0 0
5888850000  0.397155808  0.144652432 -0.289928416 -0.049924620 0 0 0 0
5893900000  0.408562816  0.110637872 -0.286916608 -0.035430068 0 0 0 0
5898950000  0.409591488  0.078489624 -0.283884512 -0.022302118 0 0 0 0
5904000000  0.412277120  0.044406972 -0.280553792 -0.006931721 0 0 0 0
5909050000  0.410256896  0.013468312 -0.277058464  0.004023091 0 0 0 0
5914100000  0.399386656 -0.021759926 -0.273129280  0.019400898 0 0 0 0
5919150000  0.410975872 -0.043480784 -0.269811904  0.024841218 0 0 0 0
5924200000  0.390889344 -0.079903576 -0.264325136  0.042245524 0 0 0 0
5929250000  0.379203264 -0.104618768 -0.259005392  0.055602932 0 0 0 0
5934300000  0.374724544 -0.135714432 -0.254715712  0.065890312 0 0 0 0
5939350000  0.349672672 -0.163321712 -0.249478704  0.077738848 0 0 0 0
5944400000  0.330500192 -0.189843440 -0.243890960  0.088556920 0 0 0 0
5949450000  0.320137664 -0.215574064 -0.237650304  0.099950808 0 0 0 0
5954500000  0.306645504 -0.236247472 -0.230483152  0.112530464 0 0 0 0
5959550000  0.283581504 -0.260061088 -0.223666272  0.122445936 0 0 0 0
5964600000  0.258075232 -0.281227264 -0.215854272  0.133453416 0 0 0 0
5969650000  0.234196672 -0.300494880 -0.208567744  0.142431936 0 0 0 0
5974700000  0.211119088 -0.321995840 -0.198255040  0.154761088 0 0 0 0
5979750000  0.199343152 -0.335743936 -0.190007696  0.163230544 0 0 0 0
5984800000  0.142998880 -0.358996544 -0.178438944  0.174582480 0 0 0 0
5989850000  0.113192680 -0.371963904 -0.168596464  0.182414352 0 0 0 0
5994900000  0.107669704 -0.377771936 -0.160949440  0.187926400 0 0 0 0
5999950000  0.044269116 -0.391526048 -0.146069952  0.198455184 0 0 0 0
6005000000  0.027633248 -0.397280320 -0.135632448  0.204010496 0 0 0 0
