!File created by NanoVNA
# Hz S RI R 50
4995000000  0.211627728 -0.722460160 -0.001146889 -0.105853544 0 0 0 0
5000050000  0.130153344 -0.735457344 -0.001874379 -0.106812608 0 0 0 0
5005100000  0.071450256 -0.746820288 -0.002888095 -0.107824280 0 0 0 0
5010150000 -0.012375544 -0.742998592 -0.002937309 -0.109239480 0 0 0 0
5015200000 -0.086945824 -0.738398912 -0.003110948 -0.110915488 0 0 0 0
5020250000 -0.167301424 -0.716749568 -0.007490086 -0.114051704 0 0 0 0
5025300000 -0.248363376 -0.688162496 -0.008843157 -0.115986712 0 0 0 0
5030350000 -0.312422016 -0.658233344 -0.010342002 -0.118177224 0 0 0 0
5035400000 -0.383244544 -0.608200512 -0.011734146 -0.120488880 0 0 0 0
5040450000 -0.444771776 -0.551807872 -0.013414416 -0.122908552 0 0 0 0
5045500000 -0.494894848 -0.493557568 -0.016142749 -0.125242648 0 0 0 0
5050550000 -0.540620608 -0.427709664 -0.017588792 -0.128110664 0 0 0 0
5055600000 -0.573540480 -0.367068768 -0.020635984 -0.130684912 0 0 0 0
5060650000 -0.598904896 -0.295919136 -0.022632772 -0.133678600 0 0 0 0
5065700000 -0.620664832 -0.225805696 -0.024654872 -0.136948480 0 0 0 0
5070750000 -0.631708864 -0.166149856 -0.027680530 -0.140700608 0 0 0 0
5075800000 -0.639614336 -0.085369680 -0.029692516 -0.144975536 0 0 0 0
5080850000 -0.638044544 -0.020867280 -0.035261456 -0.148611968 0 0 0 0
5085900000 -0.629175168  0.048345028 -0.038026324 -0.153462528 0 0 0 0
5090950000 -0.614497984  0.121861680 -0.044148528 -0.157624944 0 0 0 0
5096000000 -0.592044096  0.185099856 -0.049585976 -0.162699184 0 0 0 0
5101050000 -0.561181248  0.251659872 -0.054866672 -0.167826064 0 0 0 0
5106100000 -0.533323648  0.302566592 -0.061039700 -0.173483744 0 0 0 0
5111150000 -0.488661760  0.363511840 -0.069567472 -0.179332544 0 0 0 0
5116200000 -0.448772864  0.409881152 -0.079242112 -0.184090384 0 0 0 0
5121250000 -0.400122304  0.450120160 -0.090373736 -0.188526256 0 0 0 0
5126300000 -0.345751360  0.491565472 -0.100337160 -0.193960704 0 0 0 0
5131350000 -0.298176512  0.520842144 -0.115277336 -0.196393504 0 0 0 0
5136400000 -0.238505760  0.548749120 -0.128387152 -0.199698800 0 0 0 0
5141450000 -0.182085280  0.571462208 -0.145633584 -0.200324784 0 0 0 0
5146500000 -0.124056016  0.582031104 -0.162942496 -0.199803504 0 0 0 0
5151550000 -0.063175120  0.593688704 -0.181421728 -0.195952304 0 0 0 0
5156600000 -0.013113582  0.597551616 -0.200787008 -0.191573120 0 0 0 0
5161650000  0.052783260  0.599386496 -0.219881632 -0.183221600 0 0 0 0
5166700000  0.109499824  0.589177088 -0.238603984 -0.174118160 0 0 0 0
5171750000  0.160439760  0.579541760 -0.256281376 -0.160453488 0 0 0 0
5176800000  0.215364080  0.559791616 -0.274312224 -0.141786480 0 0 0 0
5181850000  0.264680768  0.541179392 -0.289281408 -0.123696624 0 0 0 0
5186900000  0.312728448  0.518898368 -0.301561760 -0.104819784 0 0 0 0
5191950000  0.359501312  0.492631328 -0.312575424 -0.079137184 0 0 0 0
5197000000  0.403051904  0.460801024 -0.318183424 -0.057737092 0 0 0 0
5202050000  0.445787200  0.424972544 -0.322385088 -0.032315634 0 0 0 0
5207100000  0.483660224  0.391470432 -0.322807872 -0.005744566 0 0 0 0
5212150000  0.519091712  0.349709600 -0.320736736  0.014582478 0 0 0 0
5217200000  0.552283648  0.306147136 -0.316268736  0.035792008 0 0 0 0
5222250000  0.578915136  0.261924528 -0.309917440  0.054638688 0 0 0 0
5227300000  0.603056640  0.213038912 -0.300733600  0.076004336 0 0 0 0
5232350000  0.624297344  0.164326496 -0.291244896  0.093561192 0 0 0 0
5237400000  0.640323584  0.112561792 -0.282008416  0.104237000 0 0 0 0
5242450000  0.650755136  0.056646312 -0.268912704  0.121342680 0 0 0 0
5247500000  0.659002560  0.003284471 -0.258216528  0.131417856 0 0 0 0
5252550000  0.659343808 -0.054747268 -0.247313072  0.140972080 0 0 0 0
5257600000  0.657977088 -0.107925224 -0.235905648  0.149020976 0 0 0 0
5262650000  0.649262976 -0.162656512 -0.226319776  0.154935952 0 0 0 0
5267700000  0.633138880 -0.220802576 -0.214796336  0.162717024 0 0 0 0
5272750000  0.618925504 -0.275829856 -0.205680912  0.167166144 0 0 0 0
5277800000  0.589562816 -0.331704320 -0.197353936  0.171814320 0 0 0 0
5282850000  0.561005696 -0.382846912 -0.187883136  0.177902800 0 0 0 0
5287900000  0.529723168 -0.429850432 -0.182622672  0.178974752 0 0 0 0
5292950000  0.489736512 -0.477162720 -0.174281200  0.183546400 0 0 0 0
5298000000  0.443912672 -0.523736352 -0.167150880  0.188078928 0 0 0 0
5303050000  0.386983616 -0.563746624 -0.161828992  0.191128064 0 0 0 0
5308100000  0.335764448 -0.596142528 -0.155444496  0.195591264 0 0 0 0
5313150000  0.283132864 -0.629602048 -0.151270608  0.198816640 0 0 0 0
5318200000  0.209606432 -0.650742720 -0.144956928  0.202672000 0 0 0 0
5323250000  0.146436688 -0.670487040 -0.140178704  0.206377872 0 0 0 0
5328300000  0.072403144 -0.679478976 -0.134331376  0.210376032 0 0 0 0
5333350000  0.001251025 -0.677606400 -0.127860312  0.214957744 0 0 0 0
5338400000 -0.054562432 -0.679292736 -0.129020632  0.215893632 0 0 0 0
5343450000 -0.155286384 -0.643960000 -0.113330800  0.225085680 0 0 0 0
5348500000 -0.207367904 -0.633610240 -0.114035976  0.225104944 0 0 0 0
5353550000 -0.278366432 -0.594614720 -0.100827880  0.232266944 0 0 0 0
5358600000 -0.329627168 -0.548869056 -0.093296616  0.235592224 0 0 0 0
5363650000 -0.391619040 -0.500843296 -0.091531544  0.238188928 0 0 0 0
5368700000 -0.429870400 -0.450518656 -0.085669904  0.240795840 0 0 0 0
5373750000 -0.466341600 -0.404545888 -0.078809176  0.244767456 0 0 0 0
5378800000 -0.506254016 -0.338874720 -0.071759088  0.248982464 0 0 0 0
5383850000 -0.529472544 -0.280715488 -0.064117456  0.252555376 0 0 0 0
5388900000 -0.555656192 -0.214395552 -0.056534756  0.257252544 0 0 0 0
5393950000 -0.567742336 -0.161502640 -0.052339232  0.261100288 0 0 0 0
5399000000 -0.578982208 -0.081853056 -0.037372388  0.266103184 0 0 0 0
5404050000 -0.577656192 -0.030476550 -0.033202288  0.269987712 0 0 0 0
5409100000 -0.573373440  0.045304120 -0.016435147  0.275059712 0 0 0 0
5414150000 -0.560559552  0.106738056 -0.010426800  0.278573248 0 0 0 0
5419200000 -0.543354432  0.171900336 -0.000111220  0.282745920 0 0 0 0
5424250000 -0.513353056  0.228418048  0.013570171  0.285573760 0 0 0 0
5429300000 -0.482132384  0.283187872  0.025623400  0.288527776 0 0 0 0
5434350000 -0.450955232  0.337136288  0.041258468  0.289628320 0 0 0 0
5439400000 -0.403764992  0.385124768  0.055038436  0.291065056 0 0 0 0
5444450000 -0.356735840  0.422628448  0.065449784  0.292665408 0 0 0 0
5449500000 -0.309730336  0.460783360  0.087651248  0.290107008 0 0 0 0
5454550000 -0.250441344  0.493914272  0.102806368  0.287335680 0 0 0 0
5459600000 -0.215432784  0.520900192  0.117433312  0.284073856 0 0 0 0
5464650000 -0.147432960  0.535946784  0.130682824  0.280449344 0 0 0 0
5469700000 -0.094446488  0.551699072  0.149391888  0.272605792 0 0 0 0
5474750000 -0.037665364  0.551260224  0.163877104  0.265287488 0 0 0 0
5479800000  0.019359048  0.558148672  0.181828112  0.253903008 0 0 0 0
5484850000  0.069171776  0.554794240  0.195546896  0.243307136 0 0 0 0
5489900000  0.127880872  0.541938752  0.207513776  0.231899920 0 0 0 0
5494950000  0.181339216  0.528720256  0.220215472  0.218545776 0 0 0 0
5500000000  0.227413872  0.510768544  0.231696848  0.202328208 0 0 0 0
5505050000  0.275937248  0.486167744  0.236739888  0.192974368 0 0 0 0
5510100000  0.320223392  0.459699488  0.246741520  0.174177168 0 0 0 0
5515150000  0.360530976  0.431604992  0.252708192  0.160300784 0 0 0 0
5520200000  0.399607808  0.399248000  0.256216560  0.146455312 0 0 0 0
5525250000  0.432498752  0.364373760  0.260999360  0.131599040 0 0 0 0
5530300000  0.463796128  0.320027104  0.263710352  0.116706136 0 0 0 0
5535350000  0.487122144  0.285284768  0.264043456  0.105767576 0 0 0 0
5540400000  0.508965920  0.236212736  0.265636624  0.090361064 0 0 0 0
5545450000  0.528571360  0.192662640  0.265398272  0.079032544 0 0 0 0
5550500000  0.543621440  0.148134224  0.264983152  0.068440672 0 0 0 0
5555550000  0.544067456  0.099999320  0.263428832  0.056478448 0 0 0 0
5560600000  0.550252224  0.053401592  0.263294192  0.044261284 0 0 0 0
5565650000  0.555759744  0.010091481  0.260514288  0.043171776 0 0 0 0
5570700000  0.543016128 -0.040015800  0.259448352  0.029455076 0 0 0 0
5575750000  0.538830848 -0.080888040  0.258312144  0.020052914 0 0 0 0
5580800000  0.530369760 -0.126839696  0.257236208  0.015815286 0 0 0 0
5585850000  0.510645024 -0.167094704  0.255999232  0.006373337 0 0 0 0
5590900000  0.487793920 -0.209036656  0.255617584  0.000282664 0 0 0 0
5595950000  0.464572672 -0.248019136  0.254580560 -0.006278273 0 0 0 0
5601000000  0.440954944 -0.283823904  0.254515264 -0.014062922 0 0 0 0
5606050000  0.412252928 -0.315233728  0.254824432 -0.015910570 0 0 0 0
5611100000  0.379217312 -0.344506848  0.254583392 -0.027119278 0 0 0 0
5616150000  0.342934912 -0.371358912  0.255740672 -0.031298188 0 0 0 0
5621200000  0.295253984 -0.397501152  0.256697568 -0.040178948 0 0 0 0
5626250000  0.263137216 -0.411750560  0.256709184 -0.049051924 0 0 0 0
5631300000  0.224743808 -0.432083808  0.257667456 -0.055541132 0 0 0 0
5636350000  0.177040160 -0.436251872  0.258846768 -0.064268156 0 0 0 0
5641400000  0.140724496 -0.447813792  0.259653056 -0.073374408 0 0 0 0
5646450000  0.089971088 -0.445508672  0.258913840 -0.084657720 0 0 0 0
5651500000  0.061101064 -0.450774528  0.259366960 -0.094074224 0 0 0 0
5656550000  0.013449319 -0.444220640  0.260901120 -0.102179504 0 0 0 0
5661600000 -0.025012922 -0.435036384  0.259355008 -0.115547672 0 0 0 0
5666650000 -0.062303068 -0.427830656  0.257754272 -0.127526640 0 0 0 0
5671700000 -0.103817848 -0.410987008  0.256557200 -0.139849776 0 0 0 0
5676750000 -0.126968768 -0.400027360  0.255147808 -0.149576400 0 0 0 0
5681800000 -0.175595376 -0.371961952  0.250227488 -0.166466048 0 0 0 0
5686850000 -0.196186400 -0.355734272  0.248274912 -0.177872880 0 0 0 0
5691900000 -0.231529984 -0.331567264  0.243615312 -0.191906784 0 0 0 0
5696950000 -0.263526672 -0.303103008  0.237909072 -0.206243056 0 0 0 0
5702000000 -0.286731616 -0.277832416  0.228820432 -0.224312880 0 0 0 0
5707050000 -0.311819424 -0.243878320  0.222448688 -0.236741488 0 0 0 0
5712100000 -0.337555776 -0.210347376  0.211448096 -0.253141072 0 0 0 0
5717150000 -0.355685504 -0.174272912  0.202260240 -0.265498752 0 0 0 0
5722200000 -0.371010112 -0.138547008  0.188632704 -0.281912736 0 0 0 0
5727250000 -0.387275840 -0.099492848  0.172694704 -0.297027456 0 0 0 0
5732300000 -0.399438784 -0.054748548  0.159315280 -0.309523872 0 0 0 0
5737350000 -0.399677440 -0.021461462  0.140481168 -0.322425856 0 0 0 0
5742400000 -0.401519392  0.026801466  0.127167120 -0.332888096 0 0 0 0
5747450000 -0.404277952  0.070017272  0.103514616 -0.344880192 0 0 0 0
5752500000 -0.389254944  0.109321008  0.083681504 -0.354385504 0 0 0 0
5757550000 -0.384943232  0.155108080  0.061348672 -0.363430336 0 0 0 0
5762600000 -0.369213888  0.191631120  0.033191070 -0.369272864 0 0 0 0
5767650000 -0.348930048  0.232300832  0.015424387 -0.372654592 0 0 0 0
5772700000 -0.322139648  0.269946592 -0.012446210 -0.374517888 0 0 0 0
5777750000 -0.294285440  0.300154752 -0.041181072 -0.373677472 0 0 0 0
5782800000 -0.264572528  0.334509888 -0.062890360 -0.371206336 0 0 0 0
5787850000 -0.236516864  0.359895360 -0.091972944 -0.365578560 0 0 0 0
5792900000 -0.189885616  0.381194016 -0.110683200 -0.359930528 0 0 0 0
5797950000 -0.156119504  0.405364320 -0.141164688 -0.346399264 0 0 0 0
5803000000 -0.114518872  0.416962176 -0.165495632 -0.333993856 0 0 0 0
5808050000 -0.073154072  0.426463424 -0.187546464 -0.319237472 0 0 0 0
5813100000 -0.034447432  0.432682208 -0.205903312 -0.304754400 0 0 0 0
5818150000  0.011276341  0.435960160 -0.220273680 -0.289676416 0 0 0 0
5823200000  0.052916500  0.433073600 -0.239782400 -0.267804208 0 0 0 0
5828250000  0.093576736  0.426943808 -0.253102784 -0.248624896 0 0 0 0
5833300000  0.130730376  0.417670528 -0.264471680 -0.228960896 0 0 0 0
5838350000  0.163277088  0.405112256 -0.274870016 -0.207850976 0 0 0 0
5843400000  0.201233952  0.388842688 -0.282607264 -0.188016064 0 0 0 0
5848450000  0.234215712  0.366013120 -0.289086432 -0.166369728 0 0 0 0
5853500000  0.263092096  0.347016096 -0.294127168 -0.144085120 0 0 0 0
5858550000  0.294746624  0.318350784 -0.295708256 -0.127308784 0 0 0 0
5863600000  0.318296000  0.294980128 -0.295979616 -0.111811240 0 0 0 0
5868650000  0.334890912  0.264235296 -0.297128160 -0.089841784 0 0 0 0
5873700000  0.360115584  0.230016320 -0.296189248 -0.070453888 0 0 0 0
5878750000  0.375921504  0.207549456 -0.293356000 -0.058098580 0 0 0 0
5883800000  0.382724672  0.170726048 -0.290763136 -0.039196920 0 0 0 0
5888850000  0.395544512  0.142809296 -0.287413632 -0.023976476 0 0 0 0
5893900000  0.405048672  0.104083592 -0.284141760 -0.010071899 0 0 0 0
5898950000  0.408514240  0.077736376 -0.278978496 -0.000490640 0 0 0 0
5904000000  0.411308192  0.045735288 -0.274054368  0.016103199 0 0 0 0
5909050000  0.409085376  0.014332558 -0.269380576  0.028075870 0 0 0 0
5914100000  0.395775840 -0.019701480 -0.263152128  0.041617880 0 0 0 0
5919150000  0.398379232 -0.044860696 -0.258017456  0.051717224 0 0 0 0
5924200000  0.384299072 -0.080941720 -0.251903920  0.065203340 0 0 0 0
5929250000  0.387983072 -0.095406064 -0.246403760  0.074904952 0 0 0 0
5934300000  0.373047328 -0.132889208 -0.239935632  0.086331632 0 0 0 0
5939350000  0.355391520 -0.157404864 -0.234603280  0.096415296 0 0 0 0
5944400000  0.341479392 -0.184291888 -0.227419440  0.106530464 0 0 0 0
5949450000  0.329780256 -0.208609824 -0.220299440  0.117562328 0 0 0 0
5954500000  0.314688096 -0.233578608 -0.212587424  0.127430064 0 0 0 0
5959550000  0.295848864 -0.255868672 -0.204581392  0.137330672 0 0 0 0
5964600000  0.267191376 -0.280963360 -0.197013136  0.147243328 0 0 0 0
5969650000  0.253154096 -0.300492800 -0.189677408  0.154898688 0 0 0 0
5974700000  0.223169568 -0.325210400 -0.179016400  0.165170704 0 0 0 0
5979750000  0.205238720 -0.339943808 -0.170460128  0.172886656 0 0 0 0
5984800000  0.168694016 -0.361762688 -0.160333648  0.181358448 0 0 0 0
5989850000  0.145570976 -0.378234400 -0.150172096  0.188323728 0 0 0 0
5994900000  0.098917704 -0.389658528 -0.136934512  0.197290960 0 0 0 0
5999950000  0.068295464 -0.399547264 -0.127398448  0.202581104 0 0 0 0
6005000000  0.031920844 -0.405652960 -0.113882928  0.209258816 0 0 0 0
