!File created by NanoVNA
# Hz S RI R 50
4995000000  0.207338208 -0.720000576  0.000398287 -0.104350904 0 0 0 0
5000050000  0.130508304 -0.733760512 -0.000526999 -0.105362160 0 0 0 0
5005100000  0.064018080 -0.740267008 -0.000595243 -0.106158512 0 0 0 0
5010150000 -0.012668369 -0.743108480  0.000003072 -0.107835872 0 0 0 0
5015200000 -0.095168640 -0.729713472 -0.001687640 -0.109091520 0 0 0 0
5020250000 -0.167995392 -0.712821632 -0.005266879 -0.112256680 0 0 0 0
5025300000 -0.244832416 -0.687631744 -0.006360145 -0.114279784 0 0 0 0
5030350000 -0.309023168 -0.656113216 -0.007351371 -0.116413856 0 0 0 0
5035400000 -0.374482048 -0.613067584 -0.007867060 -0.118637320 0 0 0 0
5040450000 -0.436839872 -0.552990016 -0.010315251 -0.120922928 0 0 0 0
5045500000 -0.488847776 -0.496150528 -0.012544470 -0.123175128 0 0 0 0
5050550000 -0.535181120 -0.429602432 -0.013973241 -0.126075032 0 0 0 0
5055600000 -0.567598464 -0.370464160 -0.015997302 -0.128617184 0 0 0 0
5060650000 -0.592384128 -0.304136256 -0.017302000 -0.131466480 0 0 0 0
5065700000 -0.615926592 -0.222363664 -0.020746022 -0.134423344 0 0 0 0
5070750000 -0.627114816 -0.167808800 -0.023528028 -0.138268864 0 0 0 0
5075800000 -0.633552704 -0.087370184 -0.025561224 -0.142065120 0 0 0 0
5080850000 -0.633165248 -0.026814794 -0.028819490 -0.146060928 0 0 0 0
5085900000 -0.622635968  0.059417348 -0.033379016 -0.150485680 0 0 0 0
5090950000 -0.611247424  0.118919000 -0.037167096 -0.155207360 0 0 0 0
5096000000 -0.586748288  0.182591744 -0.041285780 -0.160298896 0 0 0 0
5101050000 -0.555724416  0.253337856 -0.047286692 -0.165195792 0 0 0 0
5106100000 -0.525812736  0.306619072 -0.054762644 -0.170182864 0 0 0 0
5111150000 -0.487117600  0.357800288 -0.060729072 -0.176547280 0 0 0 0
5116200000 -0.442337696  0.412314880 -0.069502232 -0.181845360 0 0 0 0
5121250000 -0.393724704  0.451111296 -0.080876080 -0.186130336 0 0 0 0
5126300000 -0.343193504  0.487885056 -0.090124912 -0.191739632 0 0 0 0
5131350000 -0.292584800  0.520504000 -0.102811624 -0.195400624 0 0 0 0
5136400000 -0.231760896  0.549008000 -0.116103456 -0.199190800 0 0 0 0
5141450000 -0.176752688  0.570562944 -0.132553664 -0.200287792 0 0 0 0
5146500000 -0.116048768  0.581771264 -0.148852128 -0.200203472 0 0 0 0
5151550000 -0.056460660  0.593848896 -0.165325904 -0.199820304 0 0 0 0
5156600000 -0.001124505  0.598573376 -0.187332352 -0.192918272 0 0 0 0
5161650000  0.053667760  0.595215872 -0.200754064 -0.192067120 0 0 0 0
5166700000  0.115608512  0.586173312 -0.221632848 -0.180935152 0 0 0 0
5171750000  0.168055728  0.577156800 -0.240357888 -0.168524240 0 0 0 0
5176800000  0.221295312  0.556223552 -0.256432448 -0.155753568 0 0 0 0
5181850000  0.271429696  0.536802944 -0.273269152 -0.136089392 0 0 0 0
5186900000  0.319334432  0.513811936 -0.286320224 -0.118707384 0 0 0 0
5191950000  0.364440672  0.487637216 -0.296776864 -0.099481800 0 0 0 0
5197000000  0.409751072  0.454162816 -0.305107168 -0.076254696 0 0 0 0
5202050000  0.450663744  0.417440320 -0.310619680 -0.053468252 0 0 0 0
5207100000  0.486898400  0.384257216 -0.313456960 -0.029728538 0 0 0 0
5212150000  0.521507040  0.342250784 -0.312925440 -0.010714486 0 0 0 0
5217200000  0.553303104  0.299454784 -0.310941344  0.008848471 0 0 0 0
5222250000  0.579106624  0.253315424 -0.306699328  0.030947792 0 0 0 0
5227300000  0.602244800  0.205202688 -0.300135712  0.050601992 0 0 0 0
5232350000  0.622100224  0.158918528 -0.292743328  0.066926704 0 0 0 0
5237400000  0.636642560  0.103515424 -0.284150080  0.081648656 0 0 0 0
5242450000  0.646036416  0.050713068 -0.274650976  0.095822432 0 0 0 0
5247500000  0.652754880 -0.003191818 -0.264580304  0.109053032 0 0 0 0
5252550000  0.653615360 -0.059383400 -0.255832768  0.119561520 0 0 0 0
5257600000  0.650542400 -0.111149400 -0.244769456  0.129336176 0 0 0 0
5262650000  0.641458688 -0.164579056 -0.237106880  0.133489328 0 0 0 0
5267700000  0.629413760 -0.219591264 -0.227814704  0.142593440 0 0 0 0
5272750000  0.610953600 -0.273810368 -0.219491792  0.147928880 0 0 0 0
5277800000  0.586327680 -0.326200640 -0.211199040  0.154430144 0 0 0 0
5282850000  0.555123776 -0.377926144 -0.203138512  0.161096256 0 0 0 0
5287900000  0.519678656 -0.424136128 -0.196975312  0.163690176 0 0 0 0
5292950000  0.479920416 -0.469858176 -0.190129936  0.168962096 0 0 0 0
5298000000  0.440569536 -0.514628992 -0.184151440  0.173701744 0 0 0 0
5303050000  0.387917088 -0.552901312 -0.178567440  0.178231344 0 0 0 0
5308100000  0.340333440 -0.586602752 -0.173842000  0.182212880 0 0 0 0
5313150000  0.275177408 -0.615383552 -0.168394368  0.188091664 0 0 0 0
5318200000  0.211808176 -0.639012608 -0.163203328  0.191864208 0 0 0 0
5323250000  0.147879472 -0.658843520 -0.156927056  0.198121600 0 0 0 0
5328300000  0.073977112 -0.664555712 -0.151103632  0.202640496 0 0 0 0
5333350000  0.007091202 -0.665590208 -0.146956560  0.207099712 0 0 0 0
5338400000 -0.062095452 -0.658634688 -0.144322704  0.210521408 0 0 0 0
5343450000 -0.133732736 -0.638894400 -0.135102976  0.217502128 0 0 0 0
5348500000 -0.198412400 -0.621616768 -0.132452400  0.220056704 0 0 0 0
5353550000 -0.262802960 -0.585188608 -0.120807248  0.227122032 0 0 0 0
5358600000 -0.325003744 -0.534503328 -0.111161984  0.233165312 0 0 0 0
5363650000 -0.374852736 -0.496798336 -0.112072472  0.233956480 0 0 0 0
5368700000 -0.425353728 -0.437294560 -0.103430432  0.239097280 0 0 0 0
5373750000 -0.459130080 -0.390132928 -0.096506352  0.243607200 0 0 0 0
5378800000 -0.497349248 -0.331158400 -0.091670048  0.247966640 0 0 0 0
5383850000 -0.518336896 -0.282341440 -0.082648568  0.252983120 0 0 0 0
5388900000 -0.542504640 -0.222275296 -0.078693696  0.256319680 0 0 0 0
5393950000 -0.562361856 -0.137811696 -0.064648888  0.262882912 0 0 0 0
5399000000 -0.568944704 -0.075515184 -0.057589444  0.267077808 0 0 0 0
5404050000 -0.567387520 -0.028877026 -0.053144072  0.271616832 0 0 0 0
5409100000 -0.563407232  0.038388120 -0.039874760  0.277518592 0 0 0 0
5414150000 -0.552188160  0.111254832 -0.028929458  0.281460768 0 0 0 0
5419200000 -0.535412384  0.175458976 -0.019261658  0.286463456 0 0 0 0
5424250000 -0.508294336  0.226451792 -0.007237657  0.290333344 0 0 0 0
5429300000 -0.478369312  0.286406560  0.006662692  0.294468512 0 0 0 0
5434350000 -0.449475168  0.331523648  0.018569156  0.297327488 0 0 0 0
5439400000 -0.401659968  0.382921696  0.033792128  0.299240864 0 0 0 0
5444450000 -0.350732736  0.433949920  0.048639272  0.300425536 0 0 0 0
5449500000 -0.308948416  0.458453760  0.064001272  0.300991616 0 0 0 0
5454550000 -0.248403280  0.497916544  0.083014472  0.299085504 0 0 0 0
5459600000 -0.213568288  0.524908416  0.096463928  0.296658400 0 0 0 0
5464650000 -0.146678336  0.538601792  0.111371320  0.293560096 0 0 0 0
5469700000 -0.092093976  0.556418176  0.131123288  0.287233408 0 0 0 0
5474750000 -0.034745424  0.556481152  0.149101632  0.278201088 0 0 0 0
5479800000  0.020683982  0.562099776  0.162552304  0.271354208 0 0 0 0
5484850000  0.071406560  0.560608896  0.179020736  0.260293424 0 0 0 0
5489900000  0.130545752  0.546786816  0.192585136  0.248814464 0 0 0 0
5494950000  0.183426128  0.533238240  0.202721744  0.239207664 0 0 0 0
5500000000  0.231721936  0.516517888  0.219736288  0.219793056 0 0 0 0
5505050000  0.280742208  0.491699072  0.225648448  0.209743200 0 0 0 0
5510100000  0.324133120  0.464686112  0.233176400  0.196067712 0 0 0 0
5515150000  0.364158784  0.436867104  0.239982944  0.182954096 0 0 0 0
5520200000  0.404298048  0.403043168  0.244866240  0.167484304 0 0 0 0
5525250000  0.437444544  0.368137184  0.250217344  0.153979008 0 0 0 0
5530300000  0.468843968  0.322620736  0.254111408  0.138690448 0 0 0 0
5535350000  0.491615104  0.286565504  0.255999680  0.125898824 0 0 0 0
5540400000  0.515559136  0.239019168  0.257251504  0.114519168 0 0 0 0
5545450000  0.533446624  0.193229792  0.257958416  0.102415056 0 0 0 0
5550500000  0.547370432  0.148066992  0.258074528  0.091845440 0 0 0 0
5555550000  0.548271744  0.097765256  0.258669584  0.079111784 0 0 0 0
5560600000  0.557048192  0.054572276  0.258009024  0.069432272 0 0 0 0
5565650000  0.558050496  0.007546920  0.256004512  0.064966636 0 0 0 0
5570700000  0.552069376 -0.038235048  0.255148000  0.056682272 0 0 0 0
5575750000  0.538043904 -0.085380880  0.255448992  0.043880556 0 0 0 0
5580800000  0.526021888 -0.133821832  0.254324944  0.040011940 0 0 0 0
5585850000  0.510624832 -0.171405248  0.254052912  0.032009028 0 0 0 0
5590900000  0.490288832 -0.212350976  0.253950800  0.027308072 0 0 0 0
5595950000  0.461738688 -0.251939920  0.253978944  0.020853286 0 0 0 0
5601000000  0.434903936 -0.287344928  0.254333376  0.011960337 0 0 0 0
5606050000  0.399866464 -0.321028352  0.255440448  0.007395162 0 0 0 0
5611100000  0.374760032 -0.347324992  0.256250704  0.005088001 0 0 0 0
5616150000  0.335925728 -0.373545120  0.257874848 -0.002158418 0 0 0 0
5621200000  0.285307200 -0.397266688  0.259331280 -0.012263190 0 0 0 0
5626250000  0.256830640 -0.412524672  0.261230976 -0.017084220 0 0 0 0
5631300000  0.205931600 -0.430994944  0.263039920 -0.026350946 0 0 0 0
5636350000  0.163850032 -0.433080704  0.264653360 -0.035103324 0 0 0 0
5641400000  0.129394976 -0.441340512  0.267075536 -0.040686784 0 0 0 0
5646450000  0.072216896 -0.435690240  0.268399888 -0.051172728 0 0 0 0
5651500000  0.043865104 -0.439852928  0.269949024 -0.061495380 0 0 0 0
5656550000  0.013136039 -0.432793344  0.273016672 -0.066503376 0 0 0 0
5661600000 -0.050837844 -0.412528576  0.271150752 -0.086377528 0 0 0 0
5666650000 -0.074632008 -0.407088384  0.273890496 -0.091602976 0 0 0 0
5671700000 -0.116780720 -0.389654528  0.274213248 -0.104966536 0 0 0 0
5676750000 -0.128694488 -0.379666016  0.274241568 -0.113738856 0 0 0 0
5681800000 -0.174171120 -0.352494560  0.273843872 -0.129506368 0 0 0 0
5686850000 -0.203424352 -0.328189184  0.270245248 -0.145575248 0 0 0 0
5691900000 -0.234433264 -0.302109824  0.269744256 -0.156296096 0 0 0 0
5696950000 -0.266664976 -0.274175808  0.264780160 -0.174338624 0 0 0 0
5702000000 -0.281292320 -0.252894784  0.259495376 -0.191074112 0 0 0 0
5707050000 -0.303842656 -0.220292704  0.255891584 -0.203268560 0 0 0 0
5712100000 -0.320161312 -0.192698416  0.249086768 -0.219753840 0 0 0 0
5717150000 -0.333045024 -0.162061296  0.243412704 -0.231440544 0 0 0 0
5722200000 -0.355472288 -0.119557352  0.231620896 -0.251143776 0 0 0 0
5727250000 -0.368276288 -0.086948984  0.220268272 -0.267134192 0 0 0 0
5732300000 -0.378292864 -0.047210716  0.207007696 -0.283640064 0 0 0 0
5737350000 -0.381264640 -0.013402053  0.189849904 -0.299413504 0 0 0 0
5742400000 -0.380967488  0.026967998  0.182840416 -0.309796672 0 0 0 0
5747450000 -0.386442272  0.067563104  0.159162384 -0.326532736 0 0 0 0
5752500000 -0.373065536  0.105135624  0.142691920 -0.338472896 0 0 0 0
5757550000 -0.367050240  0.144706784  0.125339688 -0.349053280 0 0 0 0
5762600000 -0.356928960  0.180986352  0.098904584 -0.361231328 0 0 0 0
5767650000 -0.338548960  0.218900000  0.082197064 -0.367099264 0 0 0 0
5772700000 -0.317496576  0.259508960  0.055136660 -0.375353504 0 0 0 0
5777750000 -0.291164704  0.285650848  0.030149834 -0.379494112 0 0 0 0
5782800000 -0.267622672  0.321949984  0.005113484 -0.381803488 0 0 0 0
5787850000 -0.240882464  0.344302752 -0.019021066 -0.382320832 0 0 0 0
5792900000 -0.200282416  0.372663392 -0.043949600 -0.380752320 0 0 0 0
5797950000 -0.164713344  0.392977248 -0.070370264 -0.374889888 0 0 0 0
5803000000 -0.126979304  0.408501312 -0.094630032 -0.368151552 0 0 0 0
5808050000 -0.088410088  0.422139232 -0.123971272 -0.357512960 0 0 0 0
5813100000 -0.050547348  0.429792032 -0.140109600 -0.349229600 0 0 0 0
5818150000 -0.006397250  0.437244544 -0.160284480 -0.336918848 0 0 0 0
5823200000  0.036552092  0.436672864 -0.182604560 -0.320646752 0 0 0 0
5828250000  0.076057336  0.433365568 -0.201712496 -0.304314336 0 0 0 0
5833300000  0.114541992  0.426680288 -0.217272800 -0.287938656 0 0 0 0
5838350000  0.148813424  0.417616864 -0.230206096 -0.272016000 0 0 0 0
5843400000  0.188349168  0.403911168 -0.241777680 -0.255981808 0 0 0 0
5848450000  0.222845296  0.381974368 -0.253682224 -0.235797136 0 0 0 0
5853500000  0.254627104  0.365415744 -0.263068640 -0.216561008 0 0 0 0
5858550000  0.292075680  0.340406912 -0.267958128 -0.202414944 0 0 0 0
5863600000  0.312384256  0.312059520 -0.275408992 -0.181819184 0 0 0 0
5868650000  0.338712160  0.288425408 -0.279135072 -0.164894720 0 0 0 0
5873700000  0.364904736  0.251408272 -0.283386400 -0.146777184 0 0 0 0
5878750000  0.382154976  0.224701552 -0.285722272 -0.130556880 0 0 0 0
5883800000  0.392834560  0.187780000 -0.287602816 -0.112799888 0 0 0 0
5888850000  0.406994176  0.154991168 -0.287746272 -0.099450096 0 0 0 0
5893900000  0.417748864  0.114478368 -0.287899488 -0.085044880 0 0 0 0
5898950000  0.419107328  0.082950872 -0.286790464 -0.070423344 0 0 0 0
5904000000  0.426937536  0.048808496 -0.286964544 -0.055013604 0 0 0 0
5909050000  0.420470048  0.012098884 -0.285748704 -0.042801380 0 0 0 0
5914100000  0.413423456 -0.022185864 -0.284188512 -0.028773792 0 0 0 0
5919150000  0.414956448 -0.052583272 -0.282615040 -0.017375862 0 0 0 0
5924200000  0.405688032 -0.083953840 -0.280307456 -0.004891781 0 0 0 0
5929250000  0.396550496 -0.111033560 -0.278698400  0.009548267 0 0 0 0
5934300000  0.376333312 -0.146515216 -0.275772128  0.023315094 0 0 0 0
5939350000  0.352636448 -0.174863088 -0.273151072  0.036349836 0 0 0 0
5944400000  0.336009088 -0.201008608 -0.269673664  0.048072920 0 0 0 0
5949450000  0.315435232 -0.228090528 -0.266414016  0.059917784 0 0 0 0
5954500000  0.306110656 -0.247616528 -0.261339904  0.075917688 0 0 0 0
5959550000  0.275416768 -0.273886208 -0.256956992  0.087179624 0 0 0 0
5964600000  0.249173440 -0.291125408 -0.250048960  0.101623576 0 0 0 0
5969650000  0.235801952 -0.305380672 -0.244911392  0.111975760 0 0 0 0
5974700000  0.200403728 -0.326717472 -0.235986528  0.126804728 0 0 0 0
5979750000  0.180294192 -0.339095808 -0.228479680  0.138131120 0 0 0 0
5984800000  0.142487712 -0.357098464 -0.220021264  0.149662592 0 0 0 0
5989850000  0.111101664 -0.371294496 -0.210379264  0.161863408 0 0 0 0
5994900000  0.098538608 -0.375484512 -0.202531776  0.169435616 0 0 0 0
5999950000  0.045929232 -0.387526336 -0.189069696  0.182845760 0 0 0 0
6005000000  0.012302390 -0.393733216 -0.174513184  0.194566736 0 0 0 0
