!File created by NanoVNA
# Hz S RI R 50
4995000000  0.210059424 -0.724749952  0.000259515 -0.104966032 0 0 0 0
5000050000  0.134680208 -0.736055104 -0.000101104 -0.105761328 0 0 0 0
5005100000  0.070015080 -0.747214400 -0.000915810 -0.106797192 0 0 0 0
5010150000 -0.019173000 -0.741714176 -0.001258783 -0.108320272 0 0 0 0
5015200000 -0.089519232 -0.735799424 -0.000424544 -0.109776824 0 0 0 0
5020250000 -0.165247344 -0.717966336 -0.005702929 -0.112954552 0 0 0 0
5025300000 -0.250802576 -0.688159488 -0.006600735 -0.115124904 0 0 0 0
5030350000 -0.309423264 -0.661421440 -0.007998814 -0.117088768 0 0 0 0
5035400000 -0.379105088 -0.614929280 -0.008405054 -0.119434040 0 0 0 0
5040450000 -0.444381888 -0.554465536 -0.010355029 -0.121959648 0 0 0 0
5045500000 -0.496567328 -0.498554528 -0.013207087 -0.124164112 0 0 0 0
5050550000 -0.541994560 -0.427673504 -0.014904558 -0.126960648 0 0 0 0
5055600000 -0.573412672 -0.369093024 -0.017230088 -0.129468840 0 0 0 0
5060650000 -0.601724032 -0.294948480 -0.018633446 -0.132487640 0 0 0 0
5065700000 -0.621625792 -0.229025376 -0.020620724 -0.135650352 0 0 0 0
5070750000 -0.634237056 -0.162155920 -0.023813454 -0.139546176 0 0 0 0
5075800000 -0.640039616 -0.086504024 -0.026223914 -0.143345072 0 0 0 0
5080850000 -0.638972160 -0.015925374 -0.030483838 -0.147182032 0 0 0 0
5085900000 -0.629214656  0.054050760 -0.033649260 -0.151734800 0 0 0 0
5090950000 -0.617420416  0.116756120 -0.037940824 -0.156665168 0 0 0 0
5096000000 -0.594454016  0.182879392 -0.042495200 -0.161688976 0 0 0 0
5101050000 -0.563207360  0.252198432 -0.048902272 -0.166707792 0 0 0 0
5106100000 -0.536224832  0.302212384 -0.055715836 -0.172212032 0 0 0 0
5111150000 -0.492906272  0.361142560 -0.062933216 -0.178051952 0 0 0 0
5116200000 -0.449018592  0.413491712 -0.072551000 -0.182997344 0 0 0 0
5121250000 -0.403271008  0.450366784 -0.082270664 -0.187928400 0 0 0 0
5126300000 -0.344617536  0.495334176 -0.094084136 -0.192526176 0 0 0 0
5131350000 -0.296424224  0.524320608 -0.106938112 -0.196490256 0 0 0 0
5136400000 -0.235902608  0.552554880 -0.119147496 -0.200318896 0 0 0 0
5141450000 -0.182077712  0.573763648 -0.134718064 -0.202305904 0 0 0 0
5146500000 -0.124367744  0.582124800 -0.151699552 -0.202014448 0 0 0 0
5151550000 -0.063098172  0.594635136 -0.167607712 -0.201679568 0 0 0 0
5156600000 -0.007450196  0.600654336 -0.191263984 -0.193462320 0 0 0 0
5161650000  0.049891544  0.598077760 -0.204619952 -0.193004832 0 0 0 0
5166700000  0.113366952  0.589925696 -0.228571712 -0.177731168 0 0 0 0
5171750000  0.162045024  0.580120832 -0.244634976 -0.168862224 0 0 0 0
5176800000  0.218589344  0.559705792 -0.262038912 -0.152735376 0 0 0 0
5181850000  0.268053152  0.541143744 -0.278347680 -0.134972160 0 0 0 0
5186900000  0.316514080  0.517952512 -0.291600608 -0.115338616 0 0 0 0
5191950000  0.360495264  0.490917728 -0.301334112 -0.097102216 0 0 0 0
5197000000  0.407095424  0.458652736 -0.309561664 -0.073112960 0 0 0 0
5202050000  0.447064480  0.422201760 -0.315001632 -0.050521756 0 0 0 0
5207100000  0.485058816  0.388154624 -0.317496864 -0.024154084 0 0 0 0
5212150000  0.520695136  0.346642656 -0.316463968 -0.005355001 0 0 0 0
5217200000  0.552168704  0.304270976 -0.313711616  0.015852640 0 0 0 0
5222250000  0.578897472  0.257720832 -0.308598624  0.037505232 0 0 0 0
5227300000  0.601924352  0.210014496 -0.302224448  0.054302180 0 0 0 0
5232350000  0.622617984  0.160858736 -0.293115168  0.074880888 0 0 0 0
5237400000  0.638263296  0.107474696 -0.284884768  0.088427424 0 0 0 0
5242450000  0.647890048  0.054103508 -0.275100704  0.099911792 0 0 0 0
5247500000  0.656799616  0.002221812 -0.264423488  0.113675472 0 0 0 0
5252550000  0.653750208 -0.059596440 -0.254195040  0.125716272 0 0 0 0
5257600000  0.653518848 -0.109810704 -0.243947392  0.133910912 0 0 0 0
5262650000  0.644082560 -0.164762272 -0.235565952  0.139300528 0 0 0 0
5267700000  0.632008960 -0.220086880 -0.225838928  0.147505024 0 0 0 0
5272750000  0.613943616 -0.276006592 -0.216528064  0.153101856 0 0 0 0
5277800000  0.587021568 -0.329435008 -0.208373536  0.159005856 0 0 0 0
5282850000  0.558852352 -0.380142272 -0.199717584  0.166250832 0 0 0 0
5287900000  0.526372544 -0.428132384 -0.195109872  0.167393536 0 0 0 0
5292950000  0.484686336 -0.473862048 -0.186718416  0.173073216 0 0 0 0
5298000000  0.441080352 -0.520114304 -0.180791776  0.177778192 0 0 0 0
5303050000  0.386183008 -0.559790080 -0.175047632  0.181944400 0 0 0 0
5308100000  0.338039360 -0.593351936 -0.168609776  0.186988288 0 0 0 0
5313150000  0.279081216 -0.624584448 -0.164794000  0.190924112 0 0 0 0
5318200000  0.213587360 -0.646878528 -0.159074320  0.195153232 0 0 0 0
5323250000  0.156927472 -0.671303232 -0.155676880  0.199108368 0 0 0 0
5328300000  0.067575840 -0.673034496 -0.147864016  0.205004208 0 0 0 0
5333350000  0.007747831 -0.676690880 -0.142459520  0.209867376 0 0 0 0
5338400000 -0.063551324 -0.669934400 -0.137961120  0.214029680 0 0 0 0
5343450000 -0.135001488 -0.649614784 -0.131009248  0.219437120 0 0 0 0
5348500000 -0.219523056 -0.619577216 -0.123974592  0.224043632 0 0 0 0
5353550000 -0.262603456 -0.603167168 -0.121164264  0.226776096 0 0 0 0
5358600000 -0.326459616 -0.545509312 -0.108645240  0.233169952 0 0 0 0
5363650000 -0.381228448 -0.505883264 -0.108310648  0.235113984 0 0 0 0
5368700000 -0.427863488 -0.448901632 -0.101020416  0.239690880 0 0 0 0
5373750000 -0.467436128 -0.401604192 -0.092577656  0.244676976 0 0 0 0
5378800000 -0.502366240 -0.340576288 -0.085409872  0.248980896 0 0 0 0
5383850000 -0.528687360 -0.286495392 -0.078372280  0.253263056 0 0 0 0
5388900000 -0.554058048 -0.215595280 -0.072148776  0.257452368 0 0 0 0
5393950000 -0.566364416 -0.166198336 -0.065168500  0.262720496 0 0 0 0
5399000000 -0.578047168 -0.091539512 -0.055276420  0.267541104 0 0 0 0
5404050000 -0.577488128 -0.021972972 -0.045072408  0.272299424 0 0 0 0
5409100000 -0.572629184  0.038348736 -0.036463984  0.277451296 0 0 0 0
5414150000 -0.562379584  0.110969088 -0.022801766  0.282049888 0 0 0 0
5419200000 -0.545412544  0.166332832 -0.016926962  0.286893504 0 0 0 0
5424250000 -0.517551648  0.225953648 -0.002840355  0.290484928 0 0 0 0
5429300000 -0.484634496  0.286598336  0.011161835  0.293338784 0 0 0 0
5434350000 -0.455317600  0.331996352  0.024818840  0.296111744 0 0 0 0
5439400000 -0.408628000  0.379302016  0.036966192  0.298182144 0 0 0 0
5444450000 -0.359258432  0.426676352  0.051084928  0.299555456 0 0 0 0
5449500000 -0.315219072  0.456640064  0.070873800  0.299030592 0 0 0 0
5454550000 -0.254490016  0.495423360  0.087219280  0.297384672 0 0 0 0
5459600000 -0.220606624  0.519913728  0.100682288  0.295254112 0 0 0 0
5464650000 -0.149037504  0.542803200  0.119031096  0.290431904 0 0 0 0
5469700000 -0.099026792  0.551524992  0.134522960  0.284934656 0 0 0 0
5474750000 -0.037933808  0.556224320  0.152175088  0.276322048 0 0 0 0
5479800000  0.018648520  0.562937664  0.169534192  0.266433808 0 0 0 0
5484850000  0.068653096  0.559829440  0.184025744  0.255798080 0 0 0 0
5489900000  0.127878648  0.546324672  0.195326816  0.246377392 0 0 0 0
5494950000  0.181342064  0.533232448  0.208296128  0.233919104 0 0 0 0
5500000000  0.226175152  0.514107360  0.217996784  0.221463568 0 0 0 0
5505050000  0.278488992  0.490778016  0.230563152  0.204656400 0 0 0 0
5510100000  0.321955744  0.464487168  0.236545328  0.192249088 0 0 0 0
5515150000  0.362267424  0.435667872  0.245252016  0.176392160 0 0 0 0
5520200000  0.401656768  0.402433984  0.248459056  0.162949792 0 0 0 0
5525250000  0.435438784  0.367393696  0.253185712  0.149404304 0 0 0 0
5530300000  0.467686912  0.322509056  0.256849792  0.135678736 0 0 0 0
5535350000  0.490663008  0.285505984  0.258883152  0.121751040 0 0 0 0
5540400000  0.513039584  0.236912304  0.260402736  0.108917928 0 0 0 0
5545450000  0.532594208  0.192601104  0.260914144  0.097098656 0 0 0 0
5550500000  0.548131584  0.148338192  0.260651440  0.086510560 0 0 0 0
5555550000  0.550508032  0.100056376  0.260053872  0.075225992 0 0 0 0
5560600000  0.559241024  0.055899048  0.259375904  0.064929240 0 0 0 0
5565650000  0.553779456  0.003459805  0.258641456  0.056826492 0 0 0 0
5570700000  0.546861056 -0.043798656  0.257711792  0.048293016 0 0 0 0
5575750000  0.539798656 -0.086750136  0.257036544  0.037654596 0 0 0 0
5580800000  0.530584224 -0.132323232  0.255674816  0.033439022 0 0 0 0
5585850000  0.515097440 -0.171618480  0.255320784  0.025282756 0 0 0 0
5590900000  0.491119360 -0.213114176  0.254911696  0.021065302 0 0 0 0
5595950000  0.466050688 -0.253180000  0.254825776  0.013837366 0 0 0 0
5601000000  0.442857088 -0.288797824  0.255084192  0.006071332 0 0 0 0
5606050000  0.400334912 -0.321962240  0.255644000  0.001560449 0 0 0 0
5611100000  0.378997888 -0.350355808  0.256707760 -0.003352944 0 0 0 0
5616150000  0.336454496 -0.377584320  0.257991376 -0.009667557 0 0 0 0
5621200000  0.296763584 -0.401232992  0.259421232 -0.016964134 0 0 0 0
5626250000  0.255868944 -0.416541248  0.260667920 -0.027571976 0 0 0 0
5631300000  0.214777440 -0.435141664  0.262513616 -0.033352640 0 0 0 0
5636350000  0.178438496 -0.440011008  0.264177680 -0.041226248 0 0 0 0
5641400000  0.137076400 -0.448807296  0.266157392 -0.048080508 0 0 0 0
5646450000  0.074056512 -0.446462176  0.267031696 -0.060467632 0 0 0 0
5651500000  0.051249852 -0.448922112  0.267533728 -0.069637488 0 0 0 0
5656550000  0.010408140 -0.441570368  0.269931168 -0.078452584 0 0 0 0
5661600000 -0.031534016 -0.431359424  0.270701184 -0.090422992 0 0 0 0
5666650000 -0.070393648 -0.420425536  0.270528128 -0.101953776 0 0 0 0
5671700000 -0.118826376 -0.400841408  0.269909152 -0.116201032 0 0 0 0
5676750000 -0.134833344 -0.390999840  0.269512992 -0.126312376 0 0 0 0
5681800000 -0.173724864 -0.366024640  0.269191264 -0.138807760 0 0 0 0
5686850000 -0.202036608 -0.343347968  0.266821472 -0.152527744 0 0 0 0
5691900000 -0.231851872 -0.319850976  0.264060048 -0.166210736 0 0 0 0
5696950000 -0.264628592 -0.289635968  0.257951264 -0.183266448 0 0 0 0
5702000000 -0.276858176 -0.270043264  0.252588416 -0.199502816 0 0 0 0
5707050000 -0.305789504 -0.235057264  0.248556112 -0.211874704 0 0 0 0
5712100000 -0.327356928 -0.201568288  0.239723840 -0.228813648 0 0 0 0
5717150000 -0.346429376 -0.168547488  0.231805808 -0.243599440 0 0 0 0
5722200000 -0.360464992 -0.133193600  0.222500784 -0.259226288 0 0 0 0
5727250000 -0.379349120 -0.093861000  0.206441168 -0.277421568 0 0 0 0
5732300000 -0.378993056 -0.062482208  0.201438480 -0.287272384 0 0 0 0
5737350000 -0.389704288 -0.022192484  0.180595408 -0.304895744 0 0 0 0
5742400000 -0.387745728  0.018948864  0.170264208 -0.316448512 0 0 0 0
5747450000 -0.393023168  0.062025784  0.145660496 -0.332898464 0 0 0 0
5752500000 -0.381605760  0.102793664  0.126241104 -0.344743136 0 0 0 0
5757550000 -0.376696512  0.145369776  0.109831240 -0.354441760 0 0 0 0
5762600000 -0.361795360  0.178464544  0.083563424 -0.365405632 0 0 0 0
5767650000 -0.345539552  0.221365952  0.065463996 -0.371045152 0 0 0 0
5772700000 -0.321793088  0.259480864  0.038387996 -0.376775616 0 0 0 0
5777750000 -0.296544608  0.289667616  0.010176397 -0.380399168 0 0 0 0
5782800000 -0.267595824  0.320146432 -0.008411151 -0.381511840 0 0 0 0
5787850000 -0.246032784  0.353058112 -0.047262008 -0.379065920 0 0 0 0
5792900000 -0.197836992  0.370941216 -0.056226628 -0.378110400 0 0 0 0
5797950000 -0.165581744  0.395748256 -0.086323080 -0.371210080 0 0 0 0
5803000000 -0.126677752  0.411019616 -0.116827952 -0.361101088 0 0 0 0
5808050000 -0.084788136  0.421613888 -0.139214832 -0.351606336 0 0 0 0
5813100000 -0.047077756  0.430437024 -0.158396112 -0.339852800 0 0 0 0
5818150000 -0.002076587  0.435650272 -0.176312960 -0.327366432 0 0 0 0
5823200000  0.040184264  0.435522080 -0.198977232 -0.309512064 0 0 0 0
5828250000  0.080159792  0.431632000 -0.218394928 -0.291022080 0 0 0 0
5833300000  0.120259656  0.424397568 -0.229097040 -0.276713280 0 0 0 0
5838350000  0.153968784  0.414637984 -0.243088608 -0.258294128 0 0 0 0
5843400000  0.191637648  0.398852928 -0.256288256 -0.237871712 0 0 0 0
5848450000  0.229059248  0.377762784 -0.265962304 -0.218841456 0 0 0 0
5853500000  0.259306496  0.360103424 -0.273435072 -0.200550176 0 0 0 0
5858550000  0.291964960  0.332812096 -0.278229728 -0.183643280 0 0 0 0
5863600000  0.317363008  0.307652800 -0.283643328 -0.164193808 0 0 0 0
5868650000  0.339910016  0.282099648 -0.286450848 -0.146449296 0 0 0 0
5873700000  0.363863584  0.241636704 -0.291092768 -0.123986184 0 0 0 0
5878750000  0.382189888  0.217816176 -0.289812000 -0.112717792 0 0 0 0
5883800000  0.393183712  0.180564368 -0.291193952 -0.093646304 0 0 0 0
5888850000  0.403182944  0.146372144 -0.291179808 -0.077311176 0 0 0 0
5893900000  0.418117184  0.112839952 -0.288579808 -0.065186628 0 0 0 0
5898950000  0.416324416  0.077930624 -0.287441568 -0.049153904 0 0 0 0
5904000000  0.423090528  0.048547016 -0.284771712 -0.035805064 0 0 0 0
5909050000  0.417846688  0.010234483 -0.283267584 -0.023454934 0 0 0 0
5914100000  0.416027520 -0.018341666 -0.280336992 -0.008623176 0 0 0 0
5919150000  0.417367232 -0.051191228 -0.278846848  0.001375308 0 0 0 0
5924200000  0.394624032 -0.090175728 -0.275544832  0.017948104 0 0 0 0
5929250000  0.389690176 -0.112948736 -0.271479200  0.031233986 0 0 0 0
5934300000  0.373514688 -0.146763824 -0.267905120  0.043509096 0 0 0 0
5939350000  0.355962560 -0.173906096 -0.264536144  0.054964656 0 0 0 0
5944400000  0.350442528 -0.192630448 -0.260003984  0.065082088 0 0 0 0
5949450000  0.326894624 -0.223669488 -0.255553456  0.076877144 0 0 0 0
5954500000  0.304836928 -0.249188080 -0.247907584  0.095198320 0 0 0 0
5959550000  0.285741056 -0.268907552 -0.243051280  0.104152472 0 0 0 0
5964600000  0.257219616 -0.290301824 -0.235664240  0.116714928 0 0 0 0
5969650000  0.240728768 -0.308248480 -0.229763952  0.126206544 0 0 0 0
5974700000  0.213442864 -0.327409600 -0.220525616  0.139063344 0 0 0 0
5979750000  0.189766816 -0.344095424 -0.212756752  0.149282672 0 0 0 0
5984800000  0.156917424 -0.360437024 -0.203338848  0.160004784 0 0 0 0
5989850000  0.134227152 -0.373732288 -0.195060928  0.168101328 0 0 0 0
5994900000  0.097562432 -0.384032736 -0.182775024  0.179994480 0 0 0 0
5999950000  0.043638540 -0.397048704 -0.168195568  0.191636672 0 0 0 0
6005000000  0.031951796 -0.399311424 -0.158510112  0.198451760 0 0 0 0
