!File created by NanoVNA
# Hz S RI R 50
4995000000  0.219970352 -0.724124736  0.002315972 -0.104378616 0 0 0 0
5000050000  0.133725272 -0.735854720  0.001222191 -0.105169144 0 0 0 0
5005100000  0.061349712 -0.744294912 -0.000543249 -0.106202944 0 0 0 0
5010150000 -0.011020504 -0.745905280  0.001153258 -0.107406120 0 0 0 0
5015200000 -0.085911504 -0.741851776  0.000735194 -0.109144192 0 0 0 0
5020250000 -0.163908624 -0.722209536 -0.003401541 -0.112453480 0 0 0 0
5025300000 -0.246466160 -0.692029120 -0.004498872 -0.114188832 0 0 0 0
5030350000 -0.310759968 -0.658874176 -0.005869166 -0.116063928 0 0 0 0
5035400000 -0.387060800 -0.605231360 -0.007314658 -0.118573096 0 0 0 0
5040450000 -0.446412352 -0.550609216 -0.009688140 -0.120725936 0 0 0 0
5045500000 -0.499227456 -0.495456928 -0.011093387 -0.123272728 0 0 0 0
5050550000 -0.536912256 -0.436488704 -0.012366262 -0.125702832 0 0 0 0
5055600000 -0.576219712 -0.369615104 -0.014806075 -0.128475952 0 0 0 0
5060650000 -0.600991488 -0.295379744 -0.016264730 -0.131209152 0 0 0 0
5065700000 -0.621071040 -0.226568000 -0.019119702 -0.134355920 0 0 0 0
5070750000 -0.634954432 -0.158574320 -0.022436012 -0.137815072 0 0 0 0
5075800000 -0.640972672 -0.084059264 -0.023051042 -0.142111040 0 0 0 0
5080850000 -0.640539328 -0.018258534 -0.026937222 -0.145886608 0 0 0 0
5085900000 -0.629922496  0.055032520 -0.031078468 -0.150257744 0 0 0 0
5090950000 -0.615978752  0.124757504 -0.034387700 -0.155290448 0 0 0 0
5096000000 -0.595346048  0.184250432 -0.039380192 -0.160133984 0 0 0 0
5101050000 -0.561253248  0.257201376 -0.045021552 -0.165094096 0 0 0 0
5106100000 -0.536279904  0.304862272 -0.050021916 -0.171173616 0 0 0 0
5111150000 -0.495984672  0.360081472 -0.057952564 -0.177056496 0 0 0 0
5116200000 -0.448605056  0.415078752 -0.066373856 -0.181946976 0 0 0 0
5121250000 -0.400468320  0.453950688 -0.076217000 -0.187188864 0 0 0 0
5126300000 -0.348564352  0.493271840 -0.086084400 -0.192688528 0 0 0 0
5131350000 -0.296938016  0.525751712 -0.099924032 -0.196111424 0 0 0 0
5136400000 -0.237235568  0.552740032 -0.110448856 -0.201033952 0 0 0 0
5141450000 -0.179723616  0.575751552 -0.128236144 -0.202009328 0 0 0 0
5146500000 -0.122249056  0.585662464 -0.144609072 -0.201748112 0 0 0 0
5151550000 -0.063664304  0.596074880 -0.158595424 -0.203688544 0 0 0 0
5156600000 -0.007564107  0.601228992 -0.180323696 -0.197371136 0 0 0 0
5161650000  0.053057576  0.600492864 -0.196918544 -0.194219776 0 0 0 0
5166700000  0.113368480  0.590398912 -0.217368304 -0.184364208 0 0 0 0
5171750000  0.168155440  0.581471104 -0.236323216 -0.172098224 0 0 0 0
5176800000  0.218825488  0.559232960 -0.252192144 -0.160088864 0 0 0 0
5181850000  0.270562400  0.540787200 -0.268291168 -0.143954000 0 0 0 0
5186900000  0.320209600  0.517225280 -0.282495296 -0.125115944 0 0 0 0
5191950000  0.364872256  0.490327872 -0.293622528 -0.104632648 0 0 0 0
5197000000  0.410062944  0.457311136 -0.301929120 -0.084454304 0 0 0 0
5202050000  0.449630816  0.420068672 -0.307787680 -0.061247480 0 0 0 0
5207100000  0.486882304  0.386169664 -0.311763584 -0.037665192 0 0 0 0
5212150000  0.522773792  0.343425280 -0.312131136 -0.017134822 0 0 0 0
5217200000  0.553090304  0.301501344 -0.310435456  0.001968376 0 0 0 0
5222250000  0.579402880  0.255739328 -0.306916832  0.021907860 0 0 0 0
5227300000  0.602331200  0.206528944 -0.300979712  0.041025044 0 0 0 0
5232350000  0.622500352  0.159009776 -0.293984160  0.058504308 0 0 0 0
5237400000  0.636908992  0.103215704 -0.286236640  0.073949856 0 0 0 0
5242450000  0.646427776  0.050547316 -0.277015648  0.088353912 0 0 0 0
5247500000  0.653769664 -0.001879628 -0.267450416  0.100824208 0 0 0 0
5252550000  0.653340992 -0.060077732 -0.259052928  0.111925160 0 0 0 0
5257600000  0.650595776 -0.111369048 -0.249877168  0.119671512 0 0 0 0
5262650000  0.642276992 -0.164914752 -0.240780768  0.128378048 0 0 0 0
5267700000  0.628598784 -0.220392080 -0.232166544  0.135560544 0 0 0 0
5272750000  0.607539520 -0.277320800 -0.222556224  0.144062752 0 0 0 0
5277800000  0.584833920 -0.327637024 -0.216846000  0.146818144 0 0 0 0
5282850000  0.557512512 -0.378982272 -0.209046784  0.154342432 0 0 0 0
5287900000  0.521653728 -0.426242848 -0.202381328  0.159038560 0 0 0 0
5292950000  0.481783168 -0.471642272 -0.196263008  0.163312336 0 0 0 0
5298000000  0.439791808 -0.518085792 -0.189848432  0.169396112 0 0 0 0
5303050000  0.390968416 -0.556243904 -0.185203184  0.173558288 0 0 0 0
5308100000  0.334774272 -0.588504640 -0.179348848  0.178650128 0 0 0 0
5313150000  0.279879008 -0.620147136 -0.175414432  0.183410160 0 0 0 0
5318200000  0.212395488 -0.643154880 -0.169857904  0.188380224 0 0 0 0
5323250000  0.155108800 -0.665073664 -0.164945728  0.193468864 0 0 0 0
5328300000  0.086305392 -0.674122688 -0.160460448  0.197565760 0 0 0 0
5333350000  0.014356406 -0.675171392 -0.155126912  0.203601696 0 0 0 0
5338400000 -0.040432672 -0.677097152 -0.154738752  0.205378496 0 0 0 0
5343450000 -0.152075168 -0.635720128 -0.139178448  0.217437808 0 0 0 0
5348500000 -0.214463712 -0.608143040 -0.135066864  0.220040384 0 0 0 0
5353550000 -0.252055504 -0.605729856 -0.132976864  0.223337792 0 0 0 0
5358600000 -0.314387328 -0.566975552 -0.123894824  0.229285424 0 0 0 0
5363650000 -0.386995424 -0.492964832 -0.118377496  0.233657728 0 0 0 0
5368700000 -0.426833184 -0.448219904 -0.110058232  0.239077872 0 0 0 0
5373750000 -0.462333248 -0.402018304 -0.105287896  0.242567056 0 0 0 0
5378800000 -0.501383072 -0.341236032 -0.098902128  0.247779616 0 0 0 0
5383850000 -0.525225472 -0.287303648 -0.090900056  0.252466384 0 0 0 0
5388900000 -0.551472192 -0.222956608 -0.086719680  0.256527904 0 0 0 0
5393950000 -0.564677760 -0.162705072 -0.077984328  0.262320064 0 0 0 0
5399000000 -0.577145600 -0.090279576 -0.066803472  0.268271152 0 0 0 0
5404050000 -0.579630976 -0.019233302 -0.056940968  0.274077824 0 0 0 0
5409100000 -0.573267904  0.032564096 -0.048034156  0.279030272 0 0 0 0
5414150000 -0.563498624  0.099269832 -0.040500432  0.283872704 0 0 0 0
5419200000 -0.545511040  0.166830624 -0.031108156  0.288111904 0 0 0 0
5424250000 -0.519654464  0.222583312 -0.016024549  0.293645696 0 0 0 0
5429300000 -0.485007872  0.284797728 -0.001858911  0.296937152 0 0 0 0
5434350000 -0.459076672  0.332350560  0.011739307  0.300643776 0 0 0 0
5439400000 -0.410372768  0.381451232  0.024724056  0.302964672 0 0 0 0
5444450000 -0.360835936  0.426955008  0.038735716  0.304541568 0 0 0 0
5449500000 -0.317885344  0.458378432  0.058642508  0.304964928 0 0 0 0
5454550000 -0.260418560  0.488222816  0.069983208  0.305031392 0 0 0 0
5459600000 -0.222366320  0.521931584  0.088456360  0.301851424 0 0 0 0
5464650000 -0.153415376  0.540472000  0.106104632  0.298217856 0 0 0 0
5469700000 -0.097748952  0.559561344  0.125464024  0.292571488 0 0 0 0
5474750000 -0.039736848  0.558992960  0.140799568  0.285568480 0 0 0 0
5479800000  0.014808582  0.563563136  0.155179280  0.278370752 0 0 0 0
5484850000  0.067496304  0.563156928  0.174133536  0.266166144 0 0 0 0
5489900000  0.125755000  0.548742848  0.185051472  0.257700976 0 0 0 0
5494950000  0.180838368  0.536575328  0.199121056  0.245243536 0 0 0 0
5500000000  0.226527008  0.517913696  0.211193936  0.231071552 0 0 0 0
5505050000  0.278185952  0.493667104  0.221239760  0.217717888 0 0 0 0
5510100000  0.322510112  0.467924192  0.230061008  0.202921440 0 0 0 0
5515150000  0.363824064  0.438706752  0.237333872  0.189409600 0 0 0 0
5520200000  0.404040192  0.405957472  0.242405168  0.174957760 0 0 0 0
5525250000  0.437607200  0.369988896  0.247439216  0.162551264 0 0 0 0
5530300000  0.469777408  0.324576128  0.251306144  0.148315072 0 0 0 0
5535350000  0.493940992  0.288676576  0.253353808  0.135345616 0 0 0 0
5540400000  0.517810176  0.240132000  0.254476464  0.124355120 0 0 0 0
5545450000  0.534653120  0.193600720  0.257257552  0.108600744 0 0 0 0
5550500000  0.550757440  0.148805104  0.256598032  0.099447480 0 0 0 0
5555550000  0.558371264  0.104094280  0.254911248  0.093080160 0 0 0 0
5560600000  0.558879872  0.052227692  0.256746208  0.077165160 0 0 0 0
5565650000  0.560626688  0.004543738  0.255409248  0.072507392 0 0 0 0
5570700000  0.553073792 -0.043226336  0.255249168  0.061050816 0 0 0 0
5575750000  0.545947328 -0.087461200  0.254661408  0.054121360 0 0 0 0
5580800000  0.531146112 -0.135706112  0.253675168  0.048385956 0 0 0 0
5585850000  0.512589696 -0.176604784  0.253842384  0.039346520 0 0 0 0
5590900000  0.492024384 -0.217922864  0.253984992  0.034338888 0 0 0 0
5595950000  0.469187296 -0.256676640  0.253711936  0.028996356 0 0 0 0
5601000000  0.442531840 -0.293051232  0.254791056  0.021699578 0 0 0 0
5606050000  0.407468896 -0.325875264  0.255603552  0.017264220 0 0 0 0
5611100000  0.377457280 -0.355213504  0.256564880  0.011088317 0 0 0 0
5616150000  0.338197952 -0.380516544  0.258493984  0.007036105 0 0 0 0
5621200000  0.283474560 -0.405060128  0.260129424 -0.003294713 0 0 0 0
5626250000  0.253316768 -0.421500192  0.262272656 -0.009544029 0 0 0 0
5631300000  0.207892576 -0.437708800  0.264377472 -0.016609993 0 0 0 0
5636350000  0.162051024 -0.441130912  0.266464032 -0.024101072 0 0 0 0
5641400000  0.124534672 -0.450507520  0.269024768 -0.031675316 0 0 0 0
5646450000  0.070066448 -0.446704704  0.271474464 -0.039986512 0 0 0 0
5651500000  0.043086544 -0.450183744  0.273089856 -0.051428416 0 0 0 0
5656550000 -0.000831379 -0.438539456  0.275076544 -0.059764056 0 0 0 0
5661600000 -0.039390708 -0.425102720  0.276594016 -0.070854784 0 0 0 0
5666650000 -0.076852784 -0.415161664  0.278035232 -0.081820328 0 0 0 0
5671700000 -0.106910016 -0.399593280  0.278960160 -0.091968016 0 0 0 0
5676750000 -0.147206880 -0.379486464  0.278764512 -0.105969528 0 0 0 0
5681800000 -0.177240912 -0.358197952  0.279376320 -0.117704448 0 0 0 0
5686850000 -0.204283376 -0.335413344  0.278247424 -0.131805224 0 0 0 0
5691900000 -0.234267488 -0.309510752  0.276892064 -0.145455648 0 0 0 0
5696950000 -0.267163280 -0.278664704  0.272564064 -0.162638816 0 0 0 0
5702000000 -0.278358624 -0.259318288  0.269248704 -0.178025968 0 0 0 0
5707050000 -0.303514656 -0.226184256  0.264750832 -0.193067792 0 0 0 0
5712100000 -0.320317920 -0.194189184  0.258731904 -0.208383792 0 0 0 0
5717150000 -0.334568864 -0.166806752  0.254683136 -0.220203184 0 0 0 0
5722200000 -0.353944288 -0.125092088  0.243951680 -0.239685952 0 0 0 0
5727250000 -0.363990720 -0.093084680  0.232589840 -0.256590992 0 0 0 0
5732300000 -0.384398624 -0.044468888  0.220813728 -0.273302176 0 0 0 0
5737350000 -0.377094784 -0.021245294  0.208806112 -0.287206432 0 0 0 0
5742400000 -0.379752768  0.021083382  0.200170416 -0.299713760 0 0 0 0
5747450000 -0.382329184  0.058406864  0.179696928 -0.316837472 0 0 0 0
5752500000 -0.372490464  0.099399280  0.162311536 -0.331115424 0 0 0 0
5757550000 -0.365737440  0.135016688  0.145964768 -0.342763872 0 0 0 0
5762600000 -0.355173216  0.170989904  0.121826976 -0.355201536 0 0 0 0
5767650000 -0.343620672  0.216588864  0.102682384 -0.363934336 0 0 0 0
5772700000 -0.318533472  0.250600096  0.076426536 -0.372530336 0 0 0 0
5777750000 -0.294535968  0.278922592  0.053550404 -0.379040544 0 0 0 0
5782800000 -0.270552832  0.314135776  0.028982954 -0.382931072 0 0 0 0
5787850000 -0.245652176  0.338906368  0.000064180 -0.385259104 0 0 0 0
5792900000 -0.201746048  0.362144160 -0.014813019 -0.385541024 0 0 0 0
5797950000 -0.169711152  0.385981248 -0.043814604 -0.381728160 0 0 0 0
5803000000 -0.133618016  0.403802016 -0.073759720 -0.375656256 0 0 0 0
5808050000 -0.094220264  0.416381760 -0.097372192 -0.368810656 0 0 0 0
5813100000 -0.055836092  0.425352384 -0.116461528 -0.361013856 0 0 0 0
5818150000 -0.011814419  0.433465152 -0.134677872 -0.350891040 0 0 0 0
5823200000  0.029552356  0.434304032 -0.160051696 -0.337224928 0 0 0 0
5828250000  0.070109272  0.431831552 -0.179717776 -0.322734400 0 0 0 0
5833300000  0.109273792  0.427732320 -0.196599232 -0.307447712 0 0 0 0
5838350000  0.143382368  0.418254912 -0.214159728 -0.289961472 0 0 0 0
5843400000  0.183151792  0.405124960 -0.226415904 -0.274344704 0 0 0 0
5848450000  0.220480992  0.385927936 -0.237805840 -0.257372176 0 0 0 0
5853500000  0.252526992  0.369032160 -0.250125616 -0.238713504 0 0 0 0
5858550000  0.287130432  0.343350688 -0.256347152 -0.224057904 0 0 0 0
5863600000  0.315116640  0.321031840 -0.263190096 -0.206912304 0 0 0 0
5868650000  0.336990912  0.289612224 -0.271881440 -0.186479056 0 0 0 0
5873700000  0.366390336  0.255048304 -0.276176096 -0.169244400 0 0 0 0
5878750000  0.388024288  0.233830720 -0.276981280 -0.157710784 0 0 0 0
5883800000  0.398846080  0.192688704 -0.282655168 -0.136841024 0 0 0 0
5888850000  0.413356096  0.160451952 -0.283477952 -0.123553856 0 0 0 0
5893900000  0.428990016  0.121477312 -0.284907360 -0.110356096 0 0 0 0
5898950000  0.429831680  0.085496320 -0.286490528 -0.094222208 0 0 0 0
5904000000  0.437728512  0.054541300 -0.286102624 -0.079929112 0 0 0 0
5909050000  0.430058240  0.013531907 -0.287010944 -0.065947332 0 0 0 0
5914100000  0.420769632 -0.026456866 -0.287079008 -0.051596080 0 0 0 0
5919150000  0.436030528 -0.046833724 -0.285356448 -0.047068628 0 0 0 0
5924200000  0.405744224 -0.094186440 -0.285924768 -0.025713458 0 0 0 0
5929250000  0.397961248 -0.119973104 -0.285005888 -0.012755636 0 0 0 0
5934300000  0.385942048 -0.154916336 -0.283823712  0.000952177 0 0 0 0
5939350000  0.361764416 -0.183247584 -0.282188448  0.014740206 0 0 0 0
5944400000  0.350718816 -0.208511008 -0.280724832  0.024932600 0 0 0 0
5949450000  0.326263744 -0.235591360 -0.278039072  0.038946860 0 0 0 0
5954500000  0.318337888 -0.253901808 -0.274550560  0.052153124 0 0 0 0
5959550000  0.281527808 -0.282969344 -0.270893920  0.067463576 0 0 0 0
5964600000  0.248484928 -0.299513056 -0.265474560  0.082538192 0 0 0 0
5969650000  0.234227248 -0.317386720 -0.261253776  0.094371048 0 0 0 0
5974700000  0.208563792 -0.332361984 -0.254322384  0.107984328 0 0 0 0
5979750000  0.177773424 -0.345735872 -0.247317520  0.121944672 0 0 0 0
5984800000  0.134842656 -0.365610912 -0.238420192  0.137060944 0 0 0 0
5989850000  0.117852488 -0.374620672 -0.229900400  0.148999088 0 0 0 0
5994900000  0.099265016 -0.380769504 -0.222258560  0.158613696 0 0 0 0
5999950000  0.040598792 -0.390647200 -0.209653152  0.172879600 0 0 0 0
6005000000  0.019417124 -0.394288512 -0.197323008  0.184084272 0 0 0 0
