!File created by NanoVNA
# Hz S RI R 50
4995000000  0.211124896 -0.720174016  0.002074692 -0.103552816 0 0 0 0
5000050000  0.133900016 -0.734769344  0.001654188 -0.104596000 0 0 0 0
5005100000  0.069773216 -0.744324480  0.000594994 -0.105529688 0 0 0 0
5010150000 -0.011938512 -0.743023424  0.001048746 -0.106831336 0 0 0 0
5015200000 -0.096768840 -0.731247296  0.000113379 -0.108483376 0 0 0 0
5020250000 -0.161656624 -0.717849728 -0.003973065 -0.111459656 0 0 0 0
5025300000 -0.246017600 -0.688122880 -0.004391522 -0.113352792 0 0 0 0
5030350000 -0.307451040 -0.655910144 -0.006525378 -0.115219184 0 0 0 0
5035400000 -0.380272032 -0.606535872 -0.006614243 -0.117833528 0 0 0 0
5040450000 -0.440868416 -0.548957504 -0.008919542 -0.119879032 0 0 0 0
5045500000 -0.488811776 -0.498834624 -0.010939168 -0.122240896 0 0 0 0
5050550000 -0.538188544 -0.427074144 -0.012816597 -0.124823768 0 0 0 0
5055600000 -0.569706688 -0.367030752 -0.014308561 -0.127424792 0 0 0 0
5060650000 -0.595140096 -0.293843008 -0.016351969 -0.130214216 0 0 0 0
5065700000 -0.616567552 -0.225664784 -0.017202450 -0.133544144 0 0 0 0
5070750000 -0.627523840 -0.171457504 -0.019872702 -0.137336464 0 0 0 0
5075800000 -0.635016640 -0.080296600 -0.023721322 -0.140835488 0 0 0 0
5080850000 -0.633553856 -0.021667392 -0.026431606 -0.144826272 0 0 0 0
5085900000 -0.620697408  0.068032304 -0.030791330 -0.149328400 0 0 0 0
5090950000 -0.611139392  0.124337552 -0.033686468 -0.154071408 0 0 0 0
5096000000 -0.587450816  0.187407584 -0.038728152 -0.158841584 0 0 0 0
5101050000 -0.556117440  0.254630656 -0.043473840 -0.164069248 0 0 0 0
5106100000 -0.530146784  0.301107808 -0.048985956 -0.169787520 0 0 0 0
5111150000 -0.488293056  0.358333792 -0.056010480 -0.175558272 0 0 0 0
5116200000 -0.440609984  0.415264512 -0.065290436 -0.180608016 0 0 0 0
5121250000 -0.396231616  0.449027392 -0.074628664 -0.185700016 0 0 0 0
5126300000 -0.338404192  0.493428832 -0.085484880 -0.190563568 0 0 0 0
5131350000 -0.291274432  0.522125536 -0.096731792 -0.195205504 0 0 0 0
5136400000 -0.232662656  0.549356608 -0.108839128 -0.199400672 0 0 0 0
5141450000 -0.173468544  0.574234048 -0.125840728 -0.200500720 0 0 0 0
5146500000 -0.121956768  0.578861504 -0.139742464 -0.202653392 0 0 0 0
5151550000 -0.056174640  0.594940160 -0.158381504 -0.200598896 0 0 0 0
5156600000 -0.004254618  0.596883008 -0.176203024 -0.196937232 0 0 0 0
5161650000  0.056014956  0.596177536 -0.192242560 -0.194719328 0 0 0 0
5166700000  0.117397120  0.587056384 -0.212459328 -0.185516128 0 0 0 0
5171750000  0.169272688  0.576520832 -0.231372048 -0.173549264 0 0 0 0
5176800000  0.221776320  0.555074112 -0.246582128 -0.162797392 0 0 0 0
5181850000  0.275068448  0.536981568 -0.264172912 -0.144093344 0 0 0 0
5186900000  0.323465280  0.512803680 -0.277298912 -0.127858144 0 0 0 0
5191950000  0.367196000  0.486060864 -0.289347008 -0.107232768 0 0 0 0
5197000000  0.412954336  0.452534432 -0.297644160 -0.085765312 0 0 0 0
5202050000  0.451802304  0.416340160 -0.304331360 -0.065582128 0 0 0 0
5207100000  0.488376800  0.382130880 -0.308029056 -0.041383520 0 0 0 0
5212150000  0.522619680  0.340487040 -0.308674688 -0.023989284 0 0 0 0
5217200000  0.554889920  0.295899648 -0.307320288 -0.001508510 0 0 0 0
5222250000  0.579248064  0.251833328 -0.304498784  0.015962834 0 0 0 0
5227300000  0.602064576  0.201886608 -0.298807744  0.037523044 0 0 0 0
5232350000  0.621541248  0.153933056 -0.292217984  0.055437772 0 0 0 0
5237400000  0.635404864  0.099807240 -0.284142400  0.071865544 0 0 0 0
5242450000  0.644099648  0.046182368 -0.276035328  0.084123408 0 0 0 0
5247500000  0.650050112 -0.006833791 -0.267063968  0.097009280 0 0 0 0
5252550000  0.651651456 -0.061096832 -0.259405488  0.106888552 0 0 0 0
5257600000  0.650047616 -0.111894936 -0.250446944  0.115741832 0 0 0 0
5262650000  0.637972416 -0.166729424 -0.241479152  0.123163352 0 0 0 0
5267700000  0.624950848 -0.220284208 -0.233133312  0.131099168 0 0 0 0
5272750000  0.607867136 -0.274739264 -0.224962192  0.138245760 0 0 0 0
5277800000  0.578764736 -0.328399424 -0.216837744  0.145874640 0 0 0 0
5282850000  0.554451584 -0.375990560 -0.210695040  0.150461088 0 0 0 0
5287900000  0.521135680 -0.421580896 -0.205025920  0.153935440 0 0 0 0
5292950000  0.473206016 -0.469253568 -0.197470720  0.160897488 0 0 0 0
5298000000  0.439713088 -0.511164064 -0.193232528  0.164355024 0 0 0 0
5303050000  0.383713088 -0.550345920 -0.187229440  0.170336752 0 0 0 0
5308100000  0.332342752 -0.582893248 -0.181715344  0.175909856 0 0 0 0
5313150000  0.278485312 -0.613642176 -0.177781856  0.180984544 0 0 0 0
5318200000  0.210252208 -0.633831808 -0.171110816  0.186325648 0 0 0 0
5323250000  0.147822048 -0.654789184 -0.167480800  0.191350320 0 0 0 0
5328300000  0.079025280 -0.662185344 -0.163426336  0.195034400 0 0 0 0
5333350000  0.008487266 -0.662096320 -0.156296736  0.202328864 0 0 0 0
5338400000 -0.051843728 -0.660811200 -0.156837040  0.204155376 0 0 0 0
5343450000 -0.130440504 -0.638021760 -0.146786704  0.212133536 0 0 0 0
5348500000 -0.209136976 -0.609400256 -0.138893264  0.218542880 0 0 0 0
5353550000 -0.262582928 -0.581394304 -0.131427048  0.224188240 0 0 0 0
5358600000 -0.319682816 -0.533724480 -0.122715880  0.229852624 0 0 0 0
5363650000 -0.367310848 -0.499028896 -0.124619256  0.230406528 0 0 0 0
5368700000 -0.423829696 -0.432144512 -0.114746792  0.237074448 0 0 0 0
5373750000 -0.457428416 -0.392249504 -0.108677344  0.241422576 0 0 0 0
5378800000 -0.491186432 -0.337242080 -0.102804320  0.246360848 0 0 0 0
5383850000 -0.515876416 -0.280038304 -0.094374184  0.251647920 0 0 0 0
5388900000 -0.539577664 -0.229521296 -0.093189072  0.255089168 0 0 0 0
5393950000 -0.560655360 -0.141660128 -0.076988552  0.262974032 0 0 0 0
5399000000 -0.569013568 -0.084057960 -0.069098488  0.268042736 0 0 0 0
5404050000 -0.568747776 -0.026943018 -0.062974580  0.272641088 0 0 0 0
5409100000 -0.564865088  0.041221716 -0.051680372  0.278905568 0 0 0 0
5414150000 -0.554584448  0.114149928 -0.041018788  0.283847232 0 0 0 0
5419200000 -0.537640384  0.168849696 -0.034597692  0.288017792 0 0 0 0
5424250000 -0.511010752  0.223721920 -0.017152250  0.293569088 0 0 0 0
5429300000 -0.479518880  0.287535648 -0.004956973  0.297402976 0 0 0 0
5434350000 -0.452128992  0.328216928  0.007559512  0.300879136 0 0 0 0
5439400000 -0.403934144  0.382108288  0.020213864  0.303554784 0 0 0 0
5444450000 -0.355970112  0.426646656  0.034667004  0.305243232 0 0 0 0
5449500000 -0.312157952  0.456788416  0.052490160  0.305803968 0 0 0 0
5454550000 -0.252259824  0.495806112  0.071463680  0.304605376 0 0 0 0
5459600000 -0.218009856  0.522246496  0.084809888  0.303106688 0 0 0 0
5464650000 -0.148701120  0.540328256  0.101977336  0.300170080 0 0 0 0
5469700000 -0.095018920  0.557686464  0.120816160  0.294329056 0 0 0 0
5474750000 -0.036520904  0.558496960  0.136806896  0.287202016 0 0 0 0
5479800000  0.018913426  0.563256512  0.153185568  0.279262144 0 0 0 0
5484850000  0.070885520  0.563273024  0.169030368  0.269815680 0 0 0 0
5489900000  0.130531120  0.550068608  0.182832464  0.258749520 0 0 0 0
5494950000  0.182170352  0.535217760  0.191429488  0.251073456 0 0 0 0
5500000000  0.230430224  0.518331584  0.208743712  0.233105200 0 0 0 0
5505050000  0.282213824  0.494343136  0.220014560  0.218080240 0 0 0 0
5510100000  0.324421056  0.467286304  0.224973760  0.208122128 0 0 0 0
5515150000  0.365598976  0.438984480  0.235338384  0.191405424 0 0 0 0
5520200000  0.405442592  0.405160064  0.238318800  0.179395488 0 0 0 0
5525250000  0.439505888  0.369835904  0.245896496  0.163494032 0 0 0 0
5530300000  0.471262528  0.324921952  0.247907840  0.151907936 0 0 0 0
5535350000  0.494452704  0.289113728  0.250545776  0.138486304 0 0 0 0
5540400000  0.517556800  0.239634272  0.252813104  0.125743168 0 0 0 0
5545450000  0.535723936  0.194349824  0.254107856  0.113845928 0 0 0 0
5550500000  0.550284416  0.147935312  0.255013728  0.102012768 0 0 0 0
5555550000  0.555339328  0.101979896  0.253250624  0.095268328 0 0 0 0
5560600000  0.562612032  0.055086492  0.254167472  0.083660976 0 0 0 0
5565650000  0.562718720  0.007692642  0.252489776  0.079215072 0 0 0 0
5570700000  0.546376192 -0.044962996  0.253499392  0.063949964 0 0 0 0
5575750000  0.541300032 -0.088525352  0.252718656  0.058623820 0 0 0 0
5580800000  0.528652896 -0.135068544  0.252468704  0.051122584 0 0 0 0
5585850000  0.512255424 -0.174706320  0.252062736  0.044246340 0 0 0 0
5590900000  0.489434176 -0.217866784  0.252186240  0.040810296 0 0 0 0
5595950000  0.460998848 -0.257266528  0.252386656  0.032764006 0 0 0 0
5601000000  0.438175008 -0.291116512  0.253126080  0.028297980 0 0 0 0
5606050000  0.404702976 -0.324006528  0.254475744  0.021749128 0 0 0 0
5611100000  0.363654336 -0.353319744  0.255738528  0.013886492 0 0 0 0
5616150000  0.331051136 -0.379154624  0.257534064  0.010103389 0 0 0 0
5621200000  0.292064352 -0.402372288  0.259686864  0.005047112 0 0 0 0
5626250000  0.249181776 -0.415975616  0.261373072 -0.003822124 0 0 0 0
5631300000  0.209029024 -0.434146912  0.263923200 -0.010517261 0 0 0 0
5636350000  0.160906512 -0.436728480  0.266383168 -0.018301244 0 0 0 0
5641400000  0.117109720 -0.443108128  0.268979680 -0.025820246 0 0 0 0
5646450000  0.072784400 -0.437930144  0.270913056 -0.034685652 0 0 0 0
5651500000  0.039421492 -0.441962560  0.273184992 -0.044595776 0 0 0 0
5656550000 -0.012867251 -0.428679424  0.275688704 -0.054293616 0 0 0 0
5661600000 -0.051767684 -0.412891552  0.276866944 -0.065312872 0 0 0 0
5666650000 -0.085005472 -0.401849440  0.278290496 -0.076118032 0 0 0 0
5671700000 -0.119557024 -0.385313664  0.279642624 -0.087695944 0 0 0 0
5676750000 -0.141489200 -0.369917984  0.281022720 -0.095936768 0 0 0 0
5681800000 -0.183091664 -0.342824032  0.280796704 -0.111813048 0 0 0 0
5686850000 -0.203391888 -0.325058464  0.281166336 -0.124495688 0 0 0 0
5691900000 -0.231911424 -0.297424608  0.280233760 -0.136113696 0 0 0 0
5696950000 -0.259002032 -0.270670016  0.276780192 -0.153647808 0 0 0 0
5702000000 -0.278745312 -0.245879136  0.272226880 -0.172136608 0 0 0 0
5707050000 -0.300873664 -0.214760960  0.271323808 -0.183090880 0 0 0 0
5712100000 -0.317953312 -0.183462848  0.264326368 -0.200992880 0 0 0 0
5717150000 -0.329976864 -0.156913744  0.260181008 -0.212753408 0 0 0 0
5722200000 -0.346807424 -0.116727040  0.250346512 -0.232264512 0 0 0 0
5727250000 -0.356721792 -0.087126472  0.239192080 -0.250021168 0 0 0 0
5732300000 -0.366686080 -0.048961948  0.233287616 -0.261782352 0 0 0 0
5737350000 -0.373804320 -0.012539497  0.215540784 -0.281981312 0 0 0 0
5742400000 -0.376138944  0.032178190  0.205464336 -0.294580384 0 0 0 0
5747450000 -0.374524736  0.062899000  0.190128192 -0.309030656 0 0 0 0
5752500000 -0.365360352  0.103772352  0.170555824 -0.325400608 0 0 0 0
5757550000 -0.361748160  0.142314576  0.155788736 -0.336931776 0 0 0 0
5762600000 -0.348638432  0.172827744  0.133387728 -0.350215392 0 0 0 0
5767650000 -0.334017312  0.212408528  0.118330832 -0.357782624 0 0 0 0
5772700000 -0.311497792  0.248086752  0.092311264 -0.368054976 0 0 0 0
5777750000 -0.290179808  0.278986976  0.066632128 -0.375770944 0 0 0 0
5782800000 -0.265703328  0.310928640  0.044884016 -0.380240352 0 0 0 0
5787850000 -0.241521712  0.335460992  0.018072142 -0.384274272 0 0 0 0
5792900000 -0.200694832  0.360140800 -0.001210614 -0.384686464 0 0 0 0
5797950000 -0.169489936  0.383989312 -0.029808750 -0.382803872 0 0 0 0
5803000000 -0.133170400  0.401548896 -0.055033756 -0.378306496 0 0 0 0
5808050000 -0.095433176  0.414416448 -0.087637072 -0.371863488 0 0 0 0
5813100000 -0.058337048  0.424165312 -0.101353152 -0.365592288 0 0 0 0
5818150000 -0.015403211  0.432696704 -0.124673024 -0.355335008 0 0 0 0
5823200000  0.025326744  0.434568160 -0.146608512 -0.343233440 0 0 0 0
5828250000  0.065631896  0.432811040 -0.166942912 -0.329550720 0 0 0 0
5833300000  0.105209672  0.427899936 -0.183790576 -0.315819232 0 0 0 0
5838350000  0.139618016  0.421304608 -0.198810960 -0.301509184 0 0 0 0
5843400000  0.179022688  0.407704896 -0.213882448 -0.285785088 0 0 0 0
5848450000  0.216323328  0.388059200 -0.227744864 -0.268689856 0 0 0 0
5853500000  0.246991648  0.371150528 -0.240929552 -0.249302944 0 0 0 0
5858550000  0.281710880  0.346076288 -0.249680720 -0.232914128 0 0 0 0
5863600000  0.314111520  0.328156096 -0.252025280 -0.222809184 0 0 0 0
5868650000  0.333317440  0.294612768 -0.263118624 -0.200838848 0 0 0 0
5873700000  0.361538464  0.257371456 -0.270189632 -0.181711424 0 0 0 0
5878750000  0.379953120  0.231861456 -0.272044448 -0.169799568 0 0 0 0
5883800000  0.395196416  0.196179920 -0.276637440 -0.152815248 0 0 0 0
5888850000  0.412507712  0.163316048 -0.279470848 -0.138402576 0 0 0 0
5893900000  0.424245376  0.123999232 -0.280797824 -0.124774992 0 0 0 0
5898950000  0.428208480  0.090780544 -0.281293408 -0.113363168 0 0 0 0
5904000000  0.441379840  0.057487384 -0.284203008 -0.097378136 0 0 0 0
5909050000  0.432232800  0.017560876 -0.285111264 -0.083944672 0 0 0 0
5914100000  0.424527264 -0.021048374 -0.286811264 -0.070040688 0 0 0 0
5919150000  0.420701440 -0.058102568 -0.286749920 -0.057870220 0 0 0 0
5924200000  0.418781952 -0.085080256 -0.287092192 -0.045986976 0 0 0 0
5929250000  0.405741056 -0.115649096 -0.287800640 -0.031639326 0 0 0 0
5934300000  0.388852352 -0.152844352 -0.287393824 -0.017098102 0 0 0 0
5939350000  0.361610080 -0.180792240 -0.287053760 -0.005540504 0 0 0 0
5944400000  0.341632256 -0.210463600 -0.286238432  0.008373707 0 0 0 0
5949450000  0.318074624 -0.240468784 -0.284917536  0.023818728 0 0 0 0
5954500000  0.307348352 -0.257363856 -0.282556512  0.037688700 0 0 0 0
5959550000  0.279567712 -0.281884864 -0.280122752  0.051720832 0 0 0 0
5964600000  0.240836736 -0.301595424 -0.275332672  0.067684624 0 0 0 0
5969650000  0.224604272 -0.313965504 -0.271575104  0.081031560 0 0 0 0
5974700000  0.188362960 -0.333656640 -0.265449072  0.096105288 0 0 0 0
5979750000  0.171437936 -0.343811328 -0.259285328  0.110621736 0 0 0 0
5984800000  0.142721504 -0.358716544 -0.251482608  0.124781496 0 0 0 0
5989850000  0.104373720 -0.371409280 -0.242613648  0.139589104 0 0 0 0
5994900000  0.085666144 -0.375554144 -0.236735744  0.148548480 0 0 0 0
5999950000  0.048358276 -0.384794624 -0.225988592  0.162271056 0 0 0 0
6005000000  0.012180686 -0.386165120 -0.211500688  0.177088432 0 0 0 0
