!File created by NanoVNA
# Hz S RI R 50
4995000000  0.208073664 -0.723031360  0.002658236 -0.103275096 0 0 0 0
5000050000  0.135936080 -0.736144896  0.002418707 -0.104160280 0 0 0 0
5005100000  0.072799552 -0.744832064  0.002006468 -0.105063752 0 0 0 0
5010150000 -0.010743525 -0.743129728  0.002432912 -0.106303080 0 0 0 0
5015200000 -0.090154912 -0.736094208  0.001369771 -0.107936960 0 0 0 0
5020250000 -0.159792560 -0.720083328 -0.002375976 -0.111004096 0 0 0 0
5025300000 -0.242754304 -0.691367232 -0.002946977 -0.112769064 0 0 0 0
5030350000 -0.307895616 -0.656840640 -0.005024873 -0.114832664 0 0 0 0
5035400000 -0.379786176 -0.608877632 -0.004981743 -0.117216344 0 0 0 0
5040450000 -0.442333088 -0.548595520 -0.007394219 -0.119368384 0 0 0 0
5045500000 -0.487879072 -0.501629696 -0.008742922 -0.121534872 0 0 0 0
5050550000 -0.533836320 -0.433338848 -0.010374990 -0.124095008 0 0 0 0
5055600000 -0.568857280 -0.364945056 -0.012598851 -0.126596600 0 0 0 0
5060650000 -0.595770688 -0.295656160 -0.013616025 -0.129454584 0 0 0 0
5065700000 -0.617184640 -0.223300176 -0.016953908 -0.132444952 0 0 0 0
5070750000 -0.629468352 -0.166295584 -0.018732588 -0.136320848 0 0 0 0
5075800000 -0.635188224 -0.078766592 -0.021239322 -0.139828192 0 0 0 0
5080850000 -0.634905600 -0.018059608 -0.024275570 -0.143762000 0 0 0 0
5085900000 -0.626388608  0.046056876 -0.027463702 -0.148269488 0 0 0 0
5090950000 -0.610864832  0.125456600 -0.031510358 -0.152872832 0 0 0 0
5096000000 -0.588619968  0.182180960 -0.035147340 -0.157891536 0 0 0 0
5101050000 -0.560091008  0.249977856 -0.040845664 -0.162944432 0 0 0 0
5106100000 -0.529503296  0.304817280 -0.046641656 -0.168499520 0 0 0 0
5111150000 -0.489311360  0.360983296 -0.053930740 -0.174356992 0 0 0 0
5116200000 -0.441820608  0.416341792 -0.061650476 -0.179560016 0 0 0 0
5121250000 -0.394896064  0.453176544 -0.070503864 -0.184782032 0 0 0 0
5126300000 -0.339440064  0.494648032 -0.080776504 -0.190073744 0 0 0 0
5131350000 -0.289125248  0.525611392 -0.093741208 -0.193495040 0 0 0 0
5136400000 -0.231813936  0.551249152 -0.103679536 -0.198674528 0 0 0 0
5141450000 -0.173347808  0.574761152 -0.119612672 -0.201105744 0 0 0 0
5146500000 -0.117378544  0.581975424 -0.133446608 -0.202857120 0 0 0 0
5151550000 -0.052349328  0.596719424 -0.152630032 -0.200530016 0 0 0 0
5156600000 -0.004560793  0.597021504 -0.169126176 -0.198697808 0 0 0 0
5161650000  0.059463400  0.597859712 -0.185366624 -0.196322704 0 0 0 0
5166700000  0.117889384  0.587059200 -0.205351792 -0.188299568 0 0 0 0
5171750000  0.172612704  0.578234944 -0.224720688 -0.175979568 0 0 0 0
5176800000  0.226272640  0.555837952 -0.240309712 -0.163935728 0 0 0 0
5181850000  0.276292384  0.536633120 -0.256411968 -0.149236512 0 0 0 0
5186900000  0.324876512  0.512570752 -0.270567168 -0.134096760 0 0 0 0
5191950000  0.371530368  0.485074208 -0.282792480 -0.113606632 0 0 0 0
5197000000  0.414586528  0.451789408 -0.292065728 -0.093163976 0 0 0 0
5202050000  0.454420640  0.414634880 -0.298272032 -0.071989680 0 0 0 0
5207100000  0.490011904  0.380151840 -0.302825952 -0.051161992 0 0 0 0
5212150000  0.524420448  0.338126656 -0.304610976 -0.032183558 0 0 0 0
5217200000  0.554759296  0.295292736 -0.303597888 -0.013538598 0 0 0 0
5222250000  0.580767424  0.248469280 -0.301960672  0.008090270 0 0 0 0
5227300000  0.601906112  0.200508592 -0.297128640  0.024715992 0 0 0 0
5232350000  0.621685504  0.153693920 -0.291593504  0.041839280 0 0 0 0
5237400000  0.634647936  0.095736104 -0.284350400  0.062409496 0 0 0 0
5242450000  0.643624704  0.045089328 -0.277339264  0.072301040 0 0 0 0
5247500000  0.649455616 -0.007687967 -0.268859616  0.086027920 0 0 0 0
5252550000  0.649271936 -0.063680700 -0.260409088  0.098116408 0 0 0 0
5257600000  0.645664832 -0.115218448 -0.252921104  0.105645512 0 0 0 0
5262650000  0.634643456 -0.168355872 -0.244680912  0.114664816 0 0 0 0
5267700000  0.622370752 -0.221008400 -0.236579632  0.122251232 0 0 0 0
5272750000  0.604838336 -0.275414240 -0.229158400  0.129726720 0 0 0 0
5277800000  0.575001088 -0.329885024 -0.222701744  0.135945888 0 0 0 0
5282850000  0.550037056 -0.375559296 -0.215297504  0.142103920 0 0 0 0
5287900000  0.512612352 -0.422682272 -0.209873488  0.146855168 0 0 0 0
5292950000  0.470813088 -0.467038976 -0.202843968  0.153885056 0 0 0 0
5298000000  0.434796448 -0.509153440 -0.198142736  0.158494608 0 0 0 0
5303050000  0.378725024 -0.548723200 -0.193754816  0.163705680 0 0 0 0
5308100000  0.332655424 -0.581274560 -0.188891104  0.169396000 0 0 0 0
5313150000  0.280231392 -0.610073152 -0.185753536  0.173467152 0 0 0 0
5318200000  0.211225232 -0.631904960 -0.180545440  0.179043152 0 0 0 0
5323250000  0.154244080 -0.654012800 -0.176609584  0.184306896 0 0 0 0
5328300000  0.077872992 -0.658876480 -0.169870304  0.190729024 0 0 0 0
5333350000  0.008142881 -0.656879360 -0.164817008  0.196894192 0 0 0 0
5338400000 -0.063710428 -0.648774528 -0.161401104  0.201774992 0 0 0 0
5343450000 -0.133549912 -0.630397440 -0.155023808  0.208114192 0 0 0 0
5348500000 -0.190761952 -0.619502784 -0.153143072  0.210885264 0 0 0 0
5353550000 -0.260329600 -0.578925760 -0.141815776  0.219712480 0 0 0 0
5358600000 -0.317607328 -0.532416032 -0.132005664  0.226637488 0 0 0 0
5363650000 -0.368579648 -0.497583104 -0.133222264  0.228253760 0 0 0 0
5368700000 -0.417042688 -0.439265728 -0.123511808  0.234749392 0 0 0 0
5373750000 -0.452533440 -0.398103904 -0.117580472  0.239397600 0 0 0 0
5378800000 -0.490714688 -0.336670912 -0.111902192  0.244384144 0 0 0 0
5383850000 -0.515317312 -0.278361344 -0.103375864  0.250076704 0 0 0 0
5388900000 -0.542536896 -0.209543104 -0.096988880  0.255140928 0 0 0 0
5393950000 -0.552935232 -0.159852688 -0.090885840  0.260405952 0 0 0 0
5399000000 -0.566994816 -0.088256248 -0.079202000  0.267524624 0 0 0 0
5404050000 -0.570005888 -0.017197472 -0.070331080  0.273446688 0 0 0 0
5409100000 -0.562037248  0.028468228 -0.063142264  0.278431872 0 0 0 0
5414150000 -0.554473088  0.111891872 -0.049153160  0.284657024 0 0 0 0
5419200000 -0.536576576  0.163635888 -0.043337480  0.289396032 0 0 0 0
5424250000 -0.508654784  0.226770656 -0.030114808  0.293935648 0 0 0 0
5429300000 -0.479894976  0.286037856 -0.015694676  0.299403520 0 0 0 0
5434350000 -0.453339968  0.327997600 -0.003981550  0.303478656 0 0 0 0
5439400000 -0.407443712  0.379619552  0.010603164  0.307240256 0 0 0 0
5444450000 -0.359043968  0.421413696  0.022603700  0.308659904 0 0 0 0
5449500000 -0.314137280  0.457310848  0.043130112  0.310085920 0 0 0 0
5454550000 -0.254525088  0.493980576  0.061921812  0.309497984 0 0 0 0
5459600000 -0.220584656  0.522178592  0.075883432  0.308343648 0 0 0 0
5464650000 -0.151294304  0.540099712  0.091408792  0.306122592 0 0 0 0
5469700000 -0.097109352  0.557382208  0.112353752  0.299971456 0 0 0 0
5474750000 -0.039187984  0.558276096  0.128385600  0.293599872 0 0 0 0
5479800000  0.018157402  0.566159872  0.145024432  0.286354880 0 0 0 0
5484850000  0.068663104  0.563392064  0.160120352  0.277383232 0 0 0 0
5489900000  0.127612472  0.550440000  0.172777616  0.268247936 0 0 0 0
5494950000  0.182614288  0.538267072  0.187771824  0.256307280 0 0 0 0
5500000000  0.229530400  0.520016672  0.200635280  0.242426752 0 0 0 0
5505050000  0.281539232  0.496681088  0.212007952  0.228534912 0 0 0 0
5510100000  0.325038240  0.469829056  0.218512240  0.216848720 0 0 0 0
5515150000  0.366144352  0.441453760  0.227761280  0.202697168 0 0 0 0
5520200000  0.406402208  0.407372064  0.233324368  0.188360144 0 0 0 0
5525250000  0.440057344  0.372229920  0.239567392  0.175295104 0 0 0 0
5530300000  0.472440000  0.325759840  0.245566928  0.159125424 0 0 0 0
5535350000  0.496537056  0.290223808  0.246837696  0.148044816 0 0 0 0
5540400000  0.519266304  0.241340736  0.248260368  0.137152864 0 0 0 0
5545450000  0.538293312  0.195021776  0.251489664  0.122148384 0 0 0 0
5550500000  0.552549952  0.149314032  0.251493936  0.111779496 0 0 0 0
5555550000  0.558535744  0.103227000  0.250398368  0.104600120 0 0 0 0
5560600000  0.563624576  0.054771940  0.251805984  0.090932504 0 0 0 0
5565650000  0.560078016  0.003149666  0.250991440  0.085730888 0 0 0 0
5570700000  0.551434432 -0.043994236  0.250976320  0.074815752 0 0 0 0
5575750000  0.547540800 -0.087136376  0.250303264  0.068830320 0 0 0 0
5580800000  0.531840512 -0.136396800  0.249904624  0.063192896 0 0 0 0
5585850000  0.515993952 -0.175495904  0.250512416  0.054101500 0 0 0 0
5590900000  0.490334144 -0.219023232  0.250584160  0.049592100 0 0 0 0
5595950000  0.465816896 -0.258627952  0.250920240  0.044282172 0 0 0 0
5601000000  0.439931520 -0.294977472  0.252243456  0.037437388 0 0 0 0
5606050000  0.400837792 -0.327378528  0.252981184  0.032144722 0 0 0 0
5611100000  0.357129632 -0.358006752  0.255303824  0.022001928 0 0 0 0
5616150000  0.334916992 -0.381230560  0.256892144  0.022772020 0 0 0 0
5621200000  0.295794592 -0.404238112  0.258982000  0.018218374 0 0 0 0
5626250000  0.237974848 -0.418729600  0.261311824  0.006574708 0 0 0 0
5631300000  0.201495120 -0.438282880  0.264387168  0.000785722 0 0 0 0
5636350000  0.151231360 -0.439976352  0.267127968 -0.007143807 0 0 0 0
5641400000  0.115881320 -0.446035456  0.269951872 -0.012257538 0 0 0 0
5646450000  0.054639184 -0.438370656  0.272612928 -0.021875468 0 0 0 0
5651500000  0.029780468 -0.440485728  0.274355040 -0.032760010 0 0 0 0
5656550000 -0.010224692 -0.430650560  0.278325504 -0.037308868 0 0 0 0
5661600000 -0.056063656 -0.413159936  0.280306400 -0.051929076 0 0 0 0
5666650000 -0.090095352 -0.400668608  0.281824704 -0.061304772 0 0 0 0
5671700000 -0.121259392 -0.384017152  0.284734560 -0.069976120 0 0 0 0
5676750000 -0.147387408 -0.368218080  0.285567296 -0.082874720 0 0 0 0
5681800000 -0.192478160 -0.333995648  0.285175680 -0.098973960 0 0 0 0
5686850000 -0.202982160 -0.319988160  0.287326048 -0.107525104 0 0 0 0
5691900000 -0.233656336 -0.295471776  0.288258688 -0.119423720 0 0 0 0
5696950000 -0.265824192 -0.261265248  0.284318272 -0.138993648 0 0 0 0
5702000000 -0.272400672 -0.244834128  0.283529632 -0.153624192 0 0 0 0
5707050000 -0.302512832 -0.205049824  0.280102688 -0.168618896 0 0 0 0
5712100000 -0.310450368 -0.180188624  0.277339712 -0.182214976 0 0 0 0
5717150000 -0.330890112 -0.148722512  0.271896640 -0.198355984 0 0 0 0
5722200000 -0.341927648 -0.112116696  0.265852480 -0.214311216 0 0 0 0
5727250000 -0.358999744 -0.074053848  0.252927152 -0.235485376 0 0 0 0
5732300000 -0.359090112 -0.046995344  0.249665680 -0.245695008 0 0 0 0
5737350000 -0.363457824 -0.014569974  0.235082224 -0.265355520 0 0 0 0
5742400000 -0.366289920  0.030110598  0.224784112 -0.279626592 0 0 0 0
5747450000 -0.368888096  0.063936556  0.209653920 -0.295961216 0 0 0 0
5752500000 -0.357845248  0.100776680  0.192245904 -0.312855552 0 0 0 0
5757550000 -0.353607808  0.138682336  0.179598240 -0.324620480 0 0 0 0
5762600000 -0.343877408  0.170767504  0.155631600 -0.339993760 0 0 0 0
5767650000 -0.328540192  0.208959296  0.142009024 -0.349294112 0 0 0 0
5772700000 -0.308519968  0.244667568  0.119496216 -0.360161728 0 0 0 0
5777750000 -0.283902208  0.268397216  0.097251320 -0.369349952 0 0 0 0
5782800000 -0.264955216  0.305697376  0.073020736 -0.376621664 0 0 0 0
5787850000 -0.241147184  0.326931104  0.049129896 -0.382035872 0 0 0 0
5792900000 -0.199906768  0.351554400  0.035522928 -0.383248128 0 0 0 0
5797950000 -0.173330736  0.379719360  0.000272270 -0.384115072 0 0 0 0
5803000000 -0.139730304  0.396600864 -0.028598878 -0.382405760 0 0 0 0
5808050000 -0.099187520  0.408416672 -0.050050820 -0.378709568 0 0 0 0
5813100000 -0.064308496  0.418686816 -0.069727760 -0.373723552 0 0 0 0
5818150000 -0.021233994  0.428232160 -0.090770696 -0.367007136 0 0 0 0
5823200000  0.018527402  0.431439072 -0.116216568 -0.356215104 0 0 0 0
5828250000  0.057483612  0.429881440 -0.137539552 -0.345250368 0 0 0 0
5833300000  0.096570360  0.427106656 -0.152840960 -0.334359168 0 0 0 0
5838350000  0.131491248  0.420849920 -0.172794544 -0.319929536 0 0 0 0
5843400000  0.171982192  0.410216384 -0.188073360 -0.306363936 0 0 0 0
5848450000  0.209151536  0.391424672 -0.202679104 -0.291477792 0 0 0 0
5853500000  0.242335744  0.377344032 -0.216314608 -0.274902912 0 0 0 0
5858550000  0.278267712  0.353789088 -0.225178608 -0.261601776 0 0 0 0
5863600000  0.307083648  0.332265376 -0.233904816 -0.246785376 0 0 0 0
5868650000  0.328074592  0.301505536 -0.245667472 -0.227470640 0 0 0 0
5873700000  0.361816928  0.268658624 -0.252487392 -0.212301008 0 0 0 0
5878750000  0.380579104  0.241543616 -0.256215248 -0.199744736 0 0 0 0
5883800000  0.397184448  0.207009392 -0.262590800 -0.183719712 0 0 0 0
5888850000  0.415031520  0.173230768 -0.265729424 -0.171478000 0 0 0 0
5893900000  0.430373600  0.130216168 -0.270448384 -0.157350928 0 0 0 0
5898950000  0.435179616  0.098263648 -0.272844800 -0.145136800 0 0 0 0
5904000000  0.444344864  0.063336388 -0.277112224 -0.129388184 0 0 0 0
5909050000  0.442535680  0.023140852 -0.278927968 -0.119512592 0 0 0 0
5914100000  0.431581248 -0.017607040 -0.282268512 -0.103883248 0 0 0 0
5919150000  0.430213440 -0.055220008 -0.284504832 -0.092222264 0 0 0 0
5924200000  0.415414688 -0.094586960 -0.287512384 -0.078084752 0 0 0 0
5929250000  0.415066272 -0.117423400 -0.289338528 -0.068248440 0 0 0 0
5934300000  0.397741536 -0.154753376 -0.290941664 -0.053758728 0 0 0 0
5939350000  0.365747136 -0.191976656 -0.293470816 -0.038971500 0 0 0 0
5944400000  0.347234976 -0.217859344 -0.294321632 -0.027194566 0 0 0 0
5949450000  0.327884032 -0.245025856 -0.295521088 -0.014204057 0 0 0 0
5954500000  0.300652544 -0.272041600 -0.295818432  0.005691941 0 0 0 0
5959550000  0.279877952 -0.291340160 -0.295979360  0.014740365 0 0 0 0
5964600000  0.242766192 -0.310622144 -0.294048832  0.034936216 0 0 0 0
5969650000  0.219934832 -0.325141088 -0.291896576  0.047484796 0 0 0 0
5974700000  0.193789296 -0.341276288 -0.288597280  0.064363256 0 0 0 0
5979750000  0.164115392 -0.350111264 -0.283976128  0.081346032 0 0 0 0
5984800000  0.128308536 -0.364456128 -0.278623456  0.097128208 0 0 0 0
5989850000  0.100879880 -0.372294304 -0.273277056  0.109995856 0 0 0 0
5994900000  0.063153124 -0.379635360 -0.264127680  0.129693840 0 0 0 0
5999950000  0.024541614 -0.384318144 -0.255934448  0.142019488 0 0 0 0
6005000000  0.008448746 -0.385330208 -0.245010768  0.158054112 0 0 0 0
