!File created by NanoVNA
# Hz S RI R 50
4995000000  0.212812512 -0.723733376  0.003723138 -0.103573208 0 0 0 0
5000050000  0.129432512 -0.735184064  0.002100978 -0.104599376 0 0 0 0
5005100000  0.071672232 -0.747867648  0.002003118 -0.105594688 0 0 0 0
5010150000 -0.003411278 -0.748636992  0.003306895 -0.106793512 0 0 0 0
5015200000 -0.091111592 -0.738416832  0.001334257 -0.108508768 0 0 0 0
5020250000 -0.168798752 -0.717432128 -0.002711905 -0.111545456 0 0 0 0
5025300000 -0.245780864 -0.694369728 -0.002797162 -0.113427008 0 0 0 0
5030350000 -0.308179616 -0.662041792 -0.004902355 -0.115452808 0 0 0 0
5035400000 -0.378414624 -0.617154752 -0.004733830 -0.117771568 0 0 0 0
5040450000 -0.439726688 -0.558873024 -0.007435871 -0.119826512 0 0 0 0
5045500000 -0.495899712 -0.498920416 -0.009591059 -0.122355968 0 0 0 0
5050550000 -0.542838272 -0.429129984 -0.010660562 -0.124999864 0 0 0 0
5055600000 -0.575951104 -0.370000160 -0.013284911 -0.127296968 0 0 0 0
5060650000 -0.601428160 -0.294543488 -0.014949618 -0.130201952 0 0 0 0
5065700000 -0.622042176 -0.226501632 -0.017449630 -0.133157360 0 0 0 0
5070750000 -0.634630464 -0.165682336 -0.018663730 -0.137220464 0 0 0 0
5075800000 -0.640881536 -0.082599616 -0.022303896 -0.140754128 0 0 0 0
5080850000 -0.639907584 -0.017348402 -0.025341162 -0.144714288 0 0 0 0
5085900000 -0.631216448  0.051542276 -0.026799782 -0.149545712 0 0 0 0
5090950000 -0.620958656  0.119217032 -0.031558738 -0.154313664 0 0 0 0
5096000000 -0.595406592  0.186348112 -0.036400084 -0.159039856 0 0 0 0
5101050000 -0.562431552  0.257443584 -0.041557312 -0.164240640 0 0 0 0
5106100000 -0.536405568  0.304834528 -0.047850376 -0.169644976 0 0 0 0
5111150000 -0.493192544  0.364900832 -0.054124000 -0.175633824 0 0 0 0
5116200000 -0.446800288  0.419497376 -0.063782104 -0.180405760 0 0 0 0
5121250000 -0.401776160  0.453256832 -0.072168992 -0.186325968 0 0 0 0
5126300000 -0.347685952  0.494619808 -0.081691608 -0.191844144 0 0 0 0
5131350000 -0.296958208  0.526293472 -0.093670480 -0.195772944 0 0 0 0
5136400000 -0.234775968  0.556959232 -0.105757784 -0.200216704 0 0 0 0
5141450000 -0.180985728  0.576747328 -0.121709424 -0.202244528 0 0 0 0
5146500000 -0.122315952  0.585888000 -0.137776032 -0.203110720 0 0 0 0
5151550000 -0.061871028  0.596859968 -0.153193520 -0.203824992 0 0 0 0
5156600000 -0.007080395  0.602348928 -0.173799776 -0.199175728 0 0 0 0
5161650000  0.054292892  0.601466944 -0.188113744 -0.197976640 0 0 0 0
5166700000  0.116768920  0.591999104 -0.210255184 -0.186555824 0 0 0 0
5171750000  0.166617872  0.581300096 -0.227360752 -0.177904688 0 0 0 0
5176800000  0.222469856  0.559950144 -0.244081296 -0.165012512 0 0 0 0
5181850000  0.273963040  0.541366656 -0.260816064 -0.149301584 0 0 0 0
5186900000  0.322962048  0.517016576 -0.274895616 -0.132172776 0 0 0 0
5191950000  0.368133888  0.489549440 -0.286467680 -0.112922520 0 0 0 0
5197000000  0.411312416  0.456189024 -0.295987392 -0.092427216 0 0 0 0
5202050000  0.449634496  0.419625728 -0.302229568 -0.073397864 0 0 0 0
5207100000  0.487302016  0.385245024 -0.306699968 -0.048971000 0 0 0 0
5212150000  0.523142816  0.342608992 -0.307966656 -0.030173882 0 0 0 0
5217200000  0.554578624  0.298478880 -0.307056192 -0.007996041 0 0 0 0
5222250000  0.580046144  0.253075904 -0.304564032  0.011223275 0 0 0 0
5227300000  0.603027840  0.203298960 -0.299566496  0.031775494 0 0 0 0
5232350000  0.622157696  0.156376144 -0.292920672  0.048341840 0 0 0 0
5237400000  0.636723456  0.101576256 -0.286532096  0.062080384 0 0 0 0
5242450000  0.645790208  0.049361736 -0.278115232  0.076000600 0 0 0 0
5247500000  0.652086912 -0.004541748 -0.269669696  0.089994536 0 0 0 0
5252550000  0.650722944 -0.062165872 -0.261815488  0.100852264 0 0 0 0
5257600000  0.647690176 -0.113961144 -0.252938624  0.110164392 0 0 0 0
5262650000  0.638798272 -0.165580608 -0.245081456  0.116153360 0 0 0 0
5267700000  0.623915840 -0.222260960 -0.235942928  0.127028288 0 0 0 0
5272750000  0.608456960 -0.274174912 -0.228473200  0.132382560 0 0 0 0
5277800000  0.582933376 -0.328031424 -0.221698384  0.138930704 0 0 0 0
5282850000  0.554902016 -0.376840160 -0.214742304  0.146270240 0 0 0 0
5287900000  0.521118752 -0.424801088 -0.210024672  0.148630320 0 0 0 0
5292950000  0.475068896 -0.470802624 -0.201747392  0.156553072 0 0 0 0
5298000000  0.436167872 -0.514023840 -0.197257696  0.161113024 0 0 0 0
5303050000  0.389116512 -0.554188928 -0.192249616  0.166002096 0 0 0 0
5308100000  0.333891648 -0.586310080 -0.186202864  0.172351936 0 0 0 0
5313150000  0.278788320 -0.619382080 -0.183587872  0.176694880 0 0 0 0
5318200000  0.214165632 -0.638592384 -0.178609808  0.181431536 0 0 0 0
5323250000  0.153441360 -0.661501888 -0.174596512  0.186667280 0 0 0 0
5328300000  0.083711032 -0.669267392 -0.168632944  0.192230560 0 0 0 0
5333350000  0.012252276 -0.669318272 -0.163205808  0.198840368 0 0 0 0
5338400000 -0.066199272 -0.657741952 -0.159464064  0.203816144 0 0 0 0
5343450000 -0.136093072 -0.640032384 -0.152813120  0.210151376 0 0 0 0
5348500000 -0.207442912 -0.609256832 -0.145871424  0.215496384 0 0 0 0
5353550000 -0.264288928 -0.579581952 -0.136538832  0.223081088 0 0 0 0
5358600000 -0.296735648 -0.581417920 -0.139356672  0.223137392 0 0 0 0
5363650000 -0.382736352 -0.491953856 -0.127612176  0.231114336 0 0 0 0
5368700000 -0.427733984 -0.442018784 -0.121209408  0.235927648 0 0 0 0
5373750000 -0.461638784 -0.402011488 -0.115624728  0.240404032 0 0 0 0
5378800000 -0.496442400 -0.342620928 -0.109712736  0.245476688 0 0 0 0
5383850000 -0.522785184 -0.285670048 -0.101066640  0.251161344 0 0 0 0
5388900000 -0.548313216 -0.220611136 -0.096058424  0.255855952 0 0 0 0
5393950000 -0.565769536 -0.160536192 -0.085223496  0.262968720 0 0 0 0
5399000000 -0.574686848 -0.098671848 -0.078696392  0.267815168 0 0 0 0
5404050000 -0.578021184 -0.028566970 -0.071481792  0.273563008 0 0 0 0
5409100000 -0.573884416  0.034388108 -0.057070560  0.280254240 0 0 0 0
5414150000 -0.563236160  0.106155392 -0.047340132  0.285028192 0 0 0 0
5419200000 -0.546464768  0.163042016 -0.040105508  0.290619232 0 0 0 0
5424250000 -0.519350528  0.228356928 -0.024954964  0.295464448 0 0 0 0
5429300000 -0.487976896  0.284717856 -0.013414849  0.299955872 0 0 0 0
5434350000 -0.461121792  0.327381984 -0.000610140  0.304084736 0 0 0 0
5439400000 -0.412489632  0.383537216  0.014991582  0.306559616 0 0 0 0
5444450000 -0.363311584  0.424836832  0.028848222  0.308681120 0 0 0 0
5449500000 -0.317782048  0.465386496  0.051158736  0.309216608 0 0 0 0
5454550000 -0.265299984  0.482997760  0.056984176  0.310792544 0 0 0 0
5459600000 -0.222801408  0.527190080  0.080647808  0.307131904 0 0 0 0
5464650000 -0.155387456  0.540682944  0.096485128  0.304829824 0 0 0 0
5469700000 -0.102698096  0.556138368  0.114417320  0.299586848 0 0 0 0
5474750000 -0.042760116  0.559967744  0.130759168  0.292953216 0 0 0 0
5479800000  0.014088088  0.566394560  0.145230752  0.286408640 0 0 0 0
5484850000  0.065832548  0.564292672  0.161113120  0.277006400 0 0 0 0
5489900000  0.125919936  0.551351168  0.175921440  0.266475856 0 0 0 0
5494950000  0.180538752  0.539939136  0.192343104  0.254069680 0 0 0 0
5500000000  0.225813488  0.519817952  0.201181728  0.242957824 0 0 0 0
5505050000  0.279432192  0.497074432  0.215397440  0.227237024 0 0 0 0
5510100000  0.322964608  0.469989024  0.222896528  0.213714560 0 0 0 0
5515150000  0.364648448  0.441710400  0.228767696  0.203493536 0 0 0 0
5520200000  0.404608544  0.406751680  0.237642624  0.183915600 0 0 0 0
5525250000  0.439133952  0.372518912  0.243161616  0.170994224 0 0 0 0
5530300000  0.471709024  0.326523872  0.246101088  0.158512672 0 0 0 0
5535350000  0.495592512  0.289816128  0.249181152  0.145522016 0 0 0 0
5540400000  0.520118112  0.242080736  0.251370944  0.133845480 0 0 0 0
5545450000  0.539254016  0.196562624  0.251915600  0.124086568 0 0 0 0
5550500000  0.552946368  0.147917344  0.254345152  0.109186048 0 0 0 0
5555550000  0.555828608  0.099160336  0.254340944  0.098833664 0 0 0 0
5560600000  0.564408064  0.053887640  0.254114304  0.089002688 0 0 0 0
5565650000  0.567161152  0.006868460  0.252110928  0.086330408 0 0 0 0
5570700000  0.553920640 -0.047018244  0.253122752  0.073276928 0 0 0 0
5575750000  0.549975104 -0.088420104  0.252610736  0.065572144 0 0 0 0
5580800000  0.531446624 -0.139918352  0.252259904  0.058197800 0 0 0 0
5585850000  0.515162720 -0.178764864  0.252413216  0.050563832 0 0 0 0
5590900000  0.494578048 -0.221453696  0.252485312  0.047312336 0 0 0 0
5595950000  0.467864640 -0.260787520  0.252822096  0.039730256 0 0 0 0
5601000000  0.440079840 -0.296564800  0.253672720  0.033015248 0 0 0 0
5606050000  0.396704416 -0.332632288  0.254986048  0.026652696 0 0 0 0
5611100000  0.371399328 -0.358229056  0.256195936  0.021855922 0 0 0 0
5616150000  0.336333280 -0.385592032  0.258454320  0.018414674 0 0 0 0
5621200000  0.293038592 -0.408623008  0.260043168  0.014507477 0 0 0 0
5626250000  0.249180896 -0.424668672  0.262454480  0.003457834 0 0 0 0
5631300000  0.211513248 -0.443425120  0.265510224 -0.002718026 0 0 0 0
5636350000  0.162509824 -0.445485376  0.267602320 -0.008894844 0 0 0 0
5641400000  0.122488304 -0.450751008  0.270812800 -0.014679695 0 0 0 0
5646450000  0.065586812 -0.446667776  0.273067584 -0.026543348 0 0 0 0
5651500000  0.042779536 -0.448748128  0.275242208 -0.035958452 0 0 0 0
5656550000 -0.006993699 -0.435979552  0.277640704 -0.045959488 0 0 0 0
5661600000 -0.040736056 -0.426203008  0.280552224 -0.053744520 0 0 0 0
5666650000 -0.078477536 -0.413963360  0.282520320 -0.063607388 0 0 0 0
5671700000 -0.120397688 -0.393120672  0.283676544 -0.077635704 0 0 0 0
5676750000 -0.138711536 -0.378789280  0.285667488 -0.084459000 0 0 0 0
5681800000 -0.186988608 -0.347646848  0.285814912 -0.102014072 0 0 0 0
5686850000 -0.203777440 -0.330534272  0.286898880 -0.112870448 0 0 0 0
5691900000 -0.233988928 -0.304853440  0.286192160 -0.126218008 0 0 0 0
5696950000 -0.266391344 -0.271986560  0.283324480 -0.143792416 0 0 0 0
5702000000 -0.275282528 -0.254868448  0.280542688 -0.160252944 0 0 0 0
5707050000 -0.301974432 -0.217720528  0.278505600 -0.172625632 0 0 0 0
5712100000 -0.316575104 -0.189609552  0.272660832 -0.191141536 0 0 0 0
5717150000 -0.339177600 -0.153111312  0.268279232 -0.204807536 0 0 0 0
5722200000 -0.342717248 -0.127236648  0.263140448 -0.220188032 0 0 0 0
5727250000 -0.363305760 -0.082991528  0.248226576 -0.242514736 0 0 0 0
5732300000 -0.362160192 -0.057532880  0.246825824 -0.250955584 0 0 0 0
5737350000 -0.371482976 -0.019037868  0.229713632 -0.271801952 0 0 0 0
5742400000 -0.371345536  0.023806012  0.220272896 -0.284424512 0 0 0 0
5747450000 -0.375239648  0.058567280  0.202938576 -0.302537248 0 0 0 0
5752500000 -0.363017408  0.094001944  0.187049920 -0.317923008 0 0 0 0
5757550000 -0.359385280  0.133783536  0.173626864 -0.329681088 0 0 0 0
5762600000 -0.350121632  0.168024112  0.148508560 -0.344848896 0 0 0 0
5767650000 -0.336102528  0.206742368  0.130962384 -0.354579296 0 0 0 0
5772700000 -0.312405504  0.239897424  0.111287584 -0.364689856 0 0 0 0
5777750000 -0.292029280  0.272661248  0.084457416 -0.373678176 0 0 0 0
5782800000 -0.268506208  0.305031488  0.064218060 -0.378780576 0 0 0 0
5787850000 -0.245056704  0.329880160  0.035747392 -0.384294112 0 0 0 0
5792900000 -0.201875472  0.351511616  0.020979374 -0.385249312 0 0 0 0
5797950000 -0.173543264  0.378383264 -0.007341025 -0.385109152 0 0 0 0
5803000000 -0.140212336  0.398720352 -0.040250864 -0.382747328 0 0 0 0
5808050000 -0.098505008  0.409410912 -0.064053640 -0.378309280 0 0 0 0
5813100000 -0.062846884  0.420356992 -0.083342824 -0.371417632 0 0 0 0
5818150000 -0.019192814  0.429030304 -0.101221816 -0.363997024 0 0 0 0
5823200000  0.021675546  0.431989536 -0.126671408 -0.353268736 0 0 0 0
5828250000  0.061518824  0.430983232 -0.149874480 -0.340097920 0 0 0 0
5833300000  0.101284344  0.427177536 -0.163324208 -0.329040320 0 0 0 0
5838350000  0.134717968  0.420027744 -0.184191568 -0.313742880 0 0 0 0
5843400000  0.175203888  0.408649728 -0.199010848 -0.299860416 0 0 0 0
5848450000  0.213278144  0.390929344 -0.213093536 -0.282999168 0 0 0 0
5853500000  0.247627008  0.377440128 -0.223080064 -0.268790240 0 0 0 0
5858550000  0.281658144  0.349820480 -0.234543632 -0.252537664 0 0 0 0
5863600000  0.310147360  0.326993344 -0.243412592 -0.236490832 0 0 0 0
5868650000  0.333735008  0.298823584 -0.252916608 -0.218128576 0 0 0 0
5873700000  0.366578592  0.267453312 -0.259319184 -0.202286304 0 0 0 0
5878750000  0.385184960  0.238354672 -0.263759792 -0.187928608 0 0 0 0
5883800000  0.399905152  0.201332288 -0.269909984 -0.170878672 0 0 0 0
5888850000  0.413590400  0.166200576 -0.272169248 -0.158529904 0 0 0 0
5893900000  0.430335584  0.128922832 -0.274764544 -0.145073792 0 0 0 0
5898950000  0.433691488  0.093002472 -0.276535168 -0.132488368 0 0 0 0
5904000000  0.443006880  0.057642060 -0.280451552 -0.116888096 0 0 0 0
5909050000  0.440803040  0.018842862 -0.282416000 -0.104879632 0 0 0 0
5914100000  0.432720896 -0.021620650 -0.284963936 -0.089740944 0 0 0 0
5919150000  0.435393664 -0.052887012 -0.285801152 -0.079092848 0 0 0 0
5924200000  0.416065216 -0.095368816 -0.288236384 -0.062121500 0 0 0 0
5929250000  0.410485216 -0.124417584 -0.289731712 -0.051110824 0 0 0 0
5934300000  0.406252576 -0.151131936 -0.289692608 -0.041801716 0 0 0 0
5939350000  0.367915744 -0.188793008 -0.291457088 -0.024152970 0 0 0 0
5944400000  0.348923776 -0.217166000 -0.291451648 -0.011361037 0 0 0 0
5949450000  0.326163232 -0.247594960 -0.291709472  0.001935459 0 0 0 0
5954500000  0.308289472 -0.268796096 -0.290132480  0.021193432 0 0 0 0
5959550000  0.277992640 -0.294738784 -0.289836736  0.030840922 0 0 0 0
5964600000  0.248429472 -0.309729984 -0.286422912  0.049122080 0 0 0 0
5969650000  0.225457904 -0.323606144 -0.283944384  0.061225544 0 0 0 0
5974700000  0.201613920 -0.341854816 -0.279424704  0.077997952 0 0 0 0
5979750000  0.177930256 -0.351584896 -0.274087360  0.093133640 0 0 0 0
5984800000  0.147116416 -0.367692864 -0.268848320  0.105897592 0 0 0 0
5989850000  0.102186664 -0.379095104 -0.261399888  0.122377680 0 0 0 0
5994900000  0.076585856 -0.381671680 -0.252266640  0.137902448 0 0 0 0
5999950000  0.035810800 -0.389326976 -0.242827056  0.152280928 0 0 0 0
6005000000  0.011085603 -0.391650784 -0.231420480  0.165844160 0 0 0 0
