!File created by NanoVNA
# Hz S RI R 50
4995000000  0.208961936 -0.723831744  0.003590203 -0.103273480 0 0 0 0
5000050000  0.135474560 -0.738991936  0.003833573 -0.104202392 0 0 0 0
5005100000  0.065990264 -0.745363904  0.001831731 -0.105027464 0 0 0 0
5010150000 -0.004476358 -0.749683648  0.003904245 -0.106302304 0 0 0 0
5015200000 -0.093626544 -0.735235264  0.002390355 -0.107711080 0 0 0 0
5020250000 -0.170781680 -0.716845632 -0.002285747 -0.111033352 0 0 0 0
5025300000 -0.246523328 -0.693731392 -0.001311941 -0.112906344 0 0 0 0
5030350000 -0.312143712 -0.661201088 -0.003522413 -0.114750632 0 0 0 0
5035400000 -0.380594112 -0.614219648 -0.004125439 -0.117064248 0 0 0 0
5040450000 -0.442841632 -0.554875072 -0.005801606 -0.119161104 0 0 0 0
5045500000 -0.501381216 -0.492534016 -0.008478979 -0.121582792 0 0 0 0
5050550000 -0.543113984 -0.428254208 -0.009242639 -0.124374568 0 0 0 0
5055600000 -0.576690112 -0.368295232 -0.011543605 -0.126675176 0 0 0 0
5060650000 -0.599697856 -0.302454368 -0.012259564 -0.129510400 0 0 0 0
5065700000 -0.623437760 -0.228228512 -0.015069735 -0.132653384 0 0 0 0
5070750000 -0.634625024 -0.167648896 -0.017329370 -0.136109248 0 0 0 0
5075800000 -0.642282560 -0.079172184 -0.019930686 -0.139935872 0 0 0 0
5080850000 -0.640771840 -0.017584540 -0.022262210 -0.144012000 0 0 0 0
5085900000 -0.631213760  0.057892104 -0.026262890 -0.148450256 0 0 0 0
5090950000 -0.619018752  0.119708472 -0.028477326 -0.153220048 0 0 0 0
5096000000 -0.593849344  0.188023840 -0.033729980 -0.158028288 0 0 0 0
5101050000 -0.563946240  0.256011872 -0.038549532 -0.163322240 0 0 0 0
5106100000 -0.538828928  0.304368544 -0.043767996 -0.169146784 0 0 0 0
5111150000 -0.491675840  0.367085408 -0.051478292 -0.174438496 0 0 0 0
5116200000 -0.450396192  0.415861984 -0.058888576 -0.180074272 0 0 0 0
5121250000 -0.398525952  0.457971552 -0.068428488 -0.185215248 0 0 0 0
5126300000 -0.348705248  0.495353344 -0.077121816 -0.191371312 0 0 0 0
5131350000 -0.297031904  0.527765440 -0.089039848 -0.195618416 0 0 0 0
5136400000 -0.236938688  0.555903744 -0.101307704 -0.199985872 0 0 0 0
5141450000 -0.181189152  0.576578880 -0.115475488 -0.202960464 0 0 0 0
5146500000 -0.118929496  0.589348096 -0.132524072 -0.203266880 0 0 0 0
5151550000 -0.062055648  0.598297472 -0.146888176 -0.204629168 0 0 0 0
5156600000 -0.002071333  0.605157632 -0.168102192 -0.199662976 0 0 0 0
5161650000  0.057201084  0.602960192 -0.183713280 -0.197600944 0 0 0 0
5166700000  0.116987808  0.591759040 -0.201365264 -0.191803808 0 0 0 0
5171750000  0.167616384  0.582025024 -0.219999872 -0.181717072 0 0 0 0
5176800000  0.224341296  0.560337216 -0.237946864 -0.168205104 0 0 0 0
5181850000  0.275000864  0.541016576 -0.254336560 -0.153075584 0 0 0 0
5186900000  0.324504096  0.517105088 -0.268284448 -0.138192704 0 0 0 0
5191950000  0.370211776  0.488609856 -0.281658528 -0.115606824 0 0 0 0
5197000000  0.414848256  0.455358880 -0.289650848 -0.099145152 0 0 0 0
5202050000  0.451968864  0.418423904 -0.296852416 -0.079737760 0 0 0 0
5207100000  0.490111456  0.382951744 -0.302399584 -0.055796864 0 0 0 0
5212150000  0.524207104  0.340770336 -0.303408256 -0.038931776 0 0 0 0
5217200000  0.555484864  0.296418848 -0.303232000 -0.017942452 0 0 0 0
5222250000  0.581023744  0.249940496 -0.301620416  0.002425290 0 0 0 0
5227300000  0.602846144  0.200954304 -0.297576000  0.021365846 0 0 0 0
5232350000  0.622353792  0.155477728 -0.292584992  0.035732156 0 0 0 0
5237400000  0.636128896  0.099415824 -0.286412352  0.051133676 0 0 0 0
5242450000  0.644789376  0.047266308 -0.278330944  0.067955152 0 0 0 0
5247500000  0.650100736 -0.007647761 -0.270539680  0.080215240 0 0 0 0
5252550000  0.651189504 -0.062043856 -0.264165904  0.089676912 0 0 0 0
5257600000  0.646522432 -0.114935992 -0.255288160  0.100814056 0 0 0 0
5262650000  0.637062528 -0.168343952 -0.248313968  0.107689728 0 0 0 0
5267700000  0.622374528 -0.222727776 -0.239409792  0.118384616 0 0 0 0
5272750000  0.604199488 -0.276709088 -0.231657280  0.124969248 0 0 0 0
5277800000  0.576638208 -0.329950880 -0.225619536  0.131501528 0 0 0 0
5282850000  0.553592192 -0.375928768 -0.219547920  0.136938864 0 0 0 0
5287900000  0.515850176 -0.425003872 -0.214214688  0.142177376 0 0 0 0
5292950000  0.477118624 -0.468643456 -0.208455952  0.148043648 0 0 0 0
5298000000  0.436985120 -0.512943456 -0.202397168  0.154736896 0 0 0 0
5303050000  0.380541344 -0.552663296 -0.198431344  0.159354240 0 0 0 0
5308100000  0.334026784 -0.583772800 -0.193648768  0.165167744 0 0 0 0
5313150000  0.274031328 -0.613674112 -0.189226640  0.170955472 0 0 0 0
5318200000  0.214641488 -0.638425536 -0.185555120  0.175347040 0 0 0 0
5323250000  0.143400752 -0.655628416 -0.180677824  0.182256480 0 0 0 0
5328300000  0.076701280 -0.665006336 -0.176114656  0.187469888 0 0 0 0
5333350000  0.008458436 -0.663923072 -0.169644304  0.194874992 0 0 0 0
5338400000 -0.060533120 -0.657732736 -0.166952400  0.199228512 0 0 0 0
5343450000 -0.114714312 -0.651339456 -0.164155616  0.202650928 0 0 0 0
5348500000 -0.217335504 -0.596532864 -0.150234752  0.214237792 0 0 0 0
5353550000 -0.250517808 -0.599045312 -0.150815936  0.215976320 0 0 0 0
5358600000 -0.311809696 -0.561188608 -0.143135376  0.222826912 0 0 0 0
5363650000 -0.382186656 -0.490523264 -0.133669168  0.229350320 0 0 0 0
5368700000 -0.422963840 -0.443853888 -0.130701808  0.233139952 0 0 0 0
5373750000 -0.460395808 -0.402448832 -0.123637640  0.238342448 0 0 0 0
5378800000 -0.497024672 -0.344391936 -0.118393528  0.243891696 0 0 0 0
5383850000 -0.523857536 -0.284516768 -0.109676904  0.249931536 0 0 0 0
5388900000 -0.546001920 -0.231227760 -0.106186912  0.254186864 0 0 0 0
5393950000 -0.565928448 -0.150911312 -0.093461368  0.262180960 0 0 0 0
5399000000 -0.572337856 -0.107135040 -0.091373552  0.266248736 0 0 0 0
5404050000 -0.578135424 -0.025264570 -0.077031616  0.274038368 0 0 0 0
5409100000 -0.573339712  0.030614560 -0.067490608  0.280360704 0 0 0 0
5414150000 -0.564450048  0.100287752 -0.060035992  0.285634112 0 0 0 0
5419200000 -0.547361984  0.160719984 -0.052031828  0.291199392 0 0 0 0
5424250000 -0.520632864  0.216946976 -0.037292720  0.296396512 0 0 0 0
5429300000 -0.489593120  0.285826784 -0.020988448  0.301856320 0 0 0 0
5434350000 -0.463029728  0.330179840 -0.008992910  0.305780256 0 0 0 0
5439400000 -0.415273216  0.378806336  0.004566209  0.309471584 0 0 0 0
5444450000 -0.365430048  0.426113728  0.017218576  0.311501920 0 0 0 0
5449500000 -0.321187616  0.458546272  0.037912380  0.313160128 0 0 0 0
5454550000 -0.264159136  0.489724096  0.051835056  0.313366048 0 0 0 0
5459600000 -0.226557904  0.525133440  0.071276592  0.311770496 0 0 0 0
5464650000 -0.158123328  0.540368000  0.085869024  0.309797408 0 0 0 0
5469700000 -0.105296760  0.555833536  0.104815128  0.305280768 0 0 0 0
5474750000 -0.043202376  0.562553664  0.122223904  0.298949504 0 0 0 0
5479800000  0.011988126  0.566309632  0.138297408  0.291644544 0 0 0 0
5484850000  0.064930164  0.567236480  0.156430576  0.282099424 0 0 0 0
5489900000  0.124044088  0.552926272  0.168531872  0.273466304 0 0 0 0
5494950000  0.179969104  0.541319104  0.183170240  0.261616176 0 0 0 0
5500000000  0.225720848  0.521998272  0.197450848  0.247177888 0 0 0 0
5505050000  0.277762400  0.498390592  0.205479184  0.236887488 0 0 0 0
5510100000  0.323946688  0.471719264  0.216211584  0.221343328 0 0 0 0
5515150000  0.365441536  0.442689728  0.226596848  0.205684960 0 0 0 0
5520200000  0.406195168  0.409548416  0.229065984  0.195151216 0 0 0 0
5525250000  0.441114016  0.374338016  0.236801888  0.179179520 0 0 0 0
5530300000  0.474000640  0.328717088  0.239578752  0.167404800 0 0 0 0
5535350000  0.497296320  0.290797248  0.244580624  0.152498480 0 0 0 0
5540400000  0.521170432  0.240541392  0.246084304  0.141911120 0 0 0 0
5545450000  0.539827712  0.194415488  0.248115632  0.128877328 0 0 0 0
5550500000  0.554644224  0.147470512  0.249092896  0.119093952 0 0 0 0
5555550000  0.559989376  0.100820880  0.249239520  0.108524952 0 0 0 0
5560600000  0.570546176  0.058175600  0.249565776  0.101583088 0 0 0 0
5565650000  0.559375232  0.000298407  0.250295136  0.091432896 0 0 0 0
5570700000  0.555758848 -0.045682784  0.249685648  0.083387856 0 0 0 0
5575750000  0.549028736 -0.091843568  0.250714480  0.073450416 0 0 0 0
5580800000  0.534901984 -0.139468496  0.249617344  0.068717624 0 0 0 0
5585850000  0.521140640 -0.179907216  0.250178512  0.060783940 0 0 0 0
5590900000  0.499716832 -0.223237824  0.250629072  0.057817960 0 0 0 0
5595950000  0.468069056 -0.264624720  0.250944400  0.050545864 0 0 0 0
5601000000  0.436010240 -0.303265952  0.252477408  0.041516244 0 0 0 0
5606050000  0.405615072 -0.333968768  0.253702608  0.039563144 0 0 0 0
5611100000  0.370564512 -0.362938112  0.255218768  0.033210632 0 0 0 0
5616150000  0.335969120 -0.387629984  0.256769248  0.033391074 0 0 0 0
5621200000  0.284051840 -0.412198560  0.259824064  0.021055968 0 0 0 0
5626250000  0.244386864 -0.427134496  0.262268992  0.014434451 0 0 0 0
5631300000  0.210921440 -0.445752736  0.265064480  0.011216497 0 0 0 0
5636350000  0.151711248 -0.445745888  0.268132352  0.001662502 0 0 0 0
5641400000  0.121304224 -0.455007616  0.271220032 -0.002287193 0 0 0 0
5646450000  0.059090168 -0.446978048  0.274376192 -0.013928969 0 0 0 0
5651500000  0.031403180 -0.448372544  0.276899168 -0.021977030 0 0 0 0
5656550000 -0.022291524 -0.434317312  0.280051456 -0.031349362 0 0 0 0
5661600000 -0.046538156 -0.425444480  0.283484544 -0.038397300 0 0 0 0
5666650000 -0.085400840 -0.410802336  0.285546016 -0.051128980 0 0 0 0
5671700000 -0.129577680 -0.387431776  0.287685440 -0.063112400 0 0 0 0
5676750000 -0.151399248 -0.374348448  0.289398176 -0.074965304 0 0 0 0
5681800000 -0.183902384 -0.347580096  0.291707680 -0.084941360 0 0 0 0
5686850000 -0.210453648 -0.323170592  0.292076064 -0.098545240 0 0 0 0
5691900000 -0.240423376 -0.293943168  0.292199616 -0.112220320 0 0 0 0
5696950000 -0.266088928 -0.266301216  0.291059360 -0.128145960 0 0 0 0
5702000000 -0.277350912 -0.245720320  0.288962880 -0.144913648 0 0 0 0
5707050000 -0.298901376 -0.214187120  0.288882784 -0.156096608 0 0 0 0
5712100000 -0.317397280 -0.181303760  0.283694176 -0.175062432 0 0 0 0
5717150000 -0.330026080 -0.151653568  0.280017952 -0.187633552 0 0 0 0
5722200000 -0.339502016 -0.119654816  0.274443552 -0.205792160 0 0 0 0
5727250000 -0.350325632 -0.087835016  0.264726944 -0.224132496 0 0 0 0
5732300000 -0.362230720 -0.048426992  0.257944320 -0.239915632 0 0 0 0
5737350000 -0.365087200 -0.016094851  0.245325520 -0.257299088 0 0 0 0
5742400000 -0.365720704  0.023545296  0.238185280 -0.271502816 0 0 0 0
5747450000 -0.370161440  0.061272668  0.220315872 -0.289615616 0 0 0 0
5752500000 -0.358423168  0.095855080  0.204994448 -0.306312480 0 0 0 0
5757550000 -0.354939456  0.133506152  0.192141248 -0.319648288 0 0 0 0
5762600000 -0.342985184  0.163386832  0.170172848 -0.334950144 0 0 0 0
5767650000 -0.329785600  0.202068112  0.155551504 -0.344859648 0 0 0 0
5772700000 -0.311675296  0.241449600  0.132644880 -0.357599296 0 0 0 0
5777750000 -0.286328256  0.262734240  0.113667856 -0.365930304 0 0 0 0
5782800000 -0.266261184  0.298419968  0.091729936 -0.374080256 0 0 0 0
5787850000 -0.243763568  0.323312736  0.065130360 -0.380734400 0 0 0 0
5792900000 -0.204641920  0.347936128  0.048022224 -0.383694336 0 0 0 0
5797950000 -0.174926288  0.372089152  0.020086864 -0.385788352 0 0 0 0
5803000000 -0.141963760  0.392256896 -0.012324101 -0.385212768 0 0 0 0
5808050000 -0.103581336  0.404371968 -0.035961648 -0.382726240 0 0 0 0
5813100000 -0.067344664  0.414868608 -0.054147352 -0.378538752 0 0 0 0
5818150000 -0.026120188  0.425330016 -0.076920456 -0.371877280 0 0 0 0
5823200000  0.014913680  0.428357504 -0.102406336 -0.362501952 0 0 0 0
5828250000  0.054347184  0.428657312 -0.122287152 -0.353153568 0 0 0 0
5833300000  0.092263192  0.425390656 -0.141025232 -0.342006176 0 0 0 0
5838350000  0.128309992  0.420851872 -0.155291216 -0.331179392 0 0 0 0
5843400000  0.168219952  0.410627168 -0.172984880 -0.317550880 0 0 0 0
5848450000  0.208634384  0.394634848 -0.187085856 -0.303991712 0 0 0 0
5853500000  0.239246944  0.378138848 -0.202355776 -0.287379168 0 0 0 0
5858550000  0.275677696  0.353251712 -0.214579888 -0.272838208 0 0 0 0
5863600000  0.303220192  0.329625216 -0.224661104 -0.257911952 0 0 0 0
5868650000  0.330494240  0.307389184 -0.232628800 -0.243362048 0 0 0 0
5873700000  0.364882496  0.275040608 -0.240705072 -0.228070848 0 0 0 0
5878750000  0.380388672  0.243246512 -0.249414576 -0.211225408 0 0 0 0
5883800000  0.401760480  0.212030128 -0.252918512 -0.200640496 0 0 0 0
5888850000  0.415841600  0.175470256 -0.259140288 -0.185357664 0 0 0 0
5893900000  0.435475072  0.137007872 -0.262517600 -0.173348560 0 0 0 0
5898950000  0.437981280  0.099791520 -0.267189808 -0.159348768 0 0 0 0
5904000000  0.446005536  0.062860660 -0.270241024 -0.146746016 0 0 0 0
5909050000  0.447583840  0.025060266 -0.272896352 -0.137455680 0 0 0 0
5914100000  0.443941696 -0.012121939 -0.276625984 -0.123734624 0 0 0 0
5919150000  0.441617440 -0.053256200 -0.280736960 -0.110793448 0 0 0 0
5924200000  0.425095072 -0.093321264 -0.285480768 -0.093386400 0 0 0 0
5929250000  0.419133088 -0.122659680 -0.287876064 -0.082555448 0 0 0 0
5934300000  0.408487104 -0.157473072 -0.289707232 -0.074246992 0 0 0 0
5939350000  0.377274816 -0.193360512 -0.293881344 -0.056561304 0 0 0 0
5944400000  0.355605408 -0.223641328 -0.295126368 -0.046889144 0 0 0 0
5949450000  0.332958464 -0.252939280 -0.298240288 -0.030929416 0 0 0 0
5954500000  0.313217504 -0.276574016 -0.300261632 -0.015366787 0 0 0 0
5959550000  0.287406752 -0.298917216 -0.300468672 -0.002020934 0 0 0 0
5964600000  0.254311744 -0.314179584 -0.300182784  0.015766120 0 0 0 0
5969650000  0.229239056 -0.332493248 -0.299859264  0.029381372 0 0 0 0
5974700000  0.196642464 -0.348593792 -0.297053664  0.047457812 0 0 0 0
5979750000  0.166135744 -0.360603584 -0.294559200  0.062841876 0 0 0 0
5984800000  0.132869184 -0.373589120 -0.290289824  0.080909112 0 0 0 0
5989850000  0.105779320 -0.380638176 -0.285046144  0.095309528 0 0 0 0
5994900000  0.060907164 -0.386036992 -0.277604832  0.114589160 0 0 0 0
5999950000  0.030994546 -0.389638656 -0.270037504  0.130191608 0 0 0 0
6005000000  0.003291368 -0.391921664 -0.259526576  0.147009648 0 0 0 0
