!File created by NanoVNA
# Hz S RI R 50
4995000000  0.211963344 -0.721926720  0.003611472 -0.102844176 0 0 0 0
5000050000  0.138404480 -0.735840896  0.003468424 -0.103689824 0 0 0 0
5005100000  0.068701216 -0.744285504  0.003043943 -0.104563816 0 0 0 0
5010150000 -0.013614845 -0.741762752  0.002754865 -0.105887600 0 0 0 0
5015200000 -0.090523528 -0.736656000  0.002595316 -0.107526680 0 0 0 0
5020250000 -0.160427952 -0.720051712 -0.001151282 -0.110573112 0 0 0 0
5025300000 -0.247993536 -0.686989824 -0.001851612 -0.112303448 0 0 0 0
5030350000 -0.307810912 -0.660075008 -0.003953822 -0.114264816 0 0 0 0
5035400000 -0.378422016 -0.609452352 -0.004092138 -0.116465128 0 0 0 0
5040450000 -0.438695424 -0.554561728 -0.005591866 -0.118639256 0 0 0 0
5045500000 -0.492061664 -0.497939264 -0.007955693 -0.120970720 0 0 0 0
5050550000 -0.534165728 -0.434652736 -0.008892358 -0.123526184 0 0 0 0
5055600000 -0.570392960 -0.367109568 -0.012042911 -0.125935856 0 0 0 0
5060650000 -0.595317760 -0.301701792 -0.012515366 -0.128880096 0 0 0 0
5065700000 -0.618151488 -0.228928512 -0.014993108 -0.131900776 0 0 0 0
5070750000 -0.630570112 -0.164689200 -0.017655200 -0.135401184 0 0 0 0
5075800000 -0.635730240 -0.082949792 -0.019728150 -0.139156528 0 0 0 0
5080850000 -0.634547072 -0.020111008 -0.022070788 -0.142944432 0 0 0 0
5085900000 -0.623312768  0.056441676 -0.026101776 -0.147292384 0 0 0 0
5090950000 -0.613745920  0.117225704 -0.028490084 -0.152204368 0 0 0 0
5096000000 -0.592148864  0.178204752 -0.032188274 -0.157253952 0 0 0 0
5101050000 -0.558989696  0.252362096 -0.037386584 -0.162340032 0 0 0 0
5106100000 -0.528797376  0.307234240 -0.045041092 -0.167350432 0 0 0 0
5111150000 -0.488539520  0.361528832 -0.049741692 -0.173749888 0 0 0 0
5116200000 -0.442138240  0.417124288 -0.058899952 -0.178596912 0 0 0 0
5121250000 -0.396698368  0.451742272 -0.066675084 -0.184423632 0 0 0 0
5126300000 -0.341008928  0.493987744 -0.076724072 -0.189632736 0 0 0 0
5131350000 -0.293616192  0.522768192 -0.087603824 -0.194615712 0 0 0 0
5136400000 -0.232283136  0.552519424 -0.099517360 -0.198600768 0 0 0 0
5141450000 -0.173472784  0.576175296 -0.114761368 -0.200936176 0 0 0 0
5146500000 -0.115191136  0.585474176 -0.129546208 -0.202952000 0 0 0 0
5151550000 -0.053753908  0.596947008 -0.146709552 -0.201952320 0 0 0 0
5156600000 -0.001429827  0.599922112 -0.164006256 -0.199721808 0 0 0 0
5161650000  0.064090612  0.600376704 -0.182139360 -0.195430848 0 0 0 0
5166700000  0.115969696  0.586952768 -0.198481424 -0.190916656 0 0 0 0
5171750000  0.172385632  0.578404160 -0.217544608 -0.180040000 0 0 0 0
5176800000  0.226709920  0.556455360 -0.234088544 -0.168377520 0 0 0 0
5181850000  0.278061824  0.537173952 -0.251276736 -0.152474000 0 0 0 0
5186900000  0.324590752  0.512781632 -0.263899120 -0.139704992 0 0 0 0
5191950000  0.372054336  0.484705472 -0.276572512 -0.120048160 0 0 0 0
5197000000  0.415515712  0.451357920 -0.286196000 -0.100817496 0 0 0 0
5202050000  0.453922688  0.414179520 -0.293652128 -0.080601976 0 0 0 0
5207100000  0.491063328  0.379207328 -0.298816320 -0.058272860 0 0 0 0
5212150000  0.526147488  0.336528960 -0.300857792 -0.038258804 0 0 0 0
5217200000  0.556610944  0.292337952 -0.300536192 -0.019836558 0 0 0 0
5222250000  0.581354496  0.245896784 -0.298338400 -0.000369893 0 0 0 0
5227300000  0.602794816  0.196966992 -0.295448800  0.017947800 0 0 0 0
5232350000  0.621687552  0.151521840 -0.290174336  0.033492518 0 0 0 0
5237400000  0.634600704  0.094444232 -0.284089568  0.051475140 0 0 0 0
5242450000  0.643156992  0.042369792 -0.277381728  0.064255192 0 0 0 0
5247500000  0.649521792 -0.008189660 -0.269322400  0.076248088 0 0 0 0
5252550000  0.647438848 -0.065882764 -0.262332496  0.088904504 0 0 0 0
5257600000  0.643258816 -0.117245872 -0.254197504  0.098474672 0 0 0 0
5262650000  0.635204160 -0.167519200 -0.247933856  0.103726120 0 0 0 0
5267700000  0.619790656 -0.222146800 -0.238958784  0.115953240 0 0 0 0
5272750000  0.601200768 -0.275639968 -0.231451040  0.122200848 0 0 0 0
5277800000  0.575921664 -0.327216000 -0.226145840  0.127343776 0 0 0 0
5282850000  0.547692928 -0.374555424 -0.219392240  0.134739632 0 0 0 0
5287900000  0.513759680 -0.421360896 -0.215180928  0.138075440 0 0 0 0
5292950000  0.470082432 -0.465732832 -0.208026736  0.146436144 0 0 0 0
5298000000  0.427824032 -0.508391808 -0.203818624  0.151050976 0 0 0 0
5303050000  0.378986368 -0.546006528 -0.198121312  0.157753488 0 0 0 0
5308100000  0.332982464 -0.578404480 -0.193798832  0.163571616 0 0 0 0
5313150000  0.277656480 -0.607918144 -0.190398928  0.168456304 0 0 0 0
5318200000  0.209804752 -0.627533248 -0.186657904  0.173309808 0 0 0 0
5323250000  0.144415792 -0.648469312 -0.181865152  0.179954160 0 0 0 0
5328300000  0.069201408 -0.654573760 -0.176392720  0.186637344 0 0 0 0
5333350000  0.012260797 -0.655852416 -0.172230224  0.191811328 0 0 0 0
5338400000 -0.059799264 -0.649710272 -0.169889520  0.196028800 0 0 0 0
5343450000 -0.117802864 -0.639443968 -0.165139280  0.201550128 0 0 0 0
5348500000 -0.199860800 -0.609816256 -0.157330480  0.209324304 0 0 0 0
5353550000 -0.258631104 -0.577797952 -0.147386992  0.217345600 0 0 0 0
5358600000 -0.313040928 -0.532182528 -0.140188672  0.223389792 0 0 0 0
5363650000 -0.367107424 -0.492831936 -0.140001360  0.225741200 0 0 0 0
5368700000 -0.412596768 -0.442031200 -0.134007184  0.230713616 0 0 0 0
5373750000 -0.453113440 -0.392914208 -0.124944416  0.237543232 0 0 0 0
5378800000 -0.489465056 -0.338318304 -0.120692984  0.242870592 0 0 0 0
5383850000 -0.511960864 -0.284923808 -0.112876536  0.248423920 0 0 0 0
5388900000 -0.540051328 -0.217631696 -0.106799088  0.253608848 0 0 0 0
5393950000 -0.555611456 -0.155233632 -0.097446744  0.260770000 0 0 0 0
5399000000 -0.565061632 -0.087719872 -0.087533224  0.266578048 0 0 0 0
5404050000 -0.565618752 -0.037569760 -0.084620328  0.271417600 0 0 0 0
5409100000 -0.565519936  0.033563488 -0.069297216  0.279838176 0 0 0 0
5414150000 -0.555253120  0.098144768 -0.061820468  0.284365760 0 0 0 0
5419200000 -0.540094720  0.166185760 -0.052455712  0.289849280 0 0 0 0
5424250000 -0.511458688  0.221989472 -0.036500784  0.295824736 0 0 0 0
5429300000 -0.481974528  0.278049984 -0.026660712  0.300624416 0 0 0 0
5434350000 -0.454555872  0.327574752 -0.012738876  0.304664288 0 0 0 0
5439400000 -0.408878016  0.377516928 -0.000934930  0.309132384 0 0 0 0
5444450000 -0.358068480  0.429016064  0.016750807  0.311100352 0 0 0 0
5449500000 -0.315640512  0.457596128  0.033596812  0.313060256 0 0 0 0
5454550000 -0.257654336  0.491412544  0.050764072  0.313312224 0 0 0 0
5459600000 -0.218625312  0.528319360  0.069639176  0.311206144 0 0 0 0
5464650000 -0.152674656  0.541111424  0.083928768  0.310271456 0 0 0 0
5469700000 -0.099475488  0.557017344  0.102189104  0.305200608 0 0 0 0
5474750000 -0.040505012  0.558723712  0.118937616  0.299442624 0 0 0 0
5479800000  0.016603658  0.565791552  0.137075232  0.291457280 0 0 0 0
5484850000  0.068584808  0.566891648  0.153213936  0.283010848 0 0 0 0
5489900000  0.127393232  0.552281408  0.166836736  0.273328448 0 0 0 0
5494950000  0.181610192  0.539851456  0.180964624  0.262504704 0 0 0 0
5500000000  0.228063776  0.522184960  0.192827840  0.250431056 0 0 0 0
5505050000  0.281382144  0.498592928  0.203583168  0.237034016 0 0 0 0
5510100000  0.325677408  0.471964896  0.214750896  0.222593248 0 0 0 0
5515150000  0.367047616  0.443292800  0.223790432  0.207979776 0 0 0 0
5520200000  0.406854976  0.409974560  0.227864640  0.196228864 0 0 0 0
5525250000  0.441536352  0.374915008  0.233525264  0.183026608 0 0 0 0
5530300000  0.474194144  0.329356960  0.237795392  0.169705888 0 0 0 0
5535350000  0.497066400  0.290521984  0.242708672  0.155061840 0 0 0 0
5540400000  0.521486176  0.242274656  0.244387888  0.144027360 0 0 0 0
5545450000  0.542026816  0.197943472  0.244857344  0.135643296 0 0 0 0
5550500000  0.552028160  0.146536160  0.249089792  0.117897640 0 0 0 0
5555550000  0.560115328  0.102466848  0.247565808  0.111526896 0 0 0 0
5560600000  0.565840768  0.055059360  0.248272064  0.100258448 0 0 0 0
5565650000  0.563180672  0.003644950  0.248057952  0.093446144 0 0 0 0
5570700000  0.552933952 -0.046238088  0.248913776  0.082464736 0 0 0 0
5575750000  0.554588544 -0.085252944  0.247806912  0.076750552 0 0 0 0
5580800000  0.535901952 -0.138142896  0.247557936  0.071777696 0 0 0 0
5585850000  0.521882176 -0.177206480  0.247935680  0.065003524 0 0 0 0
5590900000  0.487042304 -0.223294160  0.248672624  0.058150048 0 0 0 0
5595950000  0.463345056 -0.261139456  0.249266096  0.052222276 0 0 0 0
5601000000  0.438550176 -0.297403296  0.250520352  0.047556212 0 0 0 0
5606050000  0.401251904 -0.332834464  0.252012112  0.041454356 0 0 0 0
5611100000  0.374103392 -0.359326528  0.253336880  0.036704780 0 0 0 0
5616150000  0.324423392 -0.385691104  0.256243888  0.029159558 0 0 0 0
5621200000  0.284518656 -0.408926048  0.257907952  0.026171684 0 0 0 0
5626250000  0.241895648 -0.422448704  0.260862592  0.019443776 0 0 0 0
5631300000  0.199529040 -0.439832448  0.263938752  0.011479286 0 0 0 0
5636350000  0.145645968 -0.440836832  0.266708016  0.003602282 0 0 0 0
5641400000  0.112068520 -0.447733504  0.270294240 -0.001136574 0 0 0 0
5646450000  0.059342436 -0.443094304  0.273427232 -0.010338313 0 0 0 0
5651500000  0.031198050 -0.441928992  0.276246752 -0.019045758 0 0 0 0
5656550000 -0.018489934 -0.429430976  0.279631840 -0.026923452 0 0 0 0
5661600000 -0.057089940 -0.415855168  0.282009152 -0.039216584 0 0 0 0
5666650000 -0.089850696 -0.399669504  0.284243360 -0.047704112 0 0 0 0
5671700000 -0.121173384 -0.383299584  0.287814912 -0.055851532 0 0 0 0
5676750000 -0.164301568 -0.356636256  0.287983232 -0.072615656 0 0 0 0
5681800000 -0.190373200 -0.334720160  0.291144480 -0.081751752 0 0 0 0
5686850000 -0.202320880 -0.318165056  0.292802272 -0.092514944 0 0 0 0
5691900000 -0.241187280 -0.286773984  0.293436864 -0.107391536 0 0 0 0
5696950000 -0.260146352 -0.261262416  0.291851104 -0.122658064 0 0 0 0
5702000000 -0.278401152 -0.234854304  0.289166400 -0.142339664 0 0 0 0
5707050000 -0.297645600 -0.201323536  0.288907680 -0.152518368 0 0 0 0
5712100000 -0.312935040 -0.172799024  0.285358016 -0.169958992 0 0 0 0
5717150000 -0.324468192 -0.145414960  0.282985152 -0.182620000 0 0 0 0
5722200000 -0.338345024 -0.107351320  0.276558560 -0.200167792 0 0 0 0
5727250000 -0.347913440 -0.076726360  0.267024048 -0.219165984 0 0 0 0
5732300000 -0.358149376 -0.038267756  0.260390576 -0.233816976 0 0 0 0
5737350000 -0.362808928 -0.005395693  0.244380960 -0.255854336 0 0 0 0
5742400000 -0.357266240  0.029938514  0.240519184 -0.265110704 0 0 0 0
5747450000 -0.360431200  0.063180864  0.225119120 -0.283233728 0 0 0 0
5752500000 -0.351608096  0.099682992  0.209546496 -0.300257280 0 0 0 0
5757550000 -0.348451968  0.136536800  0.196550640 -0.314619040 0 0 0 0
5762600000 -0.335125792  0.166413024  0.177396304 -0.328717376 0 0 0 0
5767650000 -0.323844896  0.203484224  0.162968528 -0.339352704 0 0 0 0
5772700000 -0.304988416  0.238993936  0.137002960 -0.353617280 0 0 0 0
5777750000 -0.281974208  0.264421792  0.119272368 -0.362158624 0 0 0 0
5782800000 -0.261892736  0.299323392  0.099653128 -0.369710336 0 0 0 0
5787850000 -0.238223472  0.319501088  0.074584120 -0.376971072 0 0 0 0
5792900000 -0.203407312  0.350223392  0.052685376 -0.381752640 0 0 0 0
5797950000 -0.172699568  0.370158784  0.029145124 -0.383123040 0 0 0 0
5803000000 -0.139380368  0.388971200 -0.001003485 -0.383949568 0 0 0 0
5808050000 -0.102884536  0.402882112 -0.025945482 -0.381730656 0 0 0 0
5813100000 -0.068780888  0.414231456 -0.045476900 -0.378113120 0 0 0 0
5818150000 -0.026823154  0.423667744 -0.066392532 -0.373772512 0 0 0 0
5823200000  0.012266696  0.428291712 -0.091862360 -0.364585632 0 0 0 0
5828250000  0.052680952  0.427807904 -0.110667744 -0.355595008 0 0 0 0
5833300000  0.088129824  0.424791488 -0.131015552 -0.344878944 0 0 0 0
5838350000  0.124724120  0.420237376 -0.146915392 -0.334005248 0 0 0 0
5843400000  0.163785760  0.410088096 -0.164832192 -0.321763744 0 0 0 0
5848450000  0.202411664  0.392950752 -0.182812272 -0.306223200 0 0 0 0
5853500000  0.234361008  0.379789184 -0.193422832 -0.293773184 0 0 0 0
5858550000  0.273515456  0.358299776 -0.203652160 -0.281308448 0 0 0 0
5863600000  0.297349568  0.331561760 -0.217209760 -0.264400688 0 0 0 0
5868650000  0.328807424  0.312288384 -0.223345648 -0.252521664 0 0 0 0
5873700000  0.358898208  0.275147008 -0.234743888 -0.235507344 0 0 0 0
5878750000  0.379591968  0.249287104 -0.239801344 -0.223190832 0 0 0 0
5883800000  0.393467328  0.210540336 -0.248303440 -0.206939760 0 0 0 0
5888850000  0.414255936  0.179481104 -0.252677376 -0.195006944 0 0 0 0
5893900000  0.432928320  0.139527872 -0.256797696 -0.183319984 0 0 0 0
5898950000  0.438116704  0.105803376 -0.260123440 -0.172171232 0 0 0 0
5904000000  0.443251040  0.066637332 -0.266440448 -0.156064800 0 0 0 0
5909050000  0.447759328  0.028214638 -0.269869920 -0.146161936 0 0 0 0
5914100000  0.434447200 -0.015350985 -0.274257120 -0.132415816 0 0 0 0
5919150000  0.441626304 -0.049840632 -0.278594784 -0.121073056 0 0 0 0
5924200000  0.430368192 -0.087188776 -0.281160128 -0.110941360 0 0 0 0
5929250000  0.417227968 -0.123141672 -0.286746784 -0.097421592 0 0 0 0
5934300000  0.407381184 -0.156142848 -0.288340288 -0.086213640 0 0 0 0
5939350000  0.368893024 -0.195420544 -0.293262560 -0.069785920 0 0 0 0
5944400000  0.354610752 -0.222352176 -0.296220896 -0.058589088 0 0 0 0
5949450000  0.336114688 -0.251246576 -0.299718912 -0.046072552 0 0 0 0
5954500000  0.313828288 -0.276500352 -0.302600320 -0.029384072 0 0 0 0
5959550000  0.281345536 -0.299057600 -0.303578688 -0.015827403 0 0 0 0
5964600000  0.247038320 -0.316799328 -0.304397184  0.000621899 0 0 0 0
5969650000  0.220724512 -0.331708320 -0.305095936  0.016377537 0 0 0 0
5974700000  0.181907568 -0.351188288 -0.303731808  0.036723732 0 0 0 0
5979750000  0.161249136 -0.357461920 -0.301733984  0.050652080 0 0 0 0
5984800000  0.128197136 -0.370894304 -0.298821888  0.067155720 0 0 0 0
5989850000  0.091888016 -0.378374720 -0.294136864  0.084968008 0 0 0 0
5994900000  0.057717888 -0.383669888 -0.286906496  0.106138808 0 0 0 0
5999950000  0.021082768 -0.385926016 -0.281505792  0.118757848 0 0 0 0
6005000000 -0.013426383 -0.386305344 -0.269947424  0.139800592 0 0 0 0
