!File created by NanoVNA
# Hz S RI R 50
4995000000  0.212956624 -0.725210560  0.005057650 -0.102862632 0 0 0 0
5000050000  0.134621936 -0.739203200  0.004484253 -0.103800088 0 0 0 0
5005100000  0.067799408 -0.746924608  0.003205849 -0.104690760 0 0 0 0
5010150000 -0.016110117 -0.745626112  0.003175289 -0.106079528 0 0 0 0
5015200000 -0.094399224 -0.737990272  0.003453580 -0.107407112 0 0 0 0
5020250000 -0.159666800 -0.723893696 -0.000240442 -0.110489600 0 0 0 0
5025300000 -0.242730016 -0.697612544 -0.000775660 -0.112300808 0 0 0 0
5030350000 -0.315568544 -0.659321280 -0.002928346 -0.114428664 0 0 0 0
5035400000 -0.382539552 -0.614897984 -0.003234410 -0.116557768 0 0 0 0
5040450000 -0.443511680 -0.553427072 -0.005686328 -0.118527088 0 0 0 0
5045500000 -0.497130016 -0.501634848 -0.006257981 -0.121131240 0 0 0 0
5050550000 -0.541777536 -0.434806592 -0.008273200 -0.123588584 0 0 0 0
5055600000 -0.574197248 -0.369024896 -0.010585034 -0.125744688 0 0 0 0
5060650000 -0.602207680 -0.300060992 -0.011362384 -0.128893896 0 0 0 0
5065700000 -0.623993984 -0.229555120 -0.013507619 -0.132030040 0 0 0 0
5070750000 -0.636525120 -0.160561552 -0.015961735 -0.135479488 0 0 0 0
5075800000 -0.643163328 -0.078512544 -0.018006566 -0.139306992 0 0 0 0
5080850000 -0.641804736 -0.020396856 -0.020194086 -0.143263072 0 0 0 0
5085900000 -0.632900608  0.052069968 -0.023477602 -0.147644736 0 0 0 0
5090950000 -0.618822720  0.125789640 -0.028030968 -0.152257632 0 0 0 0
5096000000 -0.597334528  0.184087616 -0.030867650 -0.157458992 0 0 0 0
5101050000 -0.565204096  0.257810112 -0.035887336 -0.162525408 0 0 0 0
5106100000 -0.536282240  0.309522048 -0.042937376 -0.167657136 0 0 0 0
5111150000 -0.494182656  0.365187008 -0.048623552 -0.173878016 0 0 0 0
5116200000 -0.452298784  0.416377248 -0.055053864 -0.179851296 0 0 0 0
5121250000 -0.403001216  0.454899296 -0.064125924 -0.185150816 0 0 0 0
5126300000 -0.349976160  0.494653504 -0.072567560 -0.191234608 0 0 0 0
5131350000 -0.298956000  0.526183840 -0.084387304 -0.195209472 0 0 0 0
5136400000 -0.234759408  0.558041984 -0.098019960 -0.199478688 0 0 0 0
5141450000 -0.179730768  0.579566464 -0.111791440 -0.202700880 0 0 0 0
5146500000 -0.117505080  0.589703424 -0.128927736 -0.202517792 0 0 0 0
5151550000 -0.055994428  0.603016384 -0.142801408 -0.204870560 0 0 0 0
5156600000 -0.007860329  0.602847040 -0.160329200 -0.202884112 0 0 0 0
5161650000  0.061210224  0.605448640 -0.178815392 -0.199052272 0 0 0 0
5166700000  0.118201528  0.592469824 -0.198303824 -0.190997888 0 0 0 0
5171750000  0.171215952  0.582801920 -0.215576672 -0.182953872 0 0 0 0
5176800000  0.226467440  0.560448896 -0.231213728 -0.172075712 0 0 0 0
5181850000  0.275266368  0.541004352 -0.248367264 -0.157845744 0 0 0 0
5186900000  0.324410688  0.516946304 -0.263202704 -0.140689008 0 0 0 0
5191950000  0.369380992  0.488403168 -0.274232928 -0.125182536 0 0 0 0
5197000000  0.416171872  0.454680128 -0.284576768 -0.105116936 0 0 0 0
5202050000  0.453485792  0.417400000 -0.292233440 -0.086101360 0 0 0 0
5207100000  0.492149696  0.381447904 -0.297705792 -0.062748076 0 0 0 0
5212150000  0.526546656  0.338849984 -0.300219648 -0.044955900 0 0 0 0
5217200000  0.556886336  0.295058432 -0.300428352 -0.024996564 0 0 0 0
5222250000  0.581012416  0.249560528 -0.298784544 -0.006392458 0 0 0 0
5227300000  0.603133312  0.199867632 -0.295436896  0.014333773 0 0 0 0
5232350000  0.622544704  0.153051792 -0.291279456  0.029403418 0 0 0 0
5237400000  0.636240768  0.097446208 -0.285659744  0.044102616 0 0 0 0
5242450000  0.644249152  0.044076552 -0.278444896  0.059776684 0 0 0 0
5247500000  0.650562496 -0.007766603 -0.270945984  0.072156600 0 0 0 0
5252550000  0.648930432 -0.065001184 -0.263796720  0.083949896 0 0 0 0
5257600000  0.644711168 -0.116272528 -0.256441200  0.092010120 0 0 0 0
5262650000  0.633588416 -0.170230032 -0.249979728  0.100495464 0 0 0 0
5267700000  0.620759744 -0.223670976 -0.241775120  0.110645992 0 0 0 0
5272750000  0.602220224 -0.277987264 -0.234545408  0.118380040 0 0 0 0
5277800000  0.576577408 -0.328853120 -0.229069392  0.123949864 0 0 0 0
5282850000  0.551245184 -0.374824928 -0.222625120  0.129636888 0 0 0 0
5287900000  0.516843264 -0.423162688 -0.218506448  0.133987856 0 0 0 0
5292950000  0.472670912 -0.467674048 -0.212134240  0.141685776 0 0 0 0
5298000000  0.440057184 -0.510816384 -0.208424512  0.146329600 0 0 0 0
5303050000  0.383159552 -0.550067840 -0.204644080  0.151481808 0 0 0 0
5308100000  0.333226112 -0.581964288 -0.197637104  0.160253632 0 0 0 0
5313150000  0.274122912 -0.611425408 -0.195041712  0.164930352 0 0 0 0
5318200000  0.217768528 -0.634537536 -0.191981184  0.168968144 0 0 0 0
5323250000  0.148491872 -0.653652992 -0.186107056  0.176816832 0 0 0 0
5328300000  0.077863352 -0.661630208 -0.180220096  0.183586624 0 0 0 0
5333350000  0.007636475 -0.662172288 -0.175527280  0.190844128 0 0 0 0
5338400000 -0.051139560 -0.661311104 -0.175921216  0.192844976 0 0 0 0
5343450000 -0.127834544 -0.640712832 -0.167253616  0.201687040 0 0 0 0
5348500000 -0.202505632 -0.605614464 -0.159129360  0.208848512 0 0 0 0
5353550000 -0.262617408 -0.574149952 -0.151619312  0.216420096 0 0 0 0
5358600000 -0.306565600 -0.551471104 -0.147705584  0.220233120 0 0 0 0
5363650000 -0.372406272 -0.501295136 -0.146823424  0.223480352 0 0 0 0
5368700000 -0.418551072 -0.446924800 -0.136780720  0.231158096 0 0 0 0
5373750000 -0.456899296 -0.399864832 -0.131306648  0.235922432 0 0 0 0
5378800000 -0.493620736 -0.342779136 -0.124925976  0.242342352 0 0 0 0
5383850000 -0.515637344 -0.294299584 -0.118226840  0.247889680 0 0 0 0
5388900000 -0.540795136 -0.239553440 -0.115500816  0.251489104 0 0 0 0
5393950000 -0.565813440 -0.149083440 -0.100886904  0.261088192 0 0 0 0
5399000000 -0.570903872 -0.112172552 -0.096941136  0.266025072 0 0 0 0
5404050000 -0.576481024 -0.031644784 -0.087769520  0.272613952 0 0 0 0
5409100000 -0.572925440  0.031927546 -0.075297808  0.280394048 0 0 0 0
5414150000 -0.562408000  0.090002480 -0.068882984  0.285224096 0 0 0 0
5419200000 -0.547374208  0.159769008 -0.059314532  0.291587136 0 0 0 0
5424250000 -0.520859232  0.221109904 -0.042790224  0.297288928 0 0 0 0
5429300000 -0.489815456  0.283236032 -0.031450272  0.302509408 0 0 0 0
5434350000 -0.461631648  0.325982656 -0.016242808  0.307219872 0 0 0 0
5439400000 -0.415839488  0.376645184 -0.003119230  0.310617440 0 0 0 0
5444450000 -0.369133280  0.418894176  0.007862657  0.314053920 0 0 0 0
5449500000 -0.323009408  0.458208544  0.028371154  0.315592320 0 0 0 0
5454550000 -0.265779104  0.490259264  0.042722360  0.317062080 0 0 0 0
5459600000 -0.226896624  0.528213440  0.063002544  0.315119104 0 0 0 0
5464650000 -0.159147280  0.541460544  0.078318472  0.313827360 0 0 0 0
5469700000 -0.105758336  0.558605952  0.097010816  0.310122496 0 0 0 0
5474750000 -0.047565172  0.560103296  0.114317360  0.303642784 0 0 0 0
5479800000  0.011118155  0.568257920  0.131740440  0.296757696 0 0 0 0
5484850000  0.064605184  0.569094272  0.148994624  0.287585600 0 0 0 0
5489900000  0.123006136  0.554592576  0.162414272  0.278465536 0 0 0 0
5494950000  0.178788464  0.542691904  0.177107152  0.267784800 0 0 0 0
5500000000  0.224981344  0.524314944  0.189191760  0.256208304 0 0 0 0
5505050000  0.277661856  0.500636352  0.200084976  0.243484800 0 0 0 0
5510100000  0.323608608  0.474321600  0.211323440  0.228801504 0 0 0 0
5515150000  0.365508416  0.445163808  0.221350608  0.213589408 0 0 0 0
5520200000  0.406516384  0.411845568  0.225980464  0.201451184 0 0 0 0
5525250000  0.441138304  0.376886304  0.232499744  0.187520512 0 0 0 0
5530300000  0.474096864  0.330083520  0.236979024  0.175309424 0 0 0 0
5535350000  0.498521376  0.293112832  0.239713648  0.162504400 0 0 0 0
5540400000  0.522689952  0.243524256  0.243871424  0.148798416 0 0 0 0
5545450000  0.542442624  0.197382816  0.245021872  0.137820096 0 0 0 0
5550500000  0.556862784  0.149807536  0.246542064  0.125782800 0 0 0 0
5555550000  0.563375104  0.103146736  0.246085616  0.118594456 0 0 0 0
5560600000  0.570885952  0.056184496  0.247229856  0.106264296 0 0 0 0
5565650000  0.566676288  0.002181203  0.247124624  0.100283152 0 0 0 0
5570700000  0.554391104 -0.047765220  0.247656544  0.088892760 0 0 0 0
5575750000  0.553819456 -0.090447624  0.247309104  0.083262384 0 0 0 0
5580800000  0.539474304 -0.139985200  0.246857792  0.077275880 0 0 0 0
5585850000  0.523867008 -0.179772144  0.247239152  0.069420224 0 0 0 0
5590900000  0.499030528 -0.224094608  0.248339824  0.064619116 0 0 0 0
5595950000  0.467428352 -0.266155120  0.248996944  0.058658372 0 0 0 0
5601000000  0.446491712 -0.301955712  0.250404304  0.050433076 0 0 0 0
5606050000  0.407097120 -0.335704640  0.251186784  0.048334460 0 0 0 0
5611100000  0.362516800 -0.367927552  0.253700384  0.040307244 0 0 0 0
5616150000  0.341816704 -0.391391328  0.255018352  0.041939000 0 0 0 0
5621200000  0.287563232 -0.414344832  0.257733648  0.034295616 0 0 0 0
5626250000  0.249483408 -0.431750880  0.260987616  0.024583160 0 0 0 0
5631300000  0.195999904 -0.448159296  0.264166416  0.017029112 0 0 0 0
5636350000  0.148134640 -0.449264736  0.266901968  0.011953775 0 0 0 0
5641400000  0.112443944 -0.455149248  0.270693152  0.006040442 0 0 0 0
5646450000  0.064708920 -0.451484128  0.273778752 -0.001528937 0 0 0 0
5651500000  0.028673928 -0.449123200  0.276641920 -0.011970885 0 0 0 0
5656550000 -0.008500639 -0.439176128  0.280415104 -0.019263404 0 0 0 0
5661600000 -0.055244532 -0.422607776  0.283374240 -0.031669640 0 0 0 0
5666650000 -0.080987056 -0.413576768  0.287129504 -0.036673948 0 0 0 0
5671700000 -0.135736144 -0.384251104  0.288906688 -0.052018952 0 0 0 0
5676750000 -0.155296080 -0.371187328  0.291579680 -0.060365824 0 0 0 0
5681800000 -0.194820384 -0.342122720  0.293387648 -0.076825336 0 0 0 0
5686850000 -0.215178800 -0.319241024  0.295115200 -0.087895488 0 0 0 0
5691900000 -0.238619296 -0.294003744  0.295831712 -0.099794344 0 0 0 0
5696950000 -0.263642528 -0.264619408  0.296363232 -0.113241384 0 0 0 0
5702000000 -0.280623520 -0.239622656  0.293705120 -0.133906632 0 0 0 0
5707050000 -0.301705920 -0.207025312  0.294711520 -0.143591744 0 0 0 0
5712100000 -0.316216128 -0.176193984  0.289843040 -0.163463568 0 0 0 0
5717150000 -0.323016928 -0.149972848  0.288314048 -0.173189424 0 0 0 0
5722200000 -0.345640416 -0.107590904  0.281179072 -0.195013680 0 0 0 0
5727250000 -0.352595200 -0.078653768  0.272845984 -0.213554784 0 0 0 0
5732300000 -0.347630272 -0.056286900  0.273190624 -0.220968880 0 0 0 0
5737350000 -0.363396800 -0.008694835  0.254828416 -0.247071968 0 0 0 0
5742400000 -0.357719136  0.022218356  0.249733552 -0.258843696 0 0 0 0
5747450000 -0.365804256  0.062454844  0.233350160 -0.278239488 0 0 0 0
5752500000 -0.349878080  0.092097712  0.222498112 -0.292885856 0 0 0 0
5757550000 -0.347813504  0.129936608  0.209144608 -0.307292576 0 0 0 0
5762600000 -0.337701664  0.161781088  0.191159024 -0.322659168 0 0 0 0
5767650000 -0.326451136  0.200394976  0.174108480 -0.334523552 0 0 0 0
5772700000 -0.304829056  0.232168976  0.153067024 -0.347899328 0 0 0 0
5777750000 -0.284943392  0.261125632  0.132753688 -0.358643712 0 0 0 0
5782800000 -0.263029008  0.292258944  0.111879480 -0.367583968 0 0 0 0
5787850000 -0.241962224  0.318478272  0.082554536 -0.376732160 0 0 0 0
5792900000 -0.203312752  0.342678592  0.069479912 -0.379455104 0 0 0 0
5797950000 -0.174726688  0.364973376  0.044255108 -0.383233376 0 0 0 0
5803000000 -0.142279440  0.384310368  0.015046907 -0.385178976 0 0 0 0
5808050000 -0.104990024  0.397922848 -0.011054247 -0.383842112 0 0 0 0
5813100000 -0.071899080  0.410337632 -0.028648442 -0.380967552 0 0 0 0
5818150000 -0.029005042  0.419942240 -0.047976240 -0.377444288 0 0 0 0
5823200000  0.009901362  0.425099520 -0.076427432 -0.369060224 0 0 0 0
5828250000  0.050106688  0.425111584 -0.095820992 -0.360619968 0 0 0 0
5833300000  0.088239720  0.424648288 -0.114564392 -0.351466304 0 0 0 0
5838350000  0.122081080  0.419477184 -0.136943424 -0.338660096 0 0 0 0
5843400000  0.161649184  0.410389152 -0.149189744 -0.330730752 0 0 0 0
5848450000  0.200202752  0.394901696 -0.167041088 -0.317028832 0 0 0 0
5853500000  0.236066960  0.383891168 -0.178731792 -0.305257856 0 0 0 0
5858550000  0.270054816  0.358105888 -0.194545984 -0.289358912 0 0 0 0
5863600000  0.298510208  0.335852320 -0.204679568 -0.276502784 0 0 0 0
5868650000  0.322872416  0.308620032 -0.217134352 -0.260123136 0 0 0 0
5873700000  0.359653760  0.277841632 -0.224493344 -0.247982848 0 0 0 0
5878750000  0.381842624  0.255287344 -0.230777280 -0.234986864 0 0 0 0
5883800000  0.400457280  0.218931824 -0.237239024 -0.222231808 0 0 0 0
5888850000  0.418335168  0.184139952 -0.244691408 -0.208132992 0 0 0 0
5893900000  0.435932448  0.143874112 -0.249074768 -0.196676160 0 0 0 0
5898950000  0.440923616  0.107137928 -0.253907024 -0.184948800 0 0 0 0
5904000000  0.453545600  0.069808304 -0.260344480 -0.171134048 0 0 0 0
5909050000  0.446128224  0.025958296 -0.264603552 -0.159776544 0 0 0 0
5914100000  0.444524352 -0.012482694 -0.269578720 -0.146395568 0 0 0 0
5919150000  0.452409792 -0.045405824 -0.271508384 -0.140832112 0 0 0 0
5924200000  0.427266144 -0.095400632 -0.280001728 -0.120950152 0 0 0 0
5929250000  0.417135904 -0.128813088 -0.284170048 -0.110255008 0 0 0 0
5934300000  0.425359712 -0.151758192 -0.284892608 -0.107216408 0 0 0 0
5939350000  0.381373344 -0.197677024 -0.292924640 -0.085798072 0 0 0 0
5944400000  0.369656704 -0.223910832 -0.296057216 -0.076541920 0 0 0 0
5949450000  0.337473504 -0.258888992 -0.300871584 -0.060317684 0 0 0 0
5954500000  0.324442944 -0.280119296 -0.303719936 -0.047211616 0 0 0 0
5959550000  0.285526880 -0.304227168 -0.306117888 -0.032030546 0 0 0 0
5964600000  0.249789952 -0.326205632 -0.309025632 -0.013074777 0 0 0 0
5969650000  0.227142288 -0.339668864 -0.310171808  0.000085781 0 0 0 0
5974700000  0.200815056 -0.353949440 -0.310104832  0.016937620 0 0 0 0
5979750000  0.171605456 -0.366103968 -0.309663808  0.034630092 0 0 0 0
5984800000  0.132959080 -0.379096288 -0.307815552  0.051198068 0 0 0 0
5989850000  0.097530584 -0.385609888 -0.304113664  0.069730136 0 0 0 0
5994900000  0.056845040 -0.389756480 -0.298854016  0.091373664 0 0 0 0
5999950000  0.023950912 -0.392865344 -0.292268416  0.107309152 0 0 0 0
6005000000 -0.001826174 -0.391721408 -0.284534688  0.124255992 0 0 0 0
