!File created by NanoVNA
# Hz S RI R 50
4995000000  0.213073664 -0.722366464  0.005308987 -0.102404280 0 0 0 0
5000050000  0.131166456 -0.733116352  0.004170394 -0.103101672 0 0 0 0
5005100000  0.073050920 -0.745969856  0.003880521 -0.104242488 0 0 0 0
5010150000 -0.009873336 -0.744684288  0.003959248 -0.105335800 0 0 0 0
5015200000 -0.095861792 -0.733302784  0.003320719 -0.107017408 0 0 0 0
5020250000 -0.164997440 -0.716332288 -0.000798964 -0.109898488 0 0 0 0
5025300000 -0.240720768 -0.693190528 -0.000681541 -0.111671528 0 0 0 0
5030350000 -0.305257760 -0.658570176 -0.002664988 -0.113559048 0 0 0 0
5035400000 -0.378342656 -0.608218176 -0.003637242 -0.115746696 0 0 0 0
5040450000 -0.444605760 -0.548142080 -0.005580319 -0.118243192 0 0 0 0
5045500000 -0.492305920 -0.499616928 -0.006911875 -0.120481072 0 0 0 0
5050550000 -0.538584384 -0.424684832 -0.008702095 -0.122818936 0 0 0 0
5055600000 -0.569752000 -0.370173792 -0.010299280 -0.125322592 0 0 0 0
5060650000 -0.598699520 -0.293633536 -0.010862303 -0.128251928 0 0 0 0
5065700000 -0.618979456 -0.223576512 -0.014325896 -0.131151664 0 0 0 0
5070750000 -0.630140352 -0.162309584 -0.015724643 -0.134857712 0 0 0 0
5075800000 -0.636460736 -0.081698344 -0.017912452 -0.138481360 0 0 0 0
5080850000 -0.634724608 -0.016978218 -0.020244020 -0.142418192 0 0 0 0
5085900000 -0.625493376  0.049843264 -0.022549898 -0.146982480 0 0 0 0
5090950000 -0.612751232  0.123830368 -0.027109512 -0.151509120 0 0 0 0
5096000000 -0.591841664  0.180849600 -0.030943980 -0.156510912 0 0 0 0
5101050000 -0.559284608  0.255237632 -0.035816452 -0.161545824 0 0 0 0
5106100000 -0.529448736  0.307140992 -0.040841716 -0.167103184 0 0 0 0
5111150000 -0.489444960  0.362109664 -0.048467396 -0.172912176 0 0 0 0
5116200000 -0.443964032  0.415861952 -0.055740124 -0.178074640 0 0 0 0
5121250000 -0.397652480  0.451272992 -0.063358584 -0.183874352 0 0 0 0
5126300000 -0.341771936  0.493919136 -0.073150080 -0.189142016 0 0 0 0
5131350000 -0.291431168  0.525266048 -0.084093992 -0.194033184 0 0 0 0
5136400000 -0.233506400  0.551148928 -0.095189976 -0.198569952 0 0 0 0
5141450000 -0.174244400  0.576247040 -0.111157616 -0.201089648 0 0 0 0
5146500000 -0.112303840  0.586957760 -0.126923640 -0.202018064 0 0 0 0
5151550000 -0.056905068  0.595178944 -0.140822112 -0.203365968 0 0 0 0
5156600000 -0.001960385  0.599082112 -0.160396208 -0.199712448 0 0 0 0
5161650000  0.060225632  0.599447680 -0.175334160 -0.198867472 0 0 0 0
5166700000  0.119152264  0.587504512 -0.194585552 -0.191183584 0 0 0 0
5171750000  0.175145152  0.578481792 -0.212906672 -0.181956416 0 0 0 0
5176800000  0.228846080  0.556036096 -0.228418976 -0.171013008 0 0 0 0
5181850000  0.279245344  0.536742336 -0.245326064 -0.156632928 0 0 0 0
5186900000  0.326351392  0.512795936 -0.259744640 -0.142586832 0 0 0 0
5191950000  0.372082560  0.484494112 -0.271731328 -0.124365864 0 0 0 0
5197000000  0.417035520  0.451011968 -0.281797568 -0.105785896 0 0 0 0
5202050000  0.455652000  0.413424640 -0.289221344 -0.085090456 0 0 0 0
5207100000  0.492070272  0.377782272 -0.294573984 -0.064882344 0 0 0 0
5212150000  0.526838080  0.335065984 -0.297200672 -0.045660720 0 0 0 0
5217200000  0.557279168  0.291065504 -0.297597120 -0.025461500 0 0 0 0
5222250000  0.581199616  0.246702704 -0.296468032 -0.009341294 0 0 0 0
5227300000  0.603073664  0.196314864 -0.293516096  0.011354343 0 0 0 0
5232350000  0.621502784  0.149397664 -0.288856576  0.027094880 0 0 0 0
5237400000  0.634546368  0.094114560 -0.283411136  0.043470692 0 0 0 0
5242450000  0.642546880  0.040877156 -0.276320576  0.057394276 0 0 0 0
5247500000  0.647749888 -0.011289293 -0.270054016  0.069576424 0 0 0 0
5252550000  0.646909376 -0.066843256 -0.262771344  0.081510464 0 0 0 0
5257600000  0.644193024 -0.115494896 -0.255592848  0.089922920 0 0 0 0
5262650000  0.633151680 -0.169117872 -0.249461920  0.096774264 0 0 0 0
5267700000  0.616044736 -0.224936976 -0.240939920  0.109073416 0 0 0 0
5272750000  0.598731328 -0.276946816 -0.234089616  0.115395568 0 0 0 0
5277800000  0.572936448 -0.329041216 -0.228857072  0.122019032 0 0 0 0
5282850000  0.543504448 -0.376240384 -0.223032608  0.127900184 0 0 0 0
5287900000  0.514755840 -0.420855040 -0.219201856  0.131022648 0 0 0 0
5292950000  0.468303264 -0.464759968 -0.211569728  0.140539936 0 0 0 0
5298000000  0.430837632 -0.506804512 -0.207686288  0.145581712 0 0 0 0
5303050000  0.381332512 -0.545335040 -0.204566016  0.149551040 0 0 0 0
5308100000  0.331129952 -0.577349632 -0.199432496  0.156765152 0 0 0 0
5313150000  0.273057120 -0.606048960 -0.195834672  0.163223344 0 0 0 0
5318200000  0.208832640 -0.624697536 -0.191591216  0.167610176 0 0 0 0
5323250000  0.151350352 -0.647725248 -0.188167824  0.173537104 0 0 0 0
5328300000  0.070225216 -0.650850752 -0.181277488  0.181963328 0 0 0 0
5333350000  0.011205718 -0.651041984 -0.178459936  0.186575200 0 0 0 0
5338400000 -0.047291716 -0.653384896 -0.176708944  0.190987520 0 0 0 0
5343450000 -0.141708128 -0.619591296 -0.164058320  0.203659808 0 0 0 0
5348500000 -0.196480272 -0.598792512 -0.161615392  0.206478320 0 0 0 0
5353550000 -0.238241296 -0.591575808 -0.159506624  0.210291168 0 0 0 0
5358600000 -0.310497248 -0.533425216 -0.146593712  0.220620624 0 0 0 0
5363650000 -0.363955744 -0.496132416 -0.147008320  0.222965120 0 0 0 0
5368700000 -0.415814400 -0.438376512 -0.139254576  0.229219584 0 0 0 0
5373750000 -0.451565536 -0.395475808 -0.132684040  0.235082560 0 0 0 0
5378800000 -0.488030432 -0.337909184 -0.127723992  0.240445072 0 0 0 0
5383850000 -0.511698560 -0.286463712 -0.118645496  0.247335920 0 0 0 0
5388900000 -0.538237056 -0.216362032 -0.113914944  0.251981888 0 0 0 0
5393950000 -0.553738496 -0.154346000 -0.105037984  0.259512896 0 0 0 0
5399000000 -0.563093952 -0.095922072 -0.095821920  0.265579904 0 0 0 0
5404050000 -0.567888000 -0.024128032 -0.087916872  0.272135616 0 0 0 0
5409100000 -0.564796544  0.039781420 -0.076663152  0.278899072 0 0 0 0
5414150000 -0.553929152  0.105045496 -0.067492600  0.284516800 0 0 0 0
5419200000 -0.538304448  0.160462176 -0.061501812  0.290871968 0 0 0 0
5424250000 -0.512524832  0.219727792 -0.045789016  0.296426624 0 0 0 0
5429300000 -0.481965632  0.278555328 -0.032030554  0.301674464 0 0 0 0
5434350000 -0.453325952  0.332985952 -0.017700360  0.306319936 0 0 0 0
5439400000 -0.409658208  0.375379680 -0.007391616  0.310589056 0 0 0 0
5444450000 -0.358801568  0.428919552  0.009951599  0.313090528 0 0 0 0
5449500000 -0.316452800  0.458158720  0.029034484  0.315494656 0 0 0 0
5454550000 -0.259639568  0.489292896  0.041134284  0.316281536 0 0 0 0
5459600000 -0.221509136  0.525573376  0.062173520  0.314087456 0 0 0 0
5464650000 -0.153974912  0.540848640  0.074296920  0.313820128 0 0 0 0
5469700000 -0.099669864  0.559979264  0.097459088  0.308641760 0 0 0 0
5474750000 -0.041245496  0.562083456  0.113040176  0.303458688 0 0 0 0
5479800000  0.014442389  0.566933760  0.128287752  0.297308032 0 0 0 0
5484850000  0.067259496  0.567548352  0.147817760  0.287344608 0 0 0 0
5489900000  0.126057624  0.553104576  0.157975776  0.280367040 0 0 0 0
5494950000  0.182431968  0.542372992  0.175659456  0.267926448 0 0 0 0
5500000000  0.227848048  0.523121952  0.186589968  0.256706032 0 0 0 0
5505050000  0.281080992  0.500459136  0.200548624  0.242126560 0 0 0 0
5510100000  0.326082752  0.473201504  0.209809568  0.228007888 0 0 0 0
5515150000  0.367269088  0.444774080  0.217485728  0.216496480 0 0 0 0
5520200000  0.407715008  0.411529632  0.223801696  0.202360096 0 0 0 0
5525250000  0.441443200  0.374980672  0.230992400  0.188386336 0 0 0 0
5530300000  0.475212192  0.329858784  0.235241328  0.176301392 0 0 0 0
5535350000  0.498684064  0.293138464  0.238481904  0.162873856 0 0 0 0
5540400000  0.522667104  0.242648016  0.241791856  0.150045776 0 0 0 0
5545450000  0.543126080  0.199329216  0.242779712  0.139416576 0 0 0 0
5550500000  0.556038016  0.149696016  0.245271376  0.125829640 0 0 0 0
5555550000  0.559295744  0.101845144  0.246109312  0.116582648 0 0 0 0
5560600000  0.570652864  0.057040844  0.245548560  0.107870880 0 0 0 0
5565650000  0.566220096  0.004271047  0.245048064  0.101549496 0 0 0 0
5570700000  0.555961152 -0.046107472  0.245932480  0.092198328 0 0 0 0
5575750000  0.551868672 -0.089379632  0.245817632  0.084563704 0 0 0 0
5580800000  0.539083008 -0.137183328  0.245180464  0.079151648 0 0 0 0
5585850000  0.520827360 -0.178807840  0.246240432  0.070374232 0 0 0 0
5590900000  0.494510080 -0.223728000  0.246809808  0.067019508 0 0 0 0
5595950000  0.463378048 -0.264880720  0.247878048  0.059281944 0 0 0 0
5601000000  0.444620416 -0.298916480  0.248523184  0.054381276 0 0 0 0
5606050000  0.397300416 -0.334073760  0.250682592  0.048984668 0 0 0 0
5611100000  0.372113216 -0.360962848  0.251702640  0.045393144 0 0 0 0
5616150000  0.321860736 -0.388319808  0.254765712  0.037896504 0 0 0 0
5621200000  0.281965184 -0.411151552  0.256957504  0.034137916 0 0 0 0
5626250000  0.248112448 -0.425905376  0.259513824  0.028021752 0 0 0 0
5631300000  0.190125632 -0.441013792  0.263340832  0.019999524 0 0 0 0
5636350000  0.147473488 -0.442923808  0.266157536  0.013629926 0 0 0 0
5641400000  0.113733488 -0.448909248  0.269452896  0.009121190 0 0 0 0
5646450000  0.054169232 -0.442211456  0.273199232 -0.000095049 0 0 0 0
5651500000  0.031679530 -0.443414624  0.275756448 -0.008451170 0 0 0 0
5656550000 -0.018681532 -0.429275328  0.279672800 -0.018159620 0 0 0 0
5661600000 -0.060998380 -0.412767168  0.282926656 -0.028099570 0 0 0 0
5666650000 -0.092130936 -0.400653184  0.285565920 -0.037609784 0 0 0 0
5671700000 -0.130091904 -0.379580448  0.289027552 -0.046783224 0 0 0 0
5676750000 -0.156727632 -0.362125472  0.291392640 -0.058253172 0 0 0 0
5681800000 -0.194860560 -0.332390592  0.293443648 -0.072622752 0 0 0 0
5686850000 -0.217292288 -0.308604640  0.295058944 -0.084921840 0 0 0 0
5691900000 -0.237733872 -0.286776640  0.296133184 -0.097797128 0 0 0 0
5696950000 -0.264578160 -0.253770464  0.296127008 -0.111257648 0 0 0 0
5702000000 -0.282899776 -0.227833136  0.294097376 -0.130635232 0 0 0 0
5707050000 -0.302419584 -0.193241728  0.294354912 -0.140882928 0 0 0 0
5712100000 -0.313829024 -0.166476672  0.291729152 -0.158487424 0 0 0 0
5717150000 -0.326441728 -0.136379600  0.288094624 -0.171306704 0 0 0 0
5722200000 -0.333024320 -0.106361808  0.285281472 -0.187138368 0 0 0 0
5727250000 -0.349689632 -0.068918040  0.275364224 -0.209024720 0 0 0 0
5732300000 -0.361288832 -0.026404774  0.266325680 -0.226862592 0 0 0 0
5737350000 -0.348582464 -0.012376564  0.260489728 -0.239376848 0 0 0 0
5742400000 -0.353347008  0.032552400  0.252258928 -0.254469552 0 0 0 0
5747450000 -0.353547968  0.060605316  0.239554832 -0.271910816 0 0 0 0
5752500000 -0.345211456  0.098879712  0.221834864 -0.291404608 0 0 0 0
5757550000 -0.343382176  0.135952928  0.213185744 -0.302755232 0 0 0 0
5762600000 -0.332402848  0.165953344  0.191262000 -0.320566080 0 0 0 0
5767650000 -0.318957248  0.201601200  0.179277904 -0.330641216 0 0 0 0
5772700000 -0.301097952  0.235885168  0.157290448 -0.344354240 0 0 0 0
5777750000 -0.279189920  0.262605312  0.136133136 -0.354806656 0 0 0 0
5782800000 -0.259726256  0.295913568  0.115819760 -0.363854656 0 0 0 0
5787850000 -0.235388080  0.314548320  0.096411192 -0.371069152 0 0 0 0
5792900000 -0.199335872  0.342758464  0.075340024 -0.376885248 0 0 0 0
5797950000 -0.171793040  0.365210560  0.048584616 -0.380014752 0 0 0 0
5803000000 -0.140098384  0.383658368  0.021252238 -0.382041376 0 0 0 0
5808050000 -0.102289488  0.395766144 -0.001732153 -0.381686496 0 0 0 0
5813100000 -0.069755840  0.407495872 -0.022995520 -0.379413312 0 0 0 0
5818150000 -0.029014978  0.418282752 -0.043369864 -0.375891552 0 0 0 0
5823200000  0.010126075  0.423699424 -0.067692672 -0.369261504 0 0 0 0
5828250000  0.048072908  0.424993760 -0.088848968 -0.361732672 0 0 0 0
5833300000  0.085148000  0.423110400 -0.107584464 -0.353118432 0 0 0 0
5838350000  0.118855584  0.418345696 -0.128638032 -0.342215136 0 0 0 0
5843400000  0.159755328  0.410636160 -0.142347472 -0.332503264 0 0 0 0
5848450000  0.198360880  0.396134560 -0.157632608 -0.320335008 0 0 0 0
5853500000  0.229360544  0.381089504 -0.176527424 -0.305400192 0 0 0 0
5858550000  0.266373008  0.359259840 -0.187390288 -0.293707552 0 0 0 0
5863600000  0.294867872  0.335800288 -0.198203024 -0.280637696 0 0 0 0
5868650000  0.321630720  0.313305312 -0.207639536 -0.267473584 0 0 0 0
5873700000  0.355425984  0.279368960 -0.217987520 -0.252738800 0 0 0 0
5878750000  0.377490208  0.254612064 -0.223466112 -0.242043936 0 0 0 0
5883800000  0.393355072  0.218023728 -0.232982672 -0.226765456 0 0 0 0
5888850000  0.412754016  0.184871344 -0.239257984 -0.214908976 0 0 0 0
5893900000  0.435103136  0.149899552 -0.243213696 -0.204396416 0 0 0 0
5898950000  0.439933472  0.112944432 -0.248938432 -0.191598960 0 0 0 0
5904000000  0.452670976  0.075380152 -0.255230128 -0.179976976 0 0 0 0
5909050000  0.449087296  0.033019222 -0.261082000 -0.166827120 0 0 0 0
5914100000  0.440977920 -0.009830094 -0.266147440 -0.155295456 0 0 0 0
5919150000  0.452369216 -0.041122352 -0.269393056 -0.146908912 0 0 0 0
5924200000  0.441707584 -0.080626880 -0.274434080 -0.134912448 0 0 0 0
5929250000  0.419765440 -0.122647944 -0.281523840 -0.120043248 0 0 0 0
5934300000  0.407025056 -0.162133888 -0.286041184 -0.109552128 0 0 0 0
5939350000  0.386261760 -0.192458912 -0.290704896 -0.098061784 0 0 0 0
5944400000  0.358621344 -0.226303392 -0.295092448 -0.084800952 0 0 0 0
5949450000  0.341008032 -0.255073344 -0.300205600 -0.071361152 0 0 0 0
5954500000  0.312382272 -0.282850208 -0.304552544 -0.057091536 0 0 0 0
5959550000  0.280210944 -0.306340736 -0.307730720 -0.041684256 0 0 0 0
5964600000  0.245954144 -0.324604064 -0.310989472 -0.024806498 0 0 0 0
5969650000  0.219222432 -0.340486720 -0.312806880 -0.009514144 0 0 0 0
5974700000  0.190288448 -0.354948352 -0.313723680  0.006835941 0 0 0 0
5979750000  0.159850400 -0.363774912 -0.313887264  0.025460040 0 0 0 0
5984800000  0.119959024 -0.376314560 -0.312531776  0.041411284 0 0 0 0
5989850000  0.076785176 -0.383916864 -0.309282656  0.064227560 0 0 0 0
5994900000  0.068148744 -0.383144960 -0.307004352  0.076195800 0 0 0 0
5999950000  0.011283192 -0.388623648 -0.300536768  0.098797072 0 0 0 0
6005000000 -0.018229960 -0.390243680 -0.291508736  0.120998592 0 0 0 0
