!File created by NanoVNA
# Hz S RI R 50
4995000000  0.228902672 -0.709764352 -0.036496788  0.058898208 0 0 0 0
5000050000  0.153681344 -0.727159808 -0.033368812  0.059684384 0 0 0 0
5005100000  0.088240152 -0.739126272 -0.029868566  0.060366848 0 0 0 0
5010150000  0.016614158 -0.742264320 -0.028487522  0.060294668 0 0 0 0
5015200000 -0.065865560 -0.735572096 -0.025565228  0.060954848 0 0 0 0
5020250000 -0.139098912 -0.723255616 -0.021484718  0.063137844 0 0 0 0
5025300000 -0.219994768 -0.698005312 -0.018817312  0.063592248 0 0 0 0
5030350000 -0.287691200 -0.665364416 -0.015248687  0.064189680 0 0 0 0
5035400000 -0.353699520 -0.626500480 -0.013206165  0.064608828 0 0 0 0
5040450000 -0.420734208 -0.571007296 -0.009087969  0.065367856 0 0 0 0
5045500000 -0.476357056 -0.515413408 -0.006112018  0.065710412 0 0 0 0
5050550000 -0.520159840 -0.453888864 -0.003253549  0.066140808 0 0 0 0
5055600000 -0.560067200 -0.391284352  0.000623903  0.066439100 0 0 0 0
5060650000 -0.587363328 -0.331655936  0.002996869  0.066767924 0 0 0 0
5065700000 -0.613813120 -0.251890928  0.006647311  0.066992744 0 0 0 0
5070750000 -0.629166976 -0.199833776  0.009905569  0.067471216 0 0 0 0
5075800000 -0.640122688 -0.109994736  0.013665648  0.067554456 0 0 0 0
5080850000 -0.642275136 -0.047735648  0.017880302  0.067696824 0 0 0 0
5085900000 -0.635460480  0.025551584  0.021350244  0.067872208 0 0 0 0
5090950000 -0.627031232  0.094568496  0.025386460  0.067906072 0 0 0 0
5096000000 -0.607473792  0.161903648  0.029746266  0.067840496 0 0 0 0
5101050000 -0.579382080  0.232959152  0.034165188  0.067584272 0 0 0 0
5106100000 -0.557747392  0.281519840  0.038520792  0.067282112 0 0 0 0
5111150000 -0.516024544  0.345315488  0.043840304  0.066508516 0 0 0 0
5116200000 -0.473265184  0.403180576  0.049134712  0.065316148 0 0 0 0
5121250000 -0.429560384  0.443693568  0.054776564  0.063680524 0 0 0 0
5126300000 -0.374978752  0.492228832  0.060391976  0.061893072 0 0 0 0
5131350000 -0.330603488  0.522094016  0.066043496  0.059197976 0 0 0 0
5136400000 -0.265720256  0.559591360  0.071461728  0.056358472 0 0 0 0
5141450000 -0.210667536  0.585071296  0.077631056  0.052337596 0 0 0 0
5146500000 -0.150992608  0.600130816  0.083057560  0.047731284 0 0 0 0
5151550000 -0.087460264  0.616105856  0.088430360  0.042409584 0 0 0 0
5156600000 -0.030204436  0.624665600  0.093491560  0.035710300 0 0 0 0
5161650000  0.032804862  0.627017856  0.097200104  0.029950548 0 0 0 0
5166700000  0.098729296  0.620204544  0.101411664  0.021503720 0 0 0 0
5171750000  0.156901696  0.613987328  0.103881952  0.014240023 0 0 0 0
5176800000  0.213430592  0.592775680  0.105439528  0.007000461 0 0 0 0
5181850000  0.271555456  0.576400960  0.106272456 -0.001885301 0 0 0 0
5186900000  0.326442432  0.552426496  0.106216776 -0.010436112 0 0 0 0
5191950000  0.379333376  0.524030496  0.105212280 -0.018644866 0 0 0 0
5197000000  0.426363296  0.489703936  0.103124952 -0.026044164 0 0 0 0
5202050000  0.472811872  0.449389376  0.100240664 -0.033662980 0 0 0 0
5207100000  0.513312032  0.412397056  0.096857512 -0.040518956 0 0 0 0
5212150000  0.552383424  0.366022144  0.092956808 -0.046133992 0 0 0 0
5217200000  0.587396672  0.317435040  0.088622008 -0.051804868 0 0 0 0
5222250000  0.615855360  0.266830624  0.083893680 -0.057049124 0 0 0 0
5227300000  0.639414400  0.213180112  0.078979192 -0.060845512 0 0 0 0
5232350000  0.660102272  0.159557520  0.074090760 -0.064843572 0 0 0 0
5237400000  0.674760512  0.101594152  0.069795544 -0.067240224 0 0 0 0
5242450000  0.681837248  0.039575900  0.064834556 -0.069872000 0 0 0 0
5247500000  0.688049728 -0.017678128  0.060326832 -0.072095424 0 0 0 0
5252550000  0.685600704 -0.078964296  0.056354868 -0.073855352 0 0 0 0
5257600000  0.680982016 -0.134793216  0.052083684 -0.075355448 0 0 0 0
5262650000  0.666801600 -0.193434896  0.048541692 -0.076552712 0 0 0 0
5267700000  0.647781504 -0.252249328  0.044760748 -0.077829856 0 0 0 0
5272750000  0.626132480 -0.309994176  0.041689384 -0.078941824 0 0 0 0
5277800000  0.591247616 -0.367155648  0.038429704 -0.080182064 0 0 0 0
5282850000  0.566647168 -0.413092480  0.036095700 -0.081009672 0 0 0 0
5287900000  0.518446688 -0.464780576  0.033210352 -0.082368360 0 0 0 0
5292950000  0.474360960 -0.508231232  0.030069610 -0.083805984 0 0 0 0
5298000000  0.426941632 -0.551579968  0.028165938 -0.085228248 0 0 0 0
5303050000  0.363129120 -0.589934720  0.025274610 -0.087042560 0 0 0 0
5308100000  0.311871520 -0.617887616  0.023438546 -0.088649216 0 0 0 0
5313150000  0.251269168 -0.644564480  0.020377368 -0.090912488 0 0 0 0
5318200000  0.175761216 -0.660947712  0.018681722 -0.092554736 0 0 0 0
5323250000  0.109962904 -0.675277760  0.016009331 -0.094822216 0 0 0 0
5328300000  0.036287228 -0.676782592  0.012971353 -0.096965880 0 0 0 0
5333350000 -0.025905004 -0.671697280  0.010101351 -0.099436368 0 0 0 0
5338400000 -0.102843120 -0.654055104  0.007749856 -0.101807360 0 0 0 0
5343450000 -0.166694096 -0.633525824  0.005165492 -0.104166800 0 0 0 0
5348500000 -0.249988176 -0.582519104 -0.000710884 -0.106518224 0 0 0 0
5353550000 -0.279944384 -0.583494784 -0.001950991 -0.109265896 0 0 0 0
5358600000 -0.337015520 -0.539485248 -0.006381475 -0.111884368 0 0 0 0
5363650000 -0.400518048 -0.466607776 -0.010922326 -0.114248712 0 0 0 0
5368700000 -0.442357056 -0.413306976 -0.014270738 -0.116917416 0 0 0 0
5373750000 -0.469420576 -0.372652352 -0.019140532 -0.119224488 0 0 0 0
5378800000 -0.502797312 -0.312248928 -0.022339748 -0.122622528 0 0 0 0
5383850000 -0.523665312 -0.252996688 -0.028424178 -0.125241680 0 0 0 0
5388900000 -0.546033536 -0.188331280 -0.033298654 -0.128006864 0 0 0 0
5393950000 -0.556228608 -0.130416360 -0.039400496 -0.131147672 0 0 0 0
5399000000 -0.561929600 -0.052952508 -0.047185492 -0.133064288 0 0 0 0
5404050000 -0.558357632  0.001395574 -0.052357316 -0.136128256 0 0 0 0
5409100000 -0.550707712  0.061500592 -0.060890840 -0.138236816 0 0 0 0
5414150000 -0.537406592  0.132298248 -0.069014432 -0.140229792 0 0 0 0
5419200000 -0.518158368  0.183200384 -0.075320568 -0.143096880 0 0 0 0
5424250000 -0.487712288  0.237189152 -0.085762600 -0.143026800 0 0 0 0
5429300000 -0.453948928  0.293904608 -0.095676784 -0.143109216 0 0 0 0
5434350000 -0.427329696  0.338180192 -0.106509496 -0.142519184 0 0 0 0
5439400000 -0.378457408  0.380661920 -0.114695464 -0.142545616 0 0 0 0
5444450000 -0.331744800  0.422318176 -0.125429096 -0.141195488 0 0 0 0
5449500000 -0.288612576  0.447736960 -0.137128656 -0.137682704 0 0 0 0
5454550000 -0.232500592  0.480386816 -0.148842480 -0.133432640 0 0 0 0
5459600000 -0.197288016  0.509266368 -0.160198336 -0.127487304 0 0 0 0
5464650000 -0.133373720  0.519393088 -0.169621232 -0.123072000 0 0 0 0
5469700000 -0.083659888  0.534392640 -0.181496000 -0.114028280 0 0 0 0
5474750000 -0.026089338  0.536836320 -0.191424816 -0.103662144 0 0 0 0
5479800000  0.024831250  0.540781696 -0.200229280 -0.094581400 0 0 0 0
5484850000  0.073001128  0.538740928 -0.208901920 -0.082471216 0 0 0 0
5489900000  0.128786264  0.525260224 -0.215246832 -0.072059504 0 0 0 0
5494950000  0.179499776  0.512664608 -0.221263280 -0.058752396 0 0 0 0
5500000000  0.221258592  0.493946784 -0.225602304 -0.046900176 0 0 0 0
5505050000  0.269638304  0.472324256 -0.229369680 -0.031732702 0 0 0 0
5510100000  0.311161536  0.446888256 -0.230843344 -0.018556666 0 0 0 0
5515150000  0.349198720  0.420413984 -0.231973536 -0.003496386 0 0 0 0
5520200000  0.386335008  0.389360000 -0.230563648  0.008053716 0 0 0 0
5525250000  0.418503840  0.357061792 -0.229640096  0.021414898 0 0 0 0
5530300000  0.448846368  0.315568576 -0.227950432  0.033477076 0 0 0 0
5535350000  0.471230016  0.282478368 -0.225410672  0.043868232 0 0 0 0
5540400000  0.493000608  0.237901120 -0.222059328  0.054567164 0 0 0 0
5545450000  0.511277728  0.196848192 -0.217879792  0.065355896 0 0 0 0
5550500000  0.527188480  0.154823360 -0.214129296  0.075021216 0 0 0 0
5555550000  0.529411808  0.109844472 -0.210265328  0.084557120 0 0 0 0
5560600000  0.538204160  0.068213712 -0.204716784  0.093970936 0 0 0 0
5565650000  0.539471680  0.022139490 -0.202619232  0.098574720 0 0 0 0
5570700000  0.534433664 -0.020288806 -0.197094176  0.107000624 0 0 0 0
5575750000  0.533845728 -0.060801172 -0.191821008  0.115503576 0 0 0 0
5580800000  0.520635360 -0.108059536 -0.189250704  0.120437336 0 0 0 0
5585850000  0.511861504 -0.143969280 -0.184214448  0.127910376 0 0 0 0
5590900000  0.491111040 -0.186345392 -0.180929664  0.134534528 0 0 0 0
5595950000  0.472624992 -0.224637856 -0.176546176  0.141781776 0 0 0 0
5601000000  0.461304512 -0.260455584 -0.174596352  0.146835504 0 0 0 0
5606050000  0.418121120 -0.297228064 -0.168982512  0.155946016 0 0 0 0
5611100000  0.406062752 -0.327044192 -0.168858288  0.160233600 0 0 0 0
5616150000  0.366896800 -0.355904928 -0.165616992  0.167544976 0 0 0 0
5621200000  0.325339552 -0.385853728 -0.162651824  0.175189104 0 0 0 0
5626250000  0.291431008 -0.409486240 -0.156514960  0.186101296 0 0 0 0
5631300000  0.260694768 -0.434567232 -0.154155296  0.193398224 0 0 0 0
5636350000  0.202143072 -0.443830944 -0.147387632  0.203691056 0 0 0 0
5641400000  0.164803936 -0.462365600 -0.146627088  0.211350224 0 0 0 0
5646450000  0.110503304 -0.467976192 -0.140750640  0.221424368 0 0 0 0
5651500000  0.084756504 -0.478349056 -0.133916352  0.231386864 0 0 0 0
5656550000  0.029846692 -0.476666496 -0.129391344  0.241523936 0 0 0 0
5661600000 -0.016917506 -0.468990752 -0.119586984  0.252562016 0 0 0 0
5666650000 -0.063636884 -0.461622912 -0.114675304  0.260955728 0 0 0 0
5671700000 -0.116571288 -0.443306176 -0.102668064  0.273230400 0 0 0 0
5676750000 -0.158106784 -0.427607072 -0.092092328  0.282975392 0 0 0 0
5681800000 -0.189109280 -0.407851232 -0.085110496  0.292149728 0 0 0 0
5686850000 -0.235171872 -0.376579584 -0.069431080  0.303333440 0 0 0 0
5691900000 -0.267891728 -0.351031104 -0.062887112  0.312215776 0 0 0 0
5696950000 -0.307834912 -0.313276608 -0.045918308  0.321871392 0 0 0 0
5702000000 -0.325863776 -0.287442944 -0.029788960  0.331355040 0 0 0 0
5707050000 -0.358812928 -0.240921136 -0.017327312  0.339245312 0 0 0 0
5712100000 -0.381990048 -0.197324448  0.003821317  0.346562368 0 0 0 0
5717150000 -0.397648320 -0.156164704  0.018740924  0.353014496 0 0 0 0
5722200000 -0.405278688 -0.113655384  0.036828308  0.358840320 0 0 0 0
5727250000 -0.426492544 -0.056187472  0.066593348  0.360467808 0 0 0 0
5732300000 -0.425372032 -0.011351410  0.079869392  0.365087008 0 0 0 0
5737350000 -0.423989920  0.030165492  0.109641808  0.362858624 0 0 0 0
5742400000 -0.412106208  0.080090768  0.125501576  0.364149600 0 0 0 0
5747450000 -0.405099680  0.122148232  0.151058592  0.359519008 0 0 0 0
5752500000 -0.384214144  0.168985248  0.178124368  0.351864288 0 0 0 0
5757550000 -0.364608352  0.204853488  0.198229280  0.347072544 0 0 0 0
5762600000 -0.342681120  0.241182352  0.249621504  0.321329984 0 0 0 0
5767650000 -0.315437184  0.277923808  0.242422272  0.323696992 0 0 0 0
5772700000 -0.282758656  0.311211104  0.288374624  0.293073504 0 0 0 0
5777750000 -0.247912976  0.329224416  0.284628992  0.293196448 0 0 0 0
5782800000 -0.216112240  0.356260896  0.325861664  0.255149104 0 0 0 0
5787850000 -0.184718464  0.371391200  0.323311456  0.252786848 0 0 0 0
5792900000 -0.139404944  0.387156512  0.332838208  0.238408944 0 0 0 0
5797950000 -0.102373128  0.396828608  0.346084480  0.216020576 0 0 0 0
5803000000 -0.065683380  0.403669888  0.360435584  0.189314976 0 0 0 0
5808050000 -0.026894780  0.405346816  0.369547040  0.166617520 0 0 0 0
5813100000  0.007386532  0.404347104  0.375476256  0.145947040 0 0 0 0
5818150000  0.046702296  0.402390464  0.378242848  0.129677504 0 0 0 0
5823200000  0.082092832  0.394424896  0.382090432  0.101607520 0 0 0 0
5828250000  0.116965088  0.385177568  0.383999040  0.079416864 0 0 0 0
5833300000  0.146418672  0.373728320  0.382955328  0.061950956 0 0 0 0
5838350000  0.171269504  0.359541792  0.381430976  0.037944228 0 0 0 0
5843400000  0.200435040  0.343426720  0.378745760  0.017978126 0 0 0 0
5848450000  0.228573936  0.322576640  0.374311200 -0.000619022 0 0 0 0
5853500000  0.249366656  0.304325664  0.369011328 -0.020021802 0 0 0 0
5858550000  0.272842304  0.279741440  0.362914816 -0.037451672 0 0 0 0
5863600000  0.287997376  0.256405680  0.355899808 -0.054083540 0 0 0 0
5868650000  0.305512256  0.236773536  0.348489856 -0.066785588 0 0 0 0
5873700000  0.324544224  0.205281440  0.341128992 -0.082754944 0 0 0 0
5878750000  0.335578688  0.186314624  0.333464000 -0.093301576 0 0 0 0
5883800000  0.344742432  0.158355088  0.325299904 -0.106472416 0 0 0 0
5888850000  0.352753824  0.134598112  0.317862912 -0.114995312 0 0 0 0
5893900000  0.366302016  0.105816984  0.309809472 -0.126758888 0 0 0 0
5898950000  0.365728672  0.081344320  0.302279776 -0.134483024 0 0 0 0
5904000000  0.374638560  0.058138456  0.295307328 -0.144230144 0 0 0 0
5909050000  0.369129952  0.029936614  0.288575424 -0.151979280 0 0 0 0
5914100000  0.366735328  0.001865175  0.279382816 -0.162696176 0 0 0 0
5919150000  0.370502848 -0.022563646  0.274491808 -0.167372656 0 0 0 0
5924200000  0.368405120 -0.045776240  0.269011072 -0.173589920 0 0 0 0
5929250000  0.365346656 -0.069081456  0.259197680 -0.186236464 0 0 0 0
5934300000  0.356003776 -0.100965176  0.252480864 -0.192871744 0 0 0 0
5939350000  0.336336608 -0.129859520  0.244242192 -0.203417888 0 0 0 0
5944400000  0.338778080 -0.149279280  0.241306048 -0.206677184 0 0 0 0
5949450000  0.323822784 -0.179219200  0.232537728 -0.216925008 0 0 0 0
5954500000  0.316867200 -0.202322400  0.226109888 -0.223411552 0 0 0 0
5959550000  0.295891744 -0.233210512  0.218667152 -0.232716944 0 0 0 0
5964600000  0.277564000 -0.252860224  0.211326016 -0.239931360 0 0 0 0
5969650000  0.255097472 -0.275830528  0.200278736 -0.250051920 0 0 0 0
5974700000  0.232875056 -0.301024032  0.191299184 -0.258196240 0 0 0 0
5979750000  0.219581952 -0.318771552  0.186110480 -0.263284240 0 0 0 0
5984800000  0.181185152 -0.343002720  0.174483984 -0.272616736 0 0 0 0
5989850000  0.164731456 -0.358535680  0.164229120 -0.280102176 0 0 0 0
5994900000  0.119381664 -0.377555744  0.150897056 -0.289283456 0 0 0 0
5999950000  0.083354120 -0.392438688  0.142177168 -0.294572000 0 0 0 0
6005000000  0.056180976 -0.397924320  0.129724352 -0.301057056 0 0 0 0
