!File created by NanoVNA
# Hz S RI R 50
4995000000  0.232002272 -0.714787008 -0.023970226  0.061673744 0 0 0 0
5000050000  0.154436064 -0.731503168 -0.021385734  0.061819256 0 0 0 0
5005100000  0.098530904 -0.744101376 -0.018447556  0.062109692 0 0 0 0
5010150000  0.011536493 -0.745623872 -0.016140789  0.062361168 0 0 0 0
5015200000 -0.079332408 -0.735080192 -0.013064825  0.062690856 0 0 0 0
5020250000 -0.142104896 -0.726265344 -0.008873755  0.064198612 0 0 0 0
5025300000 -0.219694224 -0.705468608 -0.006300011  0.064387836 0 0 0 0
5030350000 -0.290392704 -0.674457152 -0.002747729  0.064798236 0 0 0 0
5035400000 -0.362359648 -0.628093440  0.000573714  0.065005712 0 0 0 0
5040450000 -0.421602784 -0.574401536  0.003445032  0.065035896 0 0 0 0
5045500000 -0.483183040 -0.517630112  0.007416405  0.065279164 0 0 0 0
5050550000 -0.525475392 -0.460431392  0.010566005  0.065293984 0 0 0 0
5055600000 -0.564080960 -0.393638016  0.014304067  0.065035688 0 0 0 0
5060650000 -0.593096640 -0.327573600  0.017065816  0.065116780 0 0 0 0
5065700000 -0.620600832 -0.250461936  0.020923844  0.064805568 0 0 0 0
5070750000 -0.635260224 -0.191261024  0.024833454  0.064741708 0 0 0 0
5075800000 -0.645584256 -0.113266088  0.028359278  0.064441784 0 0 0 0
5080850000 -0.649977088 -0.055370724  0.032391448  0.063949720 0 0 0 0
5085900000 -0.643924032  0.026476362  0.036481556  0.063477724 0 0 0 0
5090950000 -0.635842688  0.094468120  0.040286480  0.062959680 0 0 0 0
5096000000 -0.616865216  0.154160640  0.045112956  0.061983976 0 0 0 0
5101050000 -0.588822912  0.235485472  0.050058572  0.060648512 0 0 0 0
5106100000 -0.565928320  0.282920896  0.054717400  0.059317116 0 0 0 0
5111150000 -0.526887904  0.344883680  0.059930096  0.057674624 0 0 0 0
5116200000 -0.485462208  0.402211584  0.064883032  0.055463128 0 0 0 0
5121250000 -0.437388384  0.446509216  0.070666488  0.052277464 0 0 0 0
5126300000 -0.383333888  0.494568960  0.075804576  0.049354528 0 0 0 0
5131350000 -0.337827136  0.526660192  0.081228248  0.045077892 0 0 0 0
5136400000 -0.272840096  0.564236928  0.086349704  0.040632356 0 0 0 0
5141450000 -0.219607200  0.589000256  0.091574216  0.035143956 0 0 0 0
5146500000 -0.156096880  0.605373056  0.096094208  0.029116094 0 0 0 0
5151550000 -0.095860136  0.620968832  0.100106832  0.022845428 0 0 0 0
5156600000 -0.036994284  0.631219520  0.103903048  0.014057454 0 0 0 0
5161650000  0.027332038  0.634354624  0.106340024  0.007730807 0 0 0 0
5166700000  0.095408312  0.627693376  0.108231072 -0.000926207 0 0 0 0
5171750000  0.151850960  0.620677312  0.108720312 -0.009163317 0 0 0 0
5176800000  0.213457056  0.601147200  0.108816856 -0.017537052 0 0 0 0
5181850000  0.268234016  0.583025984  0.107533920 -0.026452458 0 0 0 0
5186900000  0.322017472  0.559506112  0.105624176 -0.033975732 0 0 0 0
5191950000  0.375170080  0.530822624  0.102592696 -0.041612084 0 0 0 0
5197000000  0.427358912  0.495681760  0.098614240 -0.048962368 0 0 0 0
5202050000  0.470693632  0.455680352  0.094051144 -0.055502436 0 0 0 0
5207100000  0.514485824  0.417453280  0.088535696 -0.061966940 0 0 0 0
5212150000  0.553618496  0.370766112  0.083784216 -0.066036068 0 0 0 0
5217200000  0.588407040  0.322133408  0.078737288 -0.069830904 0 0 0 0
5222250000  0.617484160  0.270070080  0.073010512 -0.073460568 0 0 0 0
5227300000  0.641955456  0.215985232  0.067436664 -0.076396672 0 0 0 0
5232350000  0.663343104  0.160520832  0.061132552 -0.079569776 0 0 0 0
5237400000  0.678440704  0.101241600  0.056770796 -0.080794968 0 0 0 0
5242450000  0.687028096  0.042392820  0.051423252 -0.082305632 0 0 0 0
5247500000  0.689686336 -0.021265098  0.046611548 -0.083379656 0 0 0 0
5252550000  0.689987648 -0.080012152  0.042963456 -0.084183256 0 0 0 0
5257600000  0.681904192 -0.139463808  0.038597996 -0.084608920 0 0 0 0
5262650000  0.668086976 -0.198344560  0.035581084 -0.084785712 0 0 0 0
5267700000  0.651120512 -0.257860608  0.031493378 -0.085613688 0 0 0 0
5272750000  0.627592448 -0.315842368  0.028704118 -0.085759408 0 0 0 0
5277800000  0.595469504 -0.371814432  0.025654652 -0.086403624 0 0 0 0
5282850000  0.561215424 -0.423431104  0.023095576 -0.087172880 0 0 0 0
5287900000  0.520543456 -0.471653376  0.021473376 -0.087612160 0 0 0 0
5292950000  0.472301440 -0.517102432  0.018232632 -0.088409272 0 0 0 0
5298000000  0.425103296 -0.560767168  0.016284980 -0.089594800 0 0 0 0
5303050000  0.364458592 -0.598360704  0.013782270 -0.090941816 0 0 0 0
5308100000  0.314205024 -0.627558720  0.011440347 -0.092440040 0 0 0 0
5313150000  0.242925360 -0.653007296  0.008443023 -0.094249024 0 0 0 0
5318200000  0.177726992 -0.670074432  0.006700265 -0.095803288 0 0 0 0
5323250000  0.102801512 -0.684434752  0.004182771 -0.097657752 0 0 0 0
5328300000  0.029583720 -0.684770624  0.000758643 -0.099410568 0 0 0 0
5333350000 -0.041194620 -0.676304000 -0.001231882 -0.101795712 0 0 0 0
5338400000 -0.107246552 -0.664890368 -0.003939666 -0.104093976 0 0 0 0
5343450000 -0.167006128 -0.646620992 -0.006119774 -0.106228624 0 0 0 0
5348500000 -0.263604880 -0.582147328 -0.013473502 -0.107491864 0 0 0 0
5353550000 -0.303509952 -0.559931392 -0.016043811 -0.110030648 0 0 0 0
5358600000 -0.329169824 -0.563042560 -0.015807614 -0.113129880 0 0 0 0
5363650000 -0.412615808 -0.467121984 -0.022404224 -0.115061408 0 0 0 0
5368700000 -0.451638336 -0.418011648 -0.026708830 -0.117536488 0 0 0 0
5373750000 -0.484025792 -0.370214336 -0.031436690 -0.119785936 0 0 0 0
5378800000 -0.509932768 -0.314148288 -0.034779896 -0.122694072 0 0 0 0
5383850000 -0.533032832 -0.256019024 -0.040617220 -0.125099512 0 0 0 0
5388900000 -0.553638208 -0.191522784 -0.044494476 -0.128041656 0 0 0 0
5393950000 -0.566602816 -0.118623480 -0.052168560 -0.130056696 0 0 0 0
5399000000 -0.567590464 -0.074632208 -0.056948624 -0.133265512 0 0 0 0
5404050000 -0.566173504  0.003563741 -0.065374188 -0.134804384 0 0 0 0
5409100000 -0.558899584  0.061042356 -0.073695120 -0.136462784 0 0 0 0
5414150000 -0.543950528  0.120564424 -0.080911296 -0.138409744 0 0 0 0
5419200000 -0.523409120  0.180935616 -0.088575592 -0.140556384 0 0 0 0
5424250000 -0.494602976  0.232320480 -0.098392624 -0.140468896 0 0 0 0
5429300000 -0.460687648  0.291833088 -0.108157936 -0.140384832 0 0 0 0
5434350000 -0.432221120  0.334676672 -0.118690480 -0.139372928 0 0 0 0
5439400000 -0.383960096  0.378942656 -0.129668472 -0.137034288 0 0 0 0
5444450000 -0.337368960  0.419907616 -0.139062832 -0.135798096 0 0 0 0
5449500000 -0.293444928  0.447695200 -0.150935504 -0.131228088 0 0 0 0
5454550000 -0.237170544  0.479084704 -0.163061920 -0.125227048 0 0 0 0
5459600000 -0.204008448  0.503431744 -0.172517888 -0.120521256 0 0 0 0
5464650000 -0.139316224  0.517103680 -0.182531648 -0.114359672 0 0 0 0
5469700000 -0.088488352  0.532441440 -0.193757424 -0.104040576 0 0 0 0
5474750000 -0.033700832  0.532396928 -0.202772864 -0.095603528 0 0 0 0
5479800000  0.018338652  0.536412768 -0.211470016 -0.085566952 0 0 0 0
5484850000  0.067844184  0.536943808 -0.220577472 -0.068486136 0 0 0 0
5489900000  0.121837736  0.522108864 -0.226120480 -0.058963280 0 0 0 0
5494950000  0.172889264  0.510521056 -0.231115360 -0.046882336 0 0 0 0
5500000000  0.216431264  0.493649504 -0.235319536 -0.031786006 0 0 0 0
5505050000  0.263090976  0.470567328 -0.237551984 -0.020618042 0 0 0 0
5510100000  0.305132416  0.446447136 -0.238785344 -0.004152011 0 0 0 0
5515150000  0.343721472  0.420306048 -0.239130272  0.010015977 0 0 0 0
5520200000  0.381168768  0.390643328 -0.238230752  0.020184224 0 0 0 0
5525250000  0.412986880  0.356557440 -0.235562720  0.037941900 0 0 0 0
5530300000  0.444769152  0.316282176 -0.232714512  0.048806648 0 0 0 0
5535350000  0.467878048  0.284704448 -0.229689632  0.058501664 0 0 0 0
5540400000  0.490882688  0.238961120 -0.225752976  0.069921504 0 0 0 0
5545450000  0.510828256  0.198758176 -0.220864080  0.080481664 0 0 0 0
5550500000  0.525715360  0.155762080 -0.216105248  0.090144576 0 0 0 0
5555550000  0.529308800  0.111377848 -0.210338800  0.099825496 0 0 0 0
5560600000  0.542974272  0.071951976 -0.205904800  0.106766248 0 0 0 0
5565650000  0.538817088  0.021988400 -0.200799280  0.115296224 0 0 0 0
5570700000  0.543350080 -0.016029880 -0.196713200  0.120253840 0 0 0 0
5575750000  0.532006912 -0.062355984 -0.189357952  0.131268848 0 0 0 0
5580800000  0.529124384 -0.107014920 -0.186672272  0.135674336 0 0 0 0
5585850000  0.516980544 -0.145690704 -0.180726256  0.143475056 0 0 0 0
5590900000  0.491027520 -0.190085536 -0.176382192  0.150506368 0 0 0 0
5595950000  0.476095552 -0.230169568 -0.173599568  0.155034464 0 0 0 0
5601000000  0.465713120 -0.264145760 -0.169983616  0.161188912 0 0 0 0
5606050000  0.429097760 -0.301667840 -0.165643536  0.168352352 0 0 0 0
5611100000  0.411164928 -0.333000320 -0.162619968  0.174667120 0 0 0 0
5616150000  0.380194432 -0.364495584 -0.162116672  0.179262336 0 0 0 0
5621200000  0.330501568 -0.397335616 -0.154453760  0.190486528 0 0 0 0
5626250000  0.300252320 -0.420011200 -0.151057056  0.198286016 0 0 0 0
5631300000  0.261350656 -0.446735456 -0.147820336  0.205953936 0 0 0 0
5636350000  0.216944336 -0.457523296 -0.142981872  0.214406944 0 0 0 0
5641400000  0.172019056 -0.476497856 -0.138726928  0.223765024 0 0 0 0
5646450000  0.113593504 -0.481876768 -0.131690144  0.233700688 0 0 0 0
5651500000  0.082799624 -0.493352288 -0.124097152  0.243994384 0 0 0 0
5656550000  0.039391100 -0.494897376 -0.120542784  0.252870112 0 0 0 0
5661600000 -0.026196600 -0.479688672 -0.107819104  0.264389776 0 0 0 0
5666650000 -0.058949596 -0.481246496 -0.105043296  0.272224608 0 0 0 0
5671700000 -0.111578520 -0.463773632 -0.093776248  0.283012544 0 0 0 0
5676750000 -0.158515616 -0.444094912 -0.082966320  0.292480640 0 0 0 0
5681800000 -0.208074528 -0.414909760 -0.069827136  0.303318496 0 0 0 0
5686850000 -0.231299056 -0.396356000 -0.058572504  0.312335808 0 0 0 0
5691900000 -0.274362624 -0.364111680 -0.047938480  0.321190304 0 0 0 0
5696950000 -0.312634400 -0.326899392 -0.032265042  0.329754880 0 0 0 0
5702000000 -0.335288736 -0.295605760 -0.013735348  0.338391680 0 0 0 0
5707050000 -0.366628960 -0.251407440 -0.002710482  0.345700160 0 0 0 0
5712100000 -0.387375520 -0.208372432  0.019949050  0.352223776 0 0 0 0
5717150000 -0.405199872 -0.161588720  0.032526504  0.358085568 0 0 0 0
5722200000 -0.418641152 -0.113801736  0.056809988  0.362423040 0 0 0 0
5727250000 -0.432272320 -0.062508488  0.082764944  0.364179776 0 0 0 0
5732300000 -0.427854304 -0.021926402  0.096900344  0.367105440 0 0 0 0
5737350000 -0.428315392  0.027583696  0.126044200  0.363945824 0 0 0 0
5742400000 -0.416308032  0.077885360  0.140806032  0.364883360 0 0 0 0
5747450000 -0.409159232  0.121116240  0.170358640  0.356673792 0 0 0 0
5752500000 -0.386722112  0.166145040  0.221515168  0.338324384 0 0 0 0
5757550000 -0.368527008  0.207311360  0.215782832  0.341300896 0 0 0 0
5762600000 -0.341761280  0.237676656  0.237390432  0.330530144 0 0 0 0
5767650000 -0.316814304  0.278338752  0.284006688  0.300729344 0 0 0 0
5772700000 -0.281567360  0.307240640  0.279986688  0.300914112 0 0 0 0
5777750000 -0.247694432  0.328548672  0.299874496  0.282017632 0 0 0 0
5782800000 -0.215190448  0.354446272  0.337122560  0.245151952 0 0 0 0
5787850000 -0.184135568  0.369286464  0.337132064  0.239663936 0 0 0 0
5792900000 -0.134709920  0.379196096  0.340320576  0.232661792 0 0 0 0
5797950000 -0.101884152  0.392880000  0.355788448  0.204718656 0 0 0 0
5803000000 -0.065823160  0.400003456  0.370205888  0.174586528 0 0 0 0
5808050000 -0.025420126  0.399403104  0.376753408  0.154058768 0 0 0 0
5813100000  0.008890824  0.398154144  0.380914176  0.134593296 0 0 0 0
5818150000  0.047561428  0.395479104  0.384111072  0.115474640 0 0 0 0
5823200000  0.082457456  0.387740608  0.387698816  0.086397984 0 0 0 0
5828250000  0.115240744  0.378547680  0.387973056  0.064057052 0 0 0 0
5833300000  0.145219312  0.366585312  0.386481472  0.043304408 0 0 0 0
5838350000  0.171109088  0.354350528  0.383068416  0.023817888 0 0 0 0
5843400000  0.201764560  0.338108544  0.379448352  0.005684214 0 0 0 0
5848450000  0.228462352  0.317908544  0.374337632 -0.011304215 0 0 0 0
5853500000  0.244908048  0.296894080  0.367448128 -0.036097700 0 0 0 0
5858550000  0.268393344  0.271715680  0.361650304 -0.052312828 0 0 0 0
5863600000  0.283819264  0.248754880  0.354206816 -0.067239624 0 0 0 0
5868650000  0.307829760  0.235549152  0.347091712 -0.074698944 0 0 0 0
5873700000  0.325748736  0.204456272  0.338081792 -0.091574048 0 0 0 0
5878750000  0.336387904  0.185162400  0.329776512 -0.103453472 0 0 0 0
5883800000  0.345866560  0.157953728  0.321474912 -0.115790336 0 0 0 0
5888850000  0.353658400  0.134117096  0.314075072 -0.124930816 0 0 0 0
5893900000  0.365166560  0.105550488  0.305826880 -0.134002776 0 0 0 0
5898950000  0.363831968  0.078862736  0.297883616 -0.143550832 0 0 0 0
5904000000  0.374243840  0.057124404  0.288482400 -0.154484832 0 0 0 0
5909050000  0.374858720  0.032777296  0.282804288 -0.160087920 0 0 0 0
5914100000  0.365919136  0.002325126  0.273895104 -0.170293760 0 0 0 0
5919150000  0.380298464 -0.017372038  0.269318784 -0.174824144 0 0 0 0
5924200000  0.364117824 -0.051067272  0.259185616 -0.185589392 0 0 0 0
5929250000  0.367816640 -0.069450232  0.253044304 -0.192166672 0 0 0 0
5934300000  0.365271552 -0.099963072  0.246819696 -0.198856880 0 0 0 0
5939350000  0.352469728 -0.122925416  0.239079168 -0.207003024 0 0 0 0
5944400000  0.338089568 -0.153792368  0.232562848 -0.213649728 0 0 0 0
5949450000  0.329552896 -0.181769712  0.225670656 -0.220876192 0 0 0 0
5954500000  0.327005728 -0.203663760  0.217310240 -0.229909968 0 0 0 0
5959550000  0.307737024 -0.230733024  0.212873280 -0.235186848 0 0 0 0
5964600000  0.286720384 -0.256343040  0.203187424 -0.244634064 0 0 0 0
5969650000  0.267456480 -0.279481024  0.196192192 -0.251847568 0 0 0 0
5974700000  0.246536368 -0.306874624  0.185491216 -0.260646880 0 0 0 0
5979750000  0.229822064 -0.323114976  0.179228656 -0.266290432 0 0 0 0
5984800000  0.198721760 -0.348847936  0.167196624 -0.275862016 0 0 0 0
5989850000  0.161204480 -0.370257600  0.159620304 -0.281432288 0 0 0 0
5994900000  0.122793808 -0.386396672  0.144671200 -0.291104960 0 0 0 0
5999950000  0.096947984 -0.399871424  0.138065648 -0.295455712 0 0 0 0
6005000000  0.064916520 -0.408435872  0.121934832 -0.302945568 0 0 0 0
