!File created by NanoVNA
# Hz S RI R 50
4995000000  0.215314048 -0.725504128  0.005142222 -0.102523376 0 0 0 0
5000050000  0.137603856 -0.739302016  0.004827145 -0.103317072 0 0 0 0
5005100000  0.075726528 -0.749237184  0.004674410 -0.104288872 0 0 0 0
5010150000 -0.011927186 -0.746366144  0.004201564 -0.105529512 0 0 0 0
5015200000 -0.085353104 -0.741912640  0.005180955 -0.106820280 0 0 0 0
5020250000 -0.165710160 -0.720538944  0.000039408 -0.109979872 0 0 0 0
5025300000 -0.243768272 -0.696453824  0.000649446 -0.111976256 0 0 0 0
5030350000 -0.310353888 -0.660439296 -0.002077954 -0.113689072 0 0 0 0
5035400000 -0.380178144 -0.616527488 -0.002108267 -0.116010312 0 0 0 0
5040450000 -0.443428832 -0.558087232 -0.003391588 -0.118468024 0 0 0 0
5045500000 -0.495918720 -0.500121408 -0.006082274 -0.120401408 0 0 0 0
5050550000 -0.542044416 -0.434054624 -0.007166534 -0.123017784 0 0 0 0
5055600000 -0.576250496 -0.370992288 -0.008924831 -0.125572440 0 0 0 0
5060650000 -0.601176384 -0.303723680 -0.010397758 -0.128180672 0 0 0 0
5065700000 -0.622711936 -0.233697936 -0.011512165 -0.131394416 0 0 0 0
5070750000 -0.637903424 -0.164064816 -0.014637978 -0.134908448 0 0 0 0
5075800000 -0.642964096 -0.077505560 -0.016792460 -0.138585408 0 0 0 0
5080850000 -0.640945408 -0.020489486 -0.019425172 -0.142310000 0 0 0 0
5085900000 -0.631879424  0.054686816 -0.022315196 -0.147092208 0 0 0 0
5090950000 -0.621673152  0.120940456 -0.024907446 -0.151876608 0 0 0 0
5096000000 -0.594550464  0.192494800 -0.030531618 -0.156356416 0 0 0 0
5101050000 -0.563696832  0.260446704 -0.034780256 -0.161569744 0 0 0 0
5106100000 -0.536808416  0.307841984 -0.040560396 -0.167069424 0 0 0 0
5111150000 -0.494061728  0.367027104 -0.046201284 -0.173013552 0 0 0 0
5116200000 -0.450287712  0.418455936 -0.053733520 -0.178850896 0 0 0 0
5121250000 -0.404838752  0.453621664 -0.062073892 -0.184254704 0 0 0 0
5126300000 -0.347263200  0.497810912 -0.070744528 -0.190006640 0 0 0 0
5131350000 -0.298214688  0.528533888 -0.083424912 -0.194543088 0 0 0 0
5136400000 -0.232915648  0.561259072 -0.094788952 -0.198678512 0 0 0 0
5141450000 -0.179493264  0.579003584 -0.108616296 -0.202031312 0 0 0 0
5146500000 -0.119328360  0.590329728 -0.121910368 -0.204753168 0 0 0 0
5151550000 -0.057308640  0.601709760 -0.139190400 -0.204396224 0 0 0 0
5156600000 -0.003109096  0.605297280 -0.157439104 -0.202307664 0 0 0 0
5161650000  0.057621444  0.604425728 -0.172288592 -0.201380688 0 0 0 0
5166700000  0.118949144  0.593044096 -0.192370816 -0.193369824 0 0 0 0
5171750000  0.169740480  0.583089280 -0.209832960 -0.185603552 0 0 0 0
5176800000  0.224619728  0.560832064 -0.225451696 -0.176054832 0 0 0 0
5181850000  0.276991360  0.540764736 -0.242999904 -0.160369728 0 0 0 0
5186900000  0.324503616  0.516606912 -0.257586832 -0.145700640 0 0 0 0
5191950000  0.369015072  0.488241184 -0.269609824 -0.129630808 0 0 0 0
5197000000  0.415200640  0.454500032 -0.280369088 -0.109556752 0 0 0 0
5202050000  0.455214176  0.416693280 -0.287850720 -0.089706272 0 0 0 0
5207100000  0.492405952  0.381014048 -0.294865280 -0.066764608 0 0 0 0
5212150000  0.526478464  0.338053056 -0.296685984 -0.049900624 0 0 0 0
5217200000  0.557199040  0.294211936 -0.297245664 -0.032243476 0 0 0 0
5222250000  0.581871424  0.248214048 -0.296309664 -0.013248796 0 0 0 0
5227300000  0.603865408  0.198166720 -0.293958048  0.005933977 0 0 0 0
5232350000  0.622904128  0.151752128 -0.289422496  0.022494720 0 0 0 0
5237400000  0.635313024  0.092750616 -0.284336480  0.041349056 0 0 0 0
5242450000  0.643562432  0.042781952 -0.278384608  0.051041780 0 0 0 0
5247500000  0.649137344 -0.010371855 -0.270719008  0.066178984 0 0 0 0
5252550000  0.647571328 -0.066589640 -0.264450400  0.077087672 0 0 0 0
5257600000  0.644717056 -0.116691160 -0.257831424  0.084709960 0 0 0 0
5262650000  0.633980288 -0.169976272 -0.251250384  0.093167120 0 0 0 0
5267700000  0.619463296 -0.224264080 -0.243958480  0.103673888 0 0 0 0
5272750000  0.601149696 -0.278251776 -0.237331632  0.110567720 0 0 0 0
5277800000  0.574102464 -0.329412736 -0.231528416  0.117333400 0 0 0 0
5282850000  0.547296576 -0.377015744 -0.225741328  0.125043912 0 0 0 0
5287900000  0.515081056 -0.423408672 -0.221189472  0.129172160 0 0 0 0
5292950000  0.468910400 -0.467493024 -0.215544416  0.135809920 0 0 0 0
5298000000  0.432662592 -0.511117088 -0.211731360  0.141452768 0 0 0 0
5303050000  0.375816672 -0.547503360 -0.206190608  0.148665104 0 0 0 0
5308100000  0.327504032 -0.580070720 -0.202281120  0.154331280 0 0 0 0
5313150000  0.276149088 -0.610953408 -0.198763632  0.160660400 0 0 0 0
5318200000  0.211178528 -0.630039424 -0.195540400  0.165276016 0 0 0 0
5323250000  0.152527136 -0.653018432 -0.191686688  0.171515920 0 0 0 0
5328300000  0.071575768 -0.656244224 -0.185917536  0.179358192 0 0 0 0
5333350000  0.013934985 -0.660437376 -0.182409488  0.184436016 0 0 0 0
5338400000 -0.059605508 -0.653108864 -0.178458336  0.191025184 0 0 0 0
5343450000 -0.131257520 -0.635134272 -0.172073536  0.199008816 0 0 0 0
5348500000 -0.203694672 -0.601767488 -0.165703312  0.204795536 0 0 0 0
5353550000 -0.245732480 -0.594379456 -0.163417424  0.208950880 0 0 0 0
5358600000 -0.310325344 -0.543734592 -0.152095680  0.218930288 0 0 0 0
5363650000 -0.369653888 -0.503712608 -0.152846032  0.220792000 0 0 0 0
5368700000 -0.418915488 -0.444102304 -0.144701200  0.227944544 0 0 0 0
5373750000 -0.455230208 -0.401897920 -0.137348544  0.233826064 0 0 0 0
5378800000 -0.490211712 -0.341917408 -0.131829040  0.239742224 0 0 0 0
5383850000 -0.516643360 -0.290413440 -0.124995456  0.245815920 0 0 0 0
5388900000 -0.545040064 -0.224094160 -0.118060728  0.251695872 0 0 0 0
5393950000 -0.560012544 -0.168733952 -0.112706744  0.257767232 0 0 0 0
5399000000 -0.571998400 -0.101562184 -0.102137272  0.265241184 0 0 0 0
5404050000 -0.575252928 -0.033275974 -0.094746944  0.271705952 0 0 0 0
5409100000 -0.571792896  0.022567564 -0.084035944  0.278613184 0 0 0 0
5414150000 -0.562676544  0.102969224 -0.071672176  0.285358560 0 0 0 0
5419200000 -0.547855936  0.160940672 -0.065823072  0.291986656 0 0 0 0
5424250000 -0.520580480  0.214966336 -0.051752572  0.297359392 0 0 0 0
5429300000 -0.490130176  0.281854848 -0.036246180  0.303398688 0 0 0 0
5434350000 -0.463072672  0.326669888 -0.022824976  0.308166688 0 0 0 0
5439400000 -0.417067360  0.376613600 -0.011584625  0.312559872 0 0 0 0
5444450000 -0.368219648  0.423736672  0.001720352  0.315733344 0 0 0 0
5449500000 -0.324475968  0.456463808  0.022232602  0.317985696 0 0 0 0
5454550000 -0.268213392  0.487201856  0.033601340  0.319478976 0 0 0 0
5459600000 -0.229122720  0.526162336  0.055500428  0.318258272 0 0 0 0
5464650000 -0.161408096  0.542204032  0.072245304  0.317348160 0 0 0 0
5469700000 -0.105575592  0.559756800  0.090745312  0.312723264 0 0 0 0
5474750000 -0.046349664  0.564231680  0.107952704  0.307657536 0 0 0 0
5479800000  0.009882695  0.568988800  0.123546720  0.301582816 0 0 0 0
5484850000  0.061980796  0.568712768  0.143508592  0.292228000 0 0 0 0
5489900000  0.122542192  0.555236032  0.155354176  0.283946528 0 0 0 0
5494950000  0.178830304  0.544478720  0.173326528  0.272242912 0 0 0 0
5500000000  0.224993248  0.525934400  0.185056336  0.259884000 0 0 0 0
5505050000  0.276820288  0.502264544  0.195450880  0.248354304 0 0 0 0
5510100000  0.323228480  0.475920864  0.206052736  0.234230512 0 0 0 0
5515150000  0.365230304  0.447743360  0.213941472  0.222544560 0 0 0 0
5520200000  0.406809312  0.412565280  0.223034048  0.205961152 0 0 0 0
5525250000  0.441496800  0.376830464  0.228976480  0.194002976 0 0 0 0
5530300000  0.475466368  0.331339520  0.233313472  0.180999360 0 0 0 0
5535350000  0.499605856  0.293927328  0.237395728  0.167275104 0 0 0 0
5540400000  0.524554496  0.244896672  0.240521792  0.155516256 0 0 0 0
5545450000  0.544037504  0.198252032  0.241471968  0.145445424 0 0 0 0
5550500000  0.556734784  0.149807264  0.244163504  0.131559280 0 0 0 0
5555550000  0.563102144  0.102163408  0.243888736  0.122845712 0 0 0 0
5560600000  0.569718784  0.053408496  0.246204400  0.109953664 0 0 0 0
5565650000  0.571899712  0.005821909  0.244080736  0.107050664 0 0 0 0
5570700000  0.561492864 -0.045229840  0.244948560  0.096447776 0 0 0 0
5575750000  0.554924672 -0.091482440  0.245847088  0.088376728 0 0 0 0
5580800000  0.541622144 -0.139391520  0.244285456  0.085012440 0 0 0 0
5585850000  0.522757472 -0.182927248  0.246314176  0.074851056 0 0 0 0
5590900000  0.496567072 -0.227503344  0.246341152  0.070557600 0 0 0 0
5595950000  0.472943232 -0.267127696  0.246903264  0.066545308 0 0 0 0
5601000000  0.446416352 -0.303871424  0.248564704  0.059998932 0 0 0 0
5606050000  0.406076960 -0.338753376  0.250195776  0.054534488 0 0 0 0
5611100000  0.366010080 -0.369317632  0.252472992  0.047483316 0 0 0 0
5616150000  0.334177184 -0.393462336  0.254654256  0.046144092 0 0 0 0
5621200000  0.291595840 -0.419167008  0.256913216  0.040962136 0 0 0 0
5626250000  0.244163680 -0.432457344  0.260318016  0.030877278 0 0 0 0
5631300000  0.196660912 -0.449364320  0.263714080  0.025448314 0 0 0 0
5636350000  0.149198160 -0.452018272  0.266821776  0.020626634 0 0 0 0
5641400000  0.114927672 -0.458438816  0.270298464  0.015040244 0 0 0 0
5646450000  0.048084732 -0.451446432  0.274014432  0.006085442 0 0 0 0
5651500000  0.030336130 -0.452226400  0.277478944 -0.001939256 0 0 0 0
5656550000 -0.021492654 -0.436103648  0.281295552 -0.011290418 0 0 0 0
5661600000 -0.058648648 -0.422737888  0.284595712 -0.021388806 0 0 0 0
5666650000 -0.078100472 -0.414278816  0.287724384 -0.026970176 0 0 0 0
5671700000 -0.138846400 -0.383034816  0.290678816 -0.042422740 0 0 0 0
5676750000 -0.152328592 -0.373480288  0.294420768 -0.046423088 0 0 0 0
5681800000 -0.193253072 -0.339227584  0.296072288 -0.063552760 0 0 0 0
5686850000 -0.215661936 -0.317382624  0.298694720 -0.074907136 0 0 0 0
5691900000 -0.240570672 -0.291629472  0.299714144 -0.088946704 0 0 0 0
5696950000 -0.268766432 -0.259510048  0.298507072 -0.106289184 0 0 0 0
5702000000 -0.280516160 -0.235068176  0.297884992 -0.123168992 0 0 0 0
5707050000 -0.300953760 -0.200846144  0.299328608 -0.132499608 0 0 0 0
5712100000 -0.318331968 -0.171134384  0.296433536 -0.151335168 0 0 0 0
5717150000 -0.329076672 -0.141838720  0.293528256 -0.165556912 0 0 0 0
5722200000 -0.334006656 -0.112082744  0.289813504 -0.181018736 0 0 0 0
5727250000 -0.351535200 -0.074535256  0.281071168 -0.203026720 0 0 0 0
5732300000 -0.350650048 -0.046398528  0.279323712 -0.213450448 0 0 0 0
5737350000 -0.357228704 -0.011204890  0.266133840 -0.234544816 0 0 0 0
5742400000 -0.355656064  0.028355812  0.262305680 -0.244824704 0 0 0 0
5747450000 -0.357589312  0.061865292  0.245240384 -0.267267792 0 0 0 0
5752500000 -0.347092384  0.093856760  0.233613328 -0.283544608 0 0 0 0
5757550000 -0.340636640  0.127134952  0.222134416 -0.297036096 0 0 0 0
5762600000 -0.331062624  0.157395008  0.204824256 -0.313623072 0 0 0 0
5767650000 -0.321860480  0.199468368  0.186545840 -0.327212608 0 0 0 0
5772700000 -0.301859328  0.231629120  0.170010432 -0.338778112 0 0 0 0
5777750000 -0.280676864  0.256165024  0.148710464 -0.351788096 0 0 0 0
5782800000 -0.261025696  0.290486432  0.128572528 -0.361111776 0 0 0 0
5787850000 -0.237579600  0.310195072  0.108061400 -0.369361632 0 0 0 0
5792900000 -0.202696000  0.337876768  0.086945824 -0.375424608 0 0 0 0
5797950000 -0.177354816  0.363923616  0.061718160 -0.379508640 0 0 0 0
5803000000 -0.139936624  0.377193184  0.037690120 -0.381736384 0 0 0 0
5808050000 -0.106191848  0.392667328  0.011778589 -0.383313568 0 0 0 0
5813100000 -0.073521336  0.405260288 -0.010955531 -0.381316864 0 0 0 0
5818150000 -0.030668654  0.414888480 -0.029015930 -0.377830048 0 0 0 0
5823200000  0.006269396  0.421489664 -0.057467532 -0.372780832 0 0 0 0
5828250000  0.045346984  0.422763744 -0.076961752 -0.365768096 0 0 0 0
5833300000  0.083476320  0.422153280 -0.093013240 -0.358673536 0 0 0 0
5838350000  0.116999152  0.418641696 -0.115104008 -0.348478464 0 0 0 0
5843400000  0.157370432  0.410272928 -0.130198536 -0.338399360 0 0 0 0
5848450000  0.195896352  0.394685760 -0.149907552 -0.325694784 0 0 0 0
5853500000  0.228837072  0.383379680 -0.162404272 -0.313840256 0 0 0 0
5858550000  0.267783408  0.363011936 -0.174659296 -0.302613664 0 0 0 0
5863600000  0.295450944  0.339020192 -0.188498576 -0.289113536 0 0 0 0
5868650000  0.320377120  0.313473792 -0.201296096 -0.273348832 0 0 0 0
5873700000  0.358953440  0.285179776 -0.207545696 -0.262802896 0 0 0 0
5878750000  0.379229984  0.259139888 -0.215402528 -0.250121392 0 0 0 0
5883800000  0.397343264  0.223400288 -0.226273216 -0.234827344 0 0 0 0
5888850000  0.415862784  0.189926432 -0.231105744 -0.224308336 0 0 0 0
5893900000  0.435412192  0.148374384 -0.236791968 -0.213544896 0 0 0 0
5898950000  0.445669280  0.116291160 -0.240521296 -0.203718320 0 0 0 0
5904000000  0.453521824  0.077008720 -0.248637024 -0.189132416 0 0 0 0
5909050000  0.454171008  0.034720240 -0.254292544 -0.179088352 0 0 0 0
5914100000  0.446978752 -0.009314348 -0.260133632 -0.166198144 0 0 0 0
5919150000  0.452345696 -0.044182052 -0.263335296 -0.159005312 0 0 0 0
5924200000  0.438729568 -0.088767936 -0.271134944 -0.144420736 0 0 0 0
5929250000  0.444750304 -0.110187792 -0.274980512 -0.137388464 0 0 0 0
5934300000  0.415494816 -0.162416496 -0.281760032 -0.121201840 0 0 0 0
5939350000  0.388590464 -0.198548640 -0.287335552 -0.111627240 0 0 0 0
5944400000  0.370077024 -0.228628592 -0.292099712 -0.099930064 0 0 0 0
5949450000  0.342927264 -0.261965456 -0.298318112 -0.086312952 0 0 0 0
5954500000  0.321734176 -0.287870720 -0.303928576 -0.069995368 0 0 0 0
5959550000  0.295902688 -0.311766656 -0.307712384 -0.058643132 0 0 0 0
5964600000  0.260298256 -0.329780352 -0.311264928 -0.043496520 0 0 0 0
5969650000  0.227043056 -0.345846720 -0.314871328 -0.027624362 0 0 0 0
5974700000  0.193427328 -0.363208192 -0.317109952 -0.008095310 0 0 0 0
5979750000  0.166430128 -0.372169280 -0.318496896  0.009365600 0 0 0 0
5984800000  0.131693616 -0.384332256 -0.318877408  0.023270744 0 0 0 0
5989850000  0.074712408 -0.395391648 -0.316640224  0.049252588 0 0 0 0
5994900000  0.065535084 -0.394269952 -0.314739328  0.062923880 0 0 0 0
5999950000  0.013565348 -0.395966048 -0.309970816  0.083776752 0 0 0 0
6005000000 -0.010535795 -0.394153312 -0.302811040  0.103924632 0 0 0 0
