!File created by NanoVNA
# Hz S RI R 50
4995000000  0.207436432 -0.722066176  0.004587489 -0.102305312 0 0 0 0
5000050000  0.134392752 -0.736111232  0.004365939 -0.102952720 0 0 0 0
5005100000  0.070422008 -0.745683840  0.004194767 -0.103790368 0 0 0 0
5010150000 -0.013210878 -0.741324096  0.004078360 -0.104826832 0 0 0 0
5015200000 -0.085618560 -0.738696832  0.004516804 -0.106501272 0 0 0 0
5020250000 -0.161884592 -0.717694528  0.000177988 -0.109479256 0 0 0 0
5025300000 -0.241432528 -0.692696128 -0.000169586 -0.111193656 0 0 0 0
5030350000 -0.306870304 -0.661182528 -0.001848289 -0.113383328 0 0 0 0
5035400000 -0.377852448 -0.613240064 -0.002666139 -0.115516104 0 0 0 0
5040450000 -0.440841760 -0.552806016 -0.003858927 -0.117637512 0 0 0 0
5045500000 -0.490668896 -0.499549920 -0.006495839 -0.119858312 0 0 0 0
5050550000 -0.538379520 -0.428127040 -0.007603396 -0.122416064 0 0 0 0
5055600000 -0.568841536 -0.373560448 -0.008948584 -0.124907456 0 0 0 0
5060650000 -0.596324160 -0.297897920 -0.010242180 -0.127520088 0 0 0 0
5065700000 -0.617525504 -0.223314592 -0.012796743 -0.130583432 0 0 0 0
5070750000 -0.630023168 -0.155518272 -0.014818243 -0.134230064 0 0 0 0
5075800000 -0.636437504 -0.086054904 -0.016327538 -0.137939600 0 0 0 0
5080850000 -0.635915456 -0.022651456 -0.018555888 -0.141869664 0 0 0 0
5085900000 -0.624438528  0.061388684 -0.023020720 -0.146025792 0 0 0 0
5090950000 -0.612313024  0.124070784 -0.025755834 -0.150736112 0 0 0 0
5096000000 -0.590419456  0.183693280 -0.029441298 -0.155658144 0 0 0 0
5101050000 -0.557898304  0.255433344 -0.033909040 -0.160779552 0 0 0 0
5106100000 -0.532537472  0.304010496 -0.039957476 -0.166148608 0 0 0 0
5111150000 -0.490255424  0.362004512 -0.046157552 -0.172191568 0 0 0 0
5116200000 -0.441023008  0.419992512 -0.055452744 -0.176786496 0 0 0 0
5121250000 -0.398165056  0.451742112 -0.061055060 -0.183318784 0 0 0 0
5126300000 -0.343946784  0.492009088 -0.070524656 -0.188725024 0 0 0 0
5131350000 -0.291112256  0.525937248 -0.082087880 -0.193170480 0 0 0 0
5136400000 -0.234675664  0.550909376 -0.092966336 -0.197835248 0 0 0 0
5141450000 -0.174485680  0.575939520 -0.107978296 -0.200353840 0 0 0 0
5146500000 -0.111729128  0.588556224 -0.121647984 -0.202586400 0 0 0 0
5151550000 -0.052459880  0.598599296 -0.138923760 -0.202286992 0 0 0 0
5156600000 -0.003509764  0.599207872 -0.154394960 -0.202192224 0 0 0 0
5161650000  0.056557736  0.597653440 -0.169109408 -0.201192816 0 0 0 0
5166700000  0.124769136  0.589522752 -0.192404624 -0.190089888 0 0 0 0
5171750000  0.175891056  0.579067520 -0.208413232 -0.183275824 0 0 0 0
5176800000  0.230409568  0.556540480 -0.224781040 -0.172851744 0 0 0 0
5181850000  0.279528288  0.536904768 -0.240629392 -0.159162112 0 0 0 0
5186900000  0.330019328  0.512416960 -0.255651888 -0.143929600 0 0 0 0
5191950000  0.373117664  0.484275648 -0.266862448 -0.128571632 0 0 0 0
5197000000  0.417352256  0.450644704 -0.277252384 -0.110268120 0 0 0 0
5202050000  0.456745760  0.412869632 -0.285647328 -0.089533776 0 0 0 0
5207100000  0.493908032  0.376347456 -0.291197888 -0.069583272 0 0 0 0
5212150000  0.528118144  0.333940736 -0.293971328 -0.051777348 0 0 0 0
5217200000  0.557721920  0.290780512 -0.295095520 -0.031587866 0 0 0 0
5222250000  0.582529280  0.243580624 -0.294436544 -0.013782803 0 0 0 0
5227300000  0.603589504  0.195959200 -0.291688928  0.003774342 0 0 0 0
5232350000  0.621663680  0.146860880 -0.287615776  0.022845648 0 0 0 0
5237400000  0.634820736  0.093801056 -0.283098464  0.034719312 0 0 0 0
5242450000  0.641758592  0.039322524 -0.276545664  0.050834560 0 0 0 0
5247500000  0.647848512 -0.012225824 -0.269563968  0.063819648 0 0 0 0
5252550000  0.645539136 -0.067890808 -0.263318128  0.074504176 0 0 0 0
5257600000  0.642736384 -0.118596536 -0.257162720  0.082698760 0 0 0 0
5262650000  0.630055936 -0.171361440 -0.249890336  0.091816560 0 0 0 0
5267700000  0.616982016 -0.223163552 -0.242859248  0.101635208 0 0 0 0
5272750000  0.598331840 -0.277148256 -0.236308944  0.109517440 0 0 0 0
5277800000  0.572509696 -0.328472000 -0.231413008  0.115137440 0 0 0 0
5282850000  0.544473984 -0.374592800 -0.224737760  0.122665536 0 0 0 0
5287900000  0.507354080 -0.420369088 -0.220408528  0.127092568 0 0 0 0
5292950000  0.467471776 -0.464335584 -0.214479472  0.135044016 0 0 0 0
5298000000  0.426132288 -0.506473472 -0.211342976  0.139636688 0 0 0 0
5303050000  0.378925952 -0.543933376 -0.207567152  0.144970880 0 0 0 0
5308100000  0.325652576 -0.574989184 -0.202280864  0.152888272 0 0 0 0
5313150000  0.267857248 -0.603531392 -0.199216576  0.158447456 0 0 0 0
5318200000  0.210124976 -0.623719424 -0.195342064  0.163774144 0 0 0 0
5323250000  0.142217584 -0.641857536 -0.190749776  0.171360560 0 0 0 0
5328300000  0.076352472 -0.651628096 -0.186594320  0.177281664 0 0 0 0
5333350000  0.010521519 -0.650092992 -0.182930656  0.183078656 0 0 0 0
5338400000 -0.041955252 -0.651178496 -0.181936624  0.185983584 0 0 0 0
5343450000 -0.126683640 -0.627631680 -0.173567584  0.196302336 0 0 0 0
5348500000 -0.210350912 -0.595658560 -0.163632560  0.206256576 0 0 0 0
5353550000 -0.240541456 -0.587658368 -0.163121136  0.208108496 0 0 0 0
5358600000 -0.311387392 -0.530374944 -0.153209248  0.217410304 0 0 0 0
5363650000 -0.363155136 -0.495395648 -0.152211616  0.220516112 0 0 0 0
5368700000 -0.408742976 -0.444820480 -0.146582752  0.225765728 0 0 0 0
5373750000 -0.446948320 -0.395607456 -0.137144624  0.233308432 0 0 0 0
5378800000 -0.481616320 -0.343015168 -0.133234408  0.238774944 0 0 0 0
5383850000 -0.509159872 -0.284588192 -0.125755888  0.245075104 0 0 0 0
5388900000 -0.535455776 -0.229098848 -0.122345360  0.249883312 0 0 0 0
5393950000 -0.554976256 -0.149909840 -0.109025896  0.258927552 0 0 0 0
5399000000 -0.561053120 -0.103801104 -0.104718424  0.263690976 0 0 0 0
5404050000 -0.568838080 -0.021843310 -0.092801424  0.272033024 0 0 0 0
5409100000 -0.564317952  0.035119336 -0.083337560  0.278949024 0 0 0 0
5414150000 -0.554309568  0.096630472 -0.075960696  0.284111808 0 0 0 0
5419200000 -0.539391872  0.158986816 -0.065634096  0.291107232 0 0 0 0
5424250000 -0.512794432  0.220191776 -0.052543860  0.296755872 0 0 0 0
5429300000 -0.483239520  0.278946720 -0.038258632  0.302433824 0 0 0 0
5434350000 -0.455951264  0.329287040 -0.024673506  0.307389504 0 0 0 0
5439400000 -0.410060512  0.375552768 -0.014813285  0.311465024 0 0 0 0
5444450000 -0.361567072  0.421259488 -0.001785061  0.314254880 0 0 0 0
5449500000 -0.315565376  0.464530528  0.024918336  0.316612192 0 0 0 0
5454550000 -0.262489968  0.485900800  0.030900742  0.318729600 0 0 0 0
5459600000 -0.223259680  0.525376320  0.054230596  0.317243232 0 0 0 0
5464650000 -0.155538080  0.541218624  0.070055848  0.316415872 0 0 0 0
5469700000 -0.103097288  0.556196416  0.087332064  0.313053792 0 0 0 0
5474750000 -0.042153800  0.562515968  0.106454416  0.306901600 0 0 0 0
5479800000  0.013230534  0.566921280  0.122321296  0.301170752 0 0 0 0
5484850000  0.065372780  0.567400064  0.140109616  0.292608928 0 0 0 0
5489900000  0.125063968  0.553879232  0.152697168  0.284160480 0 0 0 0
5494950000  0.180878240  0.542294848  0.168490608  0.273152192 0 0 0 0
5500000000  0.229672096  0.525658656  0.185278608  0.258616272 0 0 0 0
5505050000  0.278371328  0.500663104  0.190429360  0.250458032 0 0 0 0
5510100000  0.325630240  0.474418176  0.205170848  0.234004320 0 0 0 0
5515150000  0.367342336  0.446312256  0.213136848  0.221901600 0 0 0 0
5520200000  0.407624352  0.412879520  0.219277392  0.207944960 0 0 0 0
5525250000  0.443281920  0.376577568  0.226814576  0.194484688 0 0 0 0
5530300000  0.475599840  0.331293568  0.230604992  0.181908224 0 0 0 0
5535350000  0.500145152  0.293568992  0.235748880  0.168307888 0 0 0 0
5540400000  0.524315904  0.244887360  0.237963264  0.157367104 0 0 0 0
5545450000  0.542540736  0.197799104  0.240887936  0.144321840 0 0 0 0
5550500000  0.556573120  0.149492256  0.242688976  0.132014216 0 0 0 0
5555550000  0.562778944  0.103132072  0.242531136  0.123930776 0 0 0 0
5560600000  0.571643456  0.057427444  0.242210768  0.115958792 0 0 0 0
5565650000  0.565960896  0.002796517  0.243690736  0.105403944 0 0 0 0
5570700000  0.552688192 -0.048617424  0.244503312  0.094646728 0 0 0 0
5575750000  0.553253632 -0.090080920  0.244296208  0.090026360 0 0 0 0
5580800000  0.539133312 -0.139248544  0.243545584  0.085076016 0 0 0 0
5585850000  0.518934784 -0.180790160  0.244341824  0.076330400 0 0 0 0
5590900000  0.493758784 -0.226255664  0.245370208  0.071805392 0 0 0 0
5595950000  0.463956896 -0.265712944  0.246058240  0.066246836 0 0 0 0
5601000000  0.444726400 -0.301447104  0.247536032  0.060562576 0 0 0 0
5606050000  0.405595616 -0.334092960  0.248567296  0.058226496 0 0 0 0
5611100000  0.364975616 -0.364051584  0.251267904  0.049957668 0 0 0 0
5616150000  0.329234752 -0.389202816  0.253506064  0.046535932 0 0 0 0
5621200000  0.279751648 -0.413499520  0.255861456  0.041230604 0 0 0 0
5626250000  0.238380976 -0.427689568  0.259291552  0.032202516 0 0 0 0
5631300000  0.193266672 -0.444012800  0.262432160  0.026747432 0 0 0 0
5636350000  0.150939296 -0.447044864  0.265833232  0.022036278 0 0 0 0
5641400000  0.103063096 -0.450126112  0.269113088  0.015935908 0 0 0 0
5646450000  0.044635524 -0.440698272  0.272686432  0.006630276 0 0 0 0
5651500000  0.023294864 -0.443592192  0.276361568  0.000015961 0 0 0 0
5656550000 -0.024381762 -0.428201184  0.280083232 -0.009360190 0 0 0 0
5661600000 -0.061856580 -0.411903296  0.283555296 -0.020480108 0 0 0 0
5666650000 -0.095547056 -0.399053376  0.286895616 -0.028748976 0 0 0 0
5671700000 -0.130071608 -0.380236000  0.289978400 -0.039561844 0 0 0 0
5676750000 -0.160461712 -0.359988288  0.292881984 -0.049977684 0 0 0 0
5681800000 -0.194226064 -0.331709952  0.296074464 -0.060853372 0 0 0 0
5686850000 -0.210479392 -0.310628416  0.298071232 -0.072939728 0 0 0 0
5691900000 -0.241886144 -0.282354784  0.298936096 -0.088442784 0 0 0 0
5696950000 -0.267886048 -0.249068448  0.298452928 -0.102850720 0 0 0 0
5702000000 -0.283009504 -0.225862096  0.298621408 -0.120356968 0 0 0 0
5707050000 -0.298807552 -0.191097536  0.298585152 -0.130709512 0 0 0 0
5712100000 -0.312826976 -0.164206912  0.296895264 -0.147535792 0 0 0 0
5717150000 -0.322583136 -0.134334560  0.294916960 -0.159728192 0 0 0 0
5722200000 -0.338982016 -0.095757144  0.289511040 -0.179886768 0 0 0 0
5727250000 -0.349360800 -0.061468204  0.280056640 -0.201705136 0 0 0 0
5732300000 -0.340434624 -0.045256968  0.282779648 -0.205856896 0 0 0 0
5737350000 -0.352561088 -0.002771668  0.266474064 -0.230989024 0 0 0 0
5742400000 -0.351229664  0.035423352  0.259730880 -0.246200880 0 0 0 0
5747450000 -0.354893088  0.069780504  0.246251504 -0.264591664 0 0 0 0
5752500000 -0.343197728  0.101445824  0.233799360 -0.280646688 0 0 0 0
5757550000 -0.338425536  0.134766592  0.222420704 -0.294254592 0 0 0 0
5762600000 -0.327952480  0.164269760  0.203754752 -0.311160224 0 0 0 0
5767650000 -0.315884864  0.201185664  0.191232176 -0.321959296 0 0 0 0
5772700000 -0.296196608  0.232354112  0.171910240 -0.335621376 0 0 0 0
5777750000 -0.276625440  0.258831888  0.149709456 -0.348224480 0 0 0 0
5782800000 -0.255693472  0.290331904  0.131678016 -0.357680864 0 0 0 0
5787850000 -0.234023296  0.310164128  0.110954088 -0.366855328 0 0 0 0
5792900000 -0.202305952  0.341717440  0.087320488 -0.373844064 0 0 0 0
5797950000 -0.168574896  0.356995040  0.072884840 -0.376304384 0 0 0 0
5803000000 -0.140989024  0.379881344  0.039921824 -0.381100032 0 0 0 0
5808050000 -0.105900096  0.393089664  0.013774303 -0.382378816 0 0 0 0
5813100000 -0.072149648  0.404852672 -0.005361239 -0.380892352 0 0 0 0
5818150000 -0.032705624  0.415195872 -0.023899606 -0.377548864 0 0 0 0
5823200000  0.006399291  0.420453984 -0.049714656 -0.372804448 0 0 0 0
5828250000  0.044041776  0.421856928 -0.070185064 -0.366369472 0 0 0 0
5833300000  0.080548728  0.420298816 -0.090945096 -0.358134880 0 0 0 0
5838350000  0.114455928  0.417722912 -0.110899696 -0.348217376 0 0 0 0
5843400000  0.154230000  0.409666624 -0.124635136 -0.340214656 0 0 0 0
5848450000  0.192882128  0.395531776 -0.142544624 -0.327935264 0 0 0 0
5853500000  0.223752656  0.381176640 -0.158649328 -0.315705888 0 0 0 0
5858550000  0.261837936  0.359604160 -0.169376736 -0.305226336 0 0 0 0
5863600000  0.292790496  0.340757504 -0.181062000 -0.293696448 0 0 0 0
5868650000  0.317513536  0.315538752 -0.194522496 -0.277993248 0 0 0 0
5873700000  0.355998912  0.286579552 -0.203132528 -0.266223616 0 0 0 0
5878750000  0.373136768  0.257863616 -0.210969984 -0.254014640 0 0 0 0
5883800000  0.392830496  0.223195984 -0.220040096 -0.240828384 0 0 0 0
5888850000  0.410876704  0.190174896 -0.226725936 -0.229332144 0 0 0 0
5893900000  0.431460288  0.149995808 -0.232866928 -0.217952848 0 0 0 0
5898950000  0.437407392  0.113958040 -0.238810192 -0.206688432 0 0 0 0
5904000000  0.451138272  0.078158400 -0.243585072 -0.197176736 0 0 0 0
5909050000  0.452172448  0.038018584 -0.251222848 -0.183786960 0 0 0 0
5914100000  0.443913632 -0.007450699 -0.256863264 -0.172678320 0 0 0 0
5919150000  0.453718432 -0.039912016 -0.259871808 -0.166026256 0 0 0 0
5924200000  0.427994208 -0.092899744 -0.269786560 -0.149550208 0 0 0 0
5929250000  0.435892864 -0.115116752 -0.273382112 -0.143043824 0 0 0 0
5934300000  0.420496192 -0.156078384 -0.278339264 -0.132387344 0 0 0 0
5939350000  0.390385632 -0.194506768 -0.285909344 -0.119786824 0 0 0 0
5944400000  0.360960640 -0.230759136 -0.291113856 -0.107088976 0 0 0 0
5949450000  0.343723776 -0.260125280 -0.297430560 -0.095461616 0 0 0 0
5954500000  0.314883680 -0.286040736 -0.303639584 -0.079643432 0 0 0 0
5959550000  0.287145856 -0.309974592 -0.308511552 -0.066313924 0 0 0 0
5964600000  0.249629312 -0.329684064 -0.312570624 -0.050268780 0 0 0 0
5969650000  0.224469888 -0.343389664 -0.316547904 -0.036432560 0 0 0 0
5974700000  0.188730112 -0.362601984 -0.319349280 -0.017370804 0 0 0 0
5979750000  0.156640128 -0.372855904 -0.321362368  0.002336589 0 0 0 0
5984800000  0.122898192 -0.379390752 -0.321883008  0.015969610 0 0 0 0
5989850000  0.082107680 -0.390541600 -0.321499392  0.036874284 0 0 0 0
5994900000  0.051882700 -0.391046016 -0.319713120  0.057037496 0 0 0 0
5999950000  0.015052923 -0.389989696 -0.315315840  0.074778832 0 0 0 0
6005000000 -0.008295005 -0.388675424 -0.310744416  0.092473248 0 0 0 0
