!File created by NanoVNA
# Hz S RI R 50
4995000000  0.216104592 -0.723484672  0.006264778 -0.101958896 0 0 0 0
5000050000  0.132165400 -0.733888192  0.004741180 -0.102635160 0 0 0 0
5005100000  0.073343328 -0.746218816  0.005072821 -0.103545848 0 0 0 0
5010150000 -0.014419048 -0.744798592  0.005563929 -0.104948648 0 0 0 0
5015200000 -0.086359512 -0.736366528  0.004488742 -0.106208832 0 0 0 0
5020250000 -0.166561744 -0.716663232  0.000604533 -0.109404792 0 0 0 0
5025300000 -0.246918176 -0.688827712  0.000136799 -0.111141712 0 0 0 0
5030350000 -0.304887296 -0.660458176 -0.001344991 -0.112870880 0 0 0 0
5035400000 -0.378978400 -0.609117056 -0.001933434 -0.115141696 0 0 0 0
5040450000 -0.438192384 -0.554532544 -0.003567314 -0.117284680 0 0 0 0
5045500000 -0.489256576 -0.496337504 -0.005177976 -0.119232216 0 0 0 0
5050550000 -0.535940832 -0.431098624 -0.006307443 -0.121950624 0 0 0 0
5055600000 -0.571068224 -0.366167872 -0.008282881 -0.124505576 0 0 0 0
5060650000 -0.596354752 -0.303183744 -0.009357865 -0.127334776 0 0 0 0
5065700000 -0.618943424 -0.222716880 -0.012088340 -0.130104888 0 0 0 0
5070750000 -0.631193088 -0.161124096 -0.014196829 -0.133562592 0 0 0 0
5075800000 -0.637124928 -0.076683176 -0.015786017 -0.137325392 0 0 0 0
5080850000 -0.636018496 -0.019651464 -0.018392574 -0.141068832 0 0 0 0
5085900000 -0.625925312  0.053771540 -0.020983598 -0.145502752 0 0 0 0
5090950000 -0.614611008  0.122249568 -0.024105264 -0.150180672 0 0 0 0
5096000000 -0.591176832  0.181767472 -0.028466946 -0.154874336 0 0 0 0
5101050000 -0.562752576  0.248498768 -0.030628088 -0.160618016 0 0 0 0
5106100000 -0.531744480  0.306983360 -0.038664792 -0.165497904 0 0 0 0
5111150000 -0.489259168  0.365339872 -0.043912580 -0.171582160 0 0 0 0
5116200000 -0.445346848  0.414927136 -0.051833560 -0.176654784 0 0 0 0
5121250000 -0.396638400  0.454836704 -0.059346844 -0.182605376 0 0 0 0
5126300000 -0.339926688  0.497387552 -0.068423504 -0.188048624 0 0 0 0
5131350000 -0.290982016  0.526806240 -0.079524592 -0.192746752 0 0 0 0
5136400000 -0.233805504  0.552176576 -0.088598696 -0.198010768 0 0 0 0
5141450000 -0.170906448  0.578289856 -0.105586312 -0.200070032 0 0 0 0
5146500000 -0.115542952  0.586169280 -0.119083048 -0.202504064 0 0 0 0
5151550000 -0.053338816  0.597751808 -0.134001408 -0.203710832 0 0 0 0
5156600000  0.001295582  0.602101888 -0.152595040 -0.201220016 0 0 0 0
5161650000  0.059375384  0.599160256 -0.165684496 -0.201668032 0 0 0 0
5166700000  0.126471464  0.590749632 -0.187948464 -0.191909680 0 0 0 0
5171750000  0.178206624  0.579474240 -0.205543008 -0.183906768 0 0 0 0
5176800000  0.231680416  0.557276160 -0.221155088 -0.175203008 0 0 0 0
5181850000  0.278825056  0.536872256 -0.236460256 -0.163242336 0 0 0 0
5186900000  0.329671392  0.512128288 -0.251793648 -0.146635728 0 0 0 0
5191950000  0.375232928  0.483860640 -0.264172592 -0.130354720 0 0 0 0
5197000000  0.417685088  0.449987488 -0.273656384 -0.113876152 0 0 0 0
5202050000  0.458421664  0.412035968 -0.282265088 -0.093341840 0 0 0 0
5207100000  0.494825152  0.376381344 -0.288310464 -0.073720608 0 0 0 0
5212150000  0.527806112  0.334134176 -0.291060160 -0.056347928 0 0 0 0
5217200000  0.558461504  0.288976128 -0.292270048 -0.037543632 0 0 0 0
5222250000  0.583313792  0.241724032 -0.292218272 -0.016939914 0 0 0 0
5227300000  0.603797184  0.194631568 -0.289627008 -0.001895551 0 0 0 0
5232350000  0.622152384  0.144238992 -0.286022112  0.016464217 0 0 0 0
5237400000  0.634832512  0.092292024 -0.281841344  0.030973774 0 0 0 0
5242450000  0.642142144  0.038423488 -0.276000864  0.044167568 0 0 0 0
5247500000  0.646673024 -0.013641635 -0.269483616  0.057867508 0 0 0 0
5252550000  0.644444736 -0.069127864 -0.263355200  0.069734512 0 0 0 0
5257600000  0.641558912 -0.118824128 -0.256901776  0.078870992 0 0 0 0
5262650000  0.629494336 -0.172775136 -0.250726112  0.087002656 0 0 0 0
5267700000  0.615736640 -0.225512304 -0.243706720  0.097894976 0 0 0 0
5272750000  0.596363392 -0.277759488 -0.237577264  0.103929400 0 0 0 0
5277800000  0.571256192 -0.329386048 -0.232572240  0.111686440 0 0 0 0
5282850000  0.546600000 -0.373282784 -0.227522736  0.116957544 0 0 0 0
5287900000  0.509776832 -0.421125728 -0.222876368  0.122035176 0 0 0 0
5292950000  0.465978976 -0.463978208 -0.217255440  0.130094576 0 0 0 0
5298000000  0.426057312 -0.505984352 -0.213580368  0.135825408 0 0 0 0
5303050000  0.372929952 -0.543563008 -0.209637472  0.141867904 0 0 0 0
5308100000  0.325250464 -0.573122496 -0.204898848  0.149200672 0 0 0 0
5313150000  0.273626912 -0.603163264 -0.203601696  0.152812720 0 0 0 0
5318200000  0.206589264 -0.622388032 -0.198326304  0.160052192 0 0 0 0
5323250000  0.146800176 -0.641435520 -0.195504864  0.165624208 0 0 0 0
5328300000  0.076507696 -0.649737024 -0.190361552  0.173120560 0 0 0 0
5333350000  0.012302541 -0.650900224 -0.185559488  0.180385280 0 0 0 0
5338400000 -0.053790544 -0.644101504 -0.184480272  0.184517328 0 0 0 0
5343450000 -0.120622240 -0.629451776 -0.179882896  0.190943056 0 0 0 0
5348500000 -0.206813376 -0.585615680 -0.168753488  0.201959328 0 0 0 0
5353550000 -0.251084480 -0.568210880 -0.163054544  0.208662256 0 0 0 0
5358600000 -0.296919072 -0.540113600 -0.159526192  0.213113072 0 0 0 0
5363650000 -0.357913440 -0.498090080 -0.158239008  0.216575232 0 0 0 0
5368700000 -0.406791008 -0.442111936 -0.150177264  0.224197904 0 0 0 0
5373750000 -0.445237472 -0.400127904 -0.144385424  0.230130320 0 0 0 0
5378800000 -0.481266240 -0.340743808 -0.136744640  0.236832752 0 0 0 0
5383850000 -0.508942240 -0.279996896 -0.129614872  0.243786000 0 0 0 0
5388900000 -0.535313920 -0.219806992 -0.125178248  0.249097264 0 0 0 0
5393950000 -0.550353856 -0.161340768 -0.115790848  0.256899264 0 0 0 0
5399000000 -0.562709696 -0.087244496 -0.105605480  0.264122128 0 0 0 0
5404050000 -0.562343424 -0.044758276 -0.103582568  0.268239648 0 0 0 0
5409100000 -0.560842752  0.027634676 -0.088592240  0.277736736 0 0 0 0
5414150000 -0.553184192  0.105464872 -0.079637496  0.283961728 0 0 0 0
5419200000 -0.537955520  0.158052912 -0.073263600  0.290377632 0 0 0 0
5424250000 -0.511072224  0.218285904 -0.057618808  0.296319936 0 0 0 0
5429300000 -0.479534848  0.280525152 -0.043456036  0.301903936 0 0 0 0
5434350000 -0.454308352  0.327109120 -0.031137584  0.307209920 0 0 0 0
5439400000 -0.406224960  0.379881312 -0.014803190  0.311460544 0 0 0 0
5444450000 -0.359103104  0.425432640 -0.003307105  0.314830592 0 0 0 0
5449500000 -0.319808384  0.452794752  0.011853518  0.318354560 0 0 0 0
5454550000 -0.259979344  0.493217856  0.033235950  0.319561824 0 0 0 0
5459600000 -0.225676800  0.523030592  0.045362112  0.319942368 0 0 0 0
5464650000 -0.156492320  0.542851968  0.065264828  0.318904192 0 0 0 0
5469700000 -0.103904528  0.557856064  0.083499640  0.315036224 0 0 0 0
5474750000 -0.042728560  0.562695424  0.100960272  0.309955968 0 0 0 0
5479800000  0.014838284  0.570921152  0.119737992  0.303487392 0 0 0 0
5484850000  0.065256372  0.569373440  0.136133680  0.295765440 0 0 0 0
5489900000  0.124609248  0.555316480  0.150415008  0.287145664 0 0 0 0
5494950000  0.180335968  0.544069440  0.164685568  0.277119168 0 0 0 0
5500000000  0.225954496  0.525351104  0.177638640  0.265138240 0 0 0 0
5505050000  0.280151232  0.502508576  0.188774784  0.253601616 0 0 0 0
5510100000  0.326324352  0.475732064  0.204062704  0.235754416 0 0 0 0
5515150000  0.366838720  0.447914720  0.209716816  0.226420192 0 0 0 0
5520200000  0.408075744  0.414157440  0.216254240  0.211859920 0 0 0 0
5525250000  0.443390720  0.378288960  0.224322640  0.198063696 0 0 0 0
5530300000  0.476259296  0.333044160  0.228335520  0.186482304 0 0 0 0
5535350000  0.500371936  0.294705120  0.232744880  0.172647408 0 0 0 0
5540400000  0.524332416  0.244178736  0.236294896  0.160702864 0 0 0 0
5545450000  0.543526976  0.198485552  0.238144688  0.149398720 0 0 0 0
5550500000  0.560302720  0.151218880  0.238837952  0.139916224 0 0 0 0
5555550000  0.561810688  0.101525304  0.241523312  0.126259488 0 0 0 0
5560600000  0.573269120  0.057506052  0.240775040  0.119958712 0 0 0 0
5565650000  0.566127680  0.001113239  0.242399568  0.110332888 0 0 0 0
5570700000  0.564357120 -0.042483704  0.240743024  0.105224640 0 0 0 0
5575750000  0.548973504 -0.093812896  0.243259664  0.091349560 0 0 0 0
5580800000  0.536679552 -0.142706224  0.242153712  0.090039584 0 0 0 0
5585850000  0.525860608 -0.179239904  0.242913648  0.081460400 0 0 0 0
5590900000  0.499949792 -0.224861408  0.243606864  0.077746536 0 0 0 0
5595950000  0.467205536 -0.266579360  0.244873024  0.071167320 0 0 0 0
5601000000  0.443033792 -0.302766496  0.245974544  0.064614876 0 0 0 0
5606050000  0.401863648 -0.337077632  0.247745472  0.060723828 0 0 0 0
5611100000  0.376156064 -0.365262272  0.249050352  0.058459508 0 0 0 0
5616150000  0.335279232 -0.391370656  0.251355232  0.055418564 0 0 0 0
5621200000  0.270547488 -0.415563168  0.255158000  0.043501124 0 0 0 0
5626250000  0.234951344 -0.429289536  0.258073392  0.039073288 0 0 0 0
5631300000  0.196605600 -0.444951136  0.260844768  0.035506396 0 0 0 0
5636350000  0.146008096 -0.448424256  0.265089296  0.027246702 0 0 0 0
5641400000  0.105991584 -0.453819520  0.269116480  0.022245434 0 0 0 0
5646450000  0.051624532 -0.443931552  0.272232896  0.013365161 0 0 0 0
5651500000  0.020707346 -0.443051712  0.276106016  0.004553661 0 0 0 0
5656550000 -0.024942504 -0.428527712  0.280253664  0.001655310 0 0 0 0
5661600000 -0.068470016 -0.411888288  0.283786688 -0.014008294 0 0 0 0
5666650000 -0.100537104 -0.399522336  0.287360128 -0.020111858 0 0 0 0
5671700000 -0.131600736 -0.380966624  0.291728512 -0.029159992 0 0 0 0
5676750000 -0.173289712 -0.354004992  0.294099296 -0.043202816 0 0 0 0
5681800000 -0.197007360 -0.329625216  0.297593440 -0.052398000 0 0 0 0
5686850000 -0.214827808 -0.309031360  0.300055872 -0.065508084 0 0 0 0
5691900000 -0.242228384 -0.279588000  0.301970080 -0.076128808 0 0 0 0
5696950000 -0.267532016 -0.247999664  0.301718432 -0.093590800 0 0 0 0
5702000000 -0.279344096 -0.224168944  0.301144256 -0.112019416 0 0 0 0
5707050000 -0.298545856 -0.190626128  0.302912384 -0.121387704 0 0 0 0
5712100000 -0.311797312 -0.162112368  0.301561568 -0.138513808 0 0 0 0
5717150000 -0.318317696 -0.134992416  0.300816032 -0.148574608 0 0 0 0
5722200000 -0.334880256 -0.092876048  0.294794208 -0.169908688 0 0 0 0
5727250000 -0.343135936 -0.065221264  0.288960992 -0.188963792 0 0 0 0
5732300000 -0.348794016 -0.030294300  0.285396832 -0.202052976 0 0 0 0
5737350000 -0.348329216 -0.000446067  0.272539712 -0.224980624 0 0 0 0
5742400000 -0.350852128  0.040660840  0.266178880 -0.238885616 0 0 0 0
5747450000 -0.348777184  0.066199788  0.256915392 -0.254635936 0 0 0 0
5752500000 -0.338156544  0.099184168  0.244838464 -0.272110464 0 0 0 0
5757550000 -0.334674240  0.135405712  0.234097088 -0.286136096 0 0 0 0
5762600000 -0.324900384  0.164082672  0.215105440 -0.303977024 0 0 0 0
5767650000 -0.314646944  0.201938048  0.200679472 -0.316181344 0 0 0 0
5772700000 -0.292715456  0.231343312  0.182455488 -0.330386720 0 0 0 0
5777750000 -0.274448768  0.257716720  0.164294672 -0.342288960 0 0 0 0
5782800000 -0.254189824  0.288018560  0.144015440 -0.353088320 0 0 0 0
5787850000 -0.232042768  0.306867840  0.123439976 -0.362783104 0 0 0 0
5792900000 -0.199870192  0.336855616  0.104000208 -0.368357120 0 0 0 0
5797950000 -0.171603744  0.356735200  0.083223608 -0.374045792 0 0 0 0
5803000000 -0.141187424  0.375864448  0.054822268 -0.379448864 0 0 0 0
5808050000 -0.105517840  0.389465696  0.030725614 -0.380574752 0 0 0 0
5813100000 -0.073734880  0.401470176  0.012143643 -0.379745952 0 0 0 0
5818150000 -0.033765476  0.412204928 -0.009059505 -0.377649568 0 0 0 0
5823200000  0.004298045  0.417593376 -0.033245620 -0.374504576 0 0 0 0
5828250000  0.040577456  0.419289664 -0.056031440 -0.367985472 0 0 0 0
5833300000  0.078718944  0.419025888 -0.073498280 -0.361810848 0 0 0 0
5838350000  0.111031832  0.415850496 -0.096517240 -0.352404800 0 0 0 0
5843400000  0.149986992  0.408371008 -0.110414432 -0.344067488 0 0 0 0
5848450000  0.189284592  0.395400800 -0.128616560 -0.333088960 0 0 0 0
5853500000  0.220808688  0.382303968 -0.144346752 -0.321995296 0 0 0 0
5858550000  0.258341408  0.361217664 -0.155577584 -0.312037280 0 0 0 0
5863600000  0.286900416  0.340960576 -0.168048992 -0.300360288 0 0 0 0
5868650000  0.317214112  0.321843584 -0.179084736 -0.287370112 0 0 0 0
5873700000  0.352144448  0.289945440 -0.187528672 -0.276964160 0 0 0 0
5878750000  0.374560576  0.266837056 -0.195587776 -0.265822416 0 0 0 0
5883800000  0.390707648  0.228613504 -0.207643184 -0.251188992 0 0 0 0
5888850000  0.409601824  0.195746400 -0.214769856 -0.240207952 0 0 0 0
5893900000  0.429747584  0.154669456 -0.220849040 -0.230022528 0 0 0 0
5898950000  0.439104416  0.118799536 -0.227276176 -0.218920656 0 0 0 0
5904000000  0.451515552  0.082814680 -0.233872496 -0.208534368 0 0 0 0
5909050000  0.454454784  0.042028468 -0.238493920 -0.200736352 0 0 0 0
5914100000  0.448822944  0.000777276 -0.246651360 -0.187028192 0 0 0 0
5919150000  0.461643936 -0.031252072 -0.248864544 -0.183515856 0 0 0 0
5924200000  0.441776544 -0.080857840 -0.258852864 -0.168224352 0 0 0 0
5929250000  0.432692160 -0.116101128 -0.266045328 -0.158454128 0 0 0 0
5934300000  0.423462528 -0.154803552 -0.270604640 -0.150263760 0 0 0 0
5939350000  0.393946432 -0.192378432 -0.278770432 -0.138011808 0 0 0 0
5944400000  0.372690528 -0.227339216 -0.285443840 -0.127906728 0 0 0 0
5949450000  0.348566464 -0.261232384 -0.292542592 -0.115608936 0 0 0 0
5954500000  0.324104896 -0.287458368 -0.300192096 -0.100538968 0 0 0 0
5959550000  0.295653888 -0.312438496 -0.305724288 -0.087536544 0 0 0 0
5964600000  0.249130800 -0.334028768 -0.312021440 -0.071341128 0 0 0 0
5969650000  0.228313328 -0.350288416 -0.317698880 -0.057779888 0 0 0 0
5974700000  0.191716608 -0.365356320 -0.321844864 -0.040946356 0 0 0 0
5979750000  0.152269072 -0.378537472 -0.325783968 -0.022215686 0 0 0 0
5984800000  0.116130200 -0.386328832 -0.327546304 -0.005083815 0 0 0 0
5989850000  0.079127480 -0.392661344 -0.329494144  0.014607449 0 0 0 0
5994900000  0.056387628 -0.392638400 -0.329730400  0.032578436 0 0 0 0
5999950000  0.009381763 -0.394790336 -0.327990368  0.052176408 0 0 0 0
6005000000 -0.022716800 -0.392409152 -0.323144960  0.076357864 0 0 0 0
