!File created by NanoVNA
# Hz S RI R 50
4995000000  0.216818112 -0.724699264  0.006488128 -0.102304072 0 0 0 0
5000050000  0.132704768 -0.737936832  0.005548152 -0.103228736 0 0 0 0
5005100000  0.069662264 -0.747284416  0.004335851 -0.103977200 0 0 0 0
5010150000 -0.012374223 -0.745753024  0.005826042 -0.105145200 0 0 0 0
5015200000 -0.075210704 -0.746702528  0.005968015 -0.106499680 0 0 0 0
5020250000 -0.164763696 -0.721426240  0.000403173 -0.109686688 0 0 0 0
5025300000 -0.244901632 -0.695850688  0.000260821 -0.111654552 0 0 0 0
5030350000 -0.310479776 -0.660876096 -0.001167406 -0.113345392 0 0 0 0
5035400000 -0.383381024 -0.614062464 -0.001968706 -0.115772816 0 0 0 0
5040450000 -0.445550016 -0.556159552 -0.003274599 -0.118002648 0 0 0 0
5045500000 -0.497671104 -0.500002272 -0.005056240 -0.120129232 0 0 0 0
5050550000 -0.543572800 -0.434061184 -0.006492935 -0.122648040 0 0 0 0
5055600000 -0.575128768 -0.373945824 -0.008227287 -0.125038672 0 0 0 0
5060650000 -0.602229952 -0.303056768 -0.008891004 -0.127827464 0 0 0 0
5065700000 -0.623831488 -0.230932048 -0.010842386 -0.130923632 0 0 0 0
5070750000 -0.636551552 -0.163172416 -0.013109960 -0.134384336 0 0 0 0
5075800000 -0.643478272 -0.081288736 -0.015484409 -0.138099472 0 0 0 0
5080850000 -0.642967168 -0.028029972 -0.017354462 -0.141830160 0 0 0 0
5085900000 -0.631979456  0.056476596 -0.021689228 -0.146180848 0 0 0 0
5090950000 -0.620588416  0.124265376 -0.025030484 -0.150862336 0 0 0 0
5096000000 -0.596301952  0.191994160 -0.029026876 -0.155880592 0 0 0 0
5101050000 -0.567402752  0.252363024 -0.031878062 -0.161148896 0 0 0 0
5106100000 -0.539003456  0.304647456 -0.037609440 -0.166357808 0 0 0 0
5111150000 -0.494692800  0.366500288 -0.043773756 -0.172829280 0 0 0 0
5116200000 -0.449782304  0.420692704 -0.051719632 -0.178056944 0 0 0 0
5121250000 -0.401118144  0.458361568 -0.060059416 -0.183654656 0 0 0 0
5126300000 -0.346187904  0.500554336 -0.067968520 -0.189759744 0 0 0 0
5131350000 -0.297739776  0.529875232 -0.080514048 -0.193838768 0 0 0 0
5136400000 -0.238214944  0.556381888 -0.089878872 -0.199234368 0 0 0 0
5141450000 -0.181125440  0.579046528 -0.105047600 -0.202190288 0 0 0 0
5146500000 -0.117363264  0.591935104 -0.120671840 -0.203416480 0 0 0 0
5151550000 -0.057356680  0.602282816 -0.134842192 -0.205465680 0 0 0 0
5156600000 -0.003927092  0.605430720 -0.153951152 -0.202872064 0 0 0 0
5161650000  0.060971784  0.606040512 -0.169667680 -0.201102368 0 0 0 0
5166700000  0.118038480  0.593233728 -0.188419088 -0.194720944 0 0 0 0
5171750000  0.170421664  0.583055872 -0.204968800 -0.187898160 0 0 0 0
5176800000  0.226364752  0.561247424 -0.222389424 -0.176176752 0 0 0 0
5181850000  0.280205728  0.541594432 -0.239626768 -0.161956688 0 0 0 0
5186900000  0.328666048  0.516613056 -0.253975488 -0.147687840 0 0 0 0
5191950000  0.374142304  0.488131520 -0.266474224 -0.130508768 0 0 0 0
5197000000  0.416391296  0.454464000 -0.276542112 -0.113422056 0 0 0 0
5202050000  0.456958112  0.416118336 -0.284964288 -0.093480736 0 0 0 0
5207100000  0.493698368  0.379885920 -0.290846944 -0.072425976 0 0 0 0
5212150000  0.528510976  0.336749568 -0.293940416 -0.053606152 0 0 0 0
5217200000  0.558140480  0.292684992 -0.294823776 -0.036075168 0 0 0 0
5222250000  0.583142528  0.245423712 -0.293852672 -0.018646620 0 0 0 0
5227300000  0.604270400  0.197993712 -0.292289696 -0.000954451 0 0 0 0
5232350000  0.622952256  0.149018528 -0.288246496  0.018787762 0 0 0 0
5237400000  0.635647552  0.093734808 -0.283795520  0.031759888 0 0 0 0
5242450000  0.643705536  0.040304704 -0.277466912  0.046653432 0 0 0 0
5247500000  0.649345408 -0.010919514 -0.270971808  0.059212828 0 0 0 0
5252550000  0.647448192 -0.067302920 -0.264702208  0.071022120 0 0 0 0
5257600000  0.645195712 -0.116778808 -0.258493968  0.079561248 0 0 0 0
5262650000  0.635953280 -0.169318224 -0.252959200  0.086051256 0 0 0 0
5267700000  0.616322560 -0.226930208 -0.245050720  0.099011048 0 0 0 0
5272750000  0.599044096 -0.278547008 -0.239243696  0.103759416 0 0 0 0
5277800000  0.575477312 -0.328844960 -0.233388064  0.112602928 0 0 0 0
5282850000  0.547401216 -0.376933824 -0.227481856  0.120053584 0 0 0 0
5287900000  0.512561856 -0.422841280 -0.223375536  0.123892304 0 0 0 0
5292950000  0.466272480 -0.467450848 -0.217248816  0.132247704 0 0 0 0
5298000000  0.430236000 -0.510504320 -0.214671248  0.136415952 0 0 0 0
5303050000  0.381809824 -0.546899200 -0.210021104  0.142598864 0 0 0 0
5308100000  0.329177984 -0.578957440 -0.205176384  0.150455840 0 0 0 0
5313150000  0.274786528 -0.609804864 -0.202729760  0.155510272 0 0 0 0
5318200000  0.211479472 -0.628205696 -0.198917216  0.160798032 0 0 0 0
5323250000  0.152200544 -0.650555584 -0.194998928  0.167809296 0 0 0 0
5328300000  0.074143952 -0.656824832 -0.190784112  0.174309536 0 0 0 0
5333350000  0.028778868 -0.665601856 -0.189830320  0.177858256 0 0 0 0
5338400000 -0.070045936 -0.644320448 -0.180560224  0.189798304 0 0 0 0
5343450000 -0.115433304 -0.643932032 -0.181499744  0.190894368 0 0 0 0
5348500000 -0.195772384 -0.616790272 -0.171962400  0.201180256 0 0 0 0
5353550000 -0.262210512 -0.566352320 -0.159127344  0.212505936 0 0 0 0
5358600000 -0.301889184 -0.551939008 -0.159415328  0.214261840 0 0 0 0
5363650000 -0.365879456 -0.505957888 -0.157322176  0.218736640 0 0 0 0
5368700000 -0.415272000 -0.446768064 -0.149756176  0.225422336 0 0 0 0
5373750000 -0.451151296 -0.406735040 -0.142105856  0.232091696 0 0 0 0
5378800000 -0.490682944 -0.341000608 -0.137544928  0.237773648 0 0 0 0
5383850000 -0.517750560 -0.286402976 -0.129723144  0.244850720 0 0 0 0
5388900000 -0.545271616 -0.220460672 -0.123321400  0.250150736 0 0 0 0
5393950000 -0.558280512 -0.166903600 -0.118026808  0.256600880 0 0 0 0
5399000000 -0.570749312 -0.103372520 -0.107022568  0.264978912 0 0 0 0
5404050000 -0.572805952 -0.034142648 -0.100073768  0.270613600 0 0 0 0
5409100000 -0.570706048  0.023183020 -0.089920152  0.277836160 0 0 0 0
5414150000 -0.563101312  0.100672576 -0.076990328  0.285432832 0 0 0 0
5419200000 -0.548650816  0.155924784 -0.072787720  0.291097312 0 0 0 0
5424250000 -0.521206752  0.211411968 -0.058031292  0.297501888 0 0 0 0
5429300000 -0.490787584  0.280130400 -0.044779284  0.303649536 0 0 0 0
5434350000 -0.462309952  0.328967552 -0.031282400  0.308337216 0 0 0 0
5439400000 -0.417767456  0.377680832 -0.017134506  0.313514912 0 0 0 0
5444450000 -0.368664000  0.426969792 -0.004122562  0.317040480 0 0 0 0
5449500000 -0.325272384  0.457767104  0.016167697  0.319579296 0 0 0 0
5454550000 -0.269688256  0.484352608  0.028107776  0.321204480 0 0 0 0
5459600000 -0.230465824  0.526219360  0.048023152  0.320355744 0 0 0 0
5464650000 -0.162219184  0.542831808  0.066706404  0.319021280 0 0 0 0
5469700000 -0.107683400  0.559715712  0.085799872  0.315569696 0 0 0 0
5474750000 -0.049247460  0.562054016  0.102992112  0.310568160 0 0 0 0
5479800000  0.007988351  0.568874688  0.118396648  0.304628160 0 0 0 0
5484850000  0.061878560  0.570491008  0.137086960  0.296477152 0 0 0 0
5489900000  0.121405176  0.556618240  0.150766368  0.287835424 0 0 0 0
5494950000  0.177531744  0.545574400  0.166782256  0.276959904 0 0 0 0
5500000000  0.224556816  0.527089536  0.179598032  0.265165920 0 0 0 0
5505050000  0.277406304  0.503493792  0.190892544  0.252832480 0 0 0 0
5510100000  0.323410240  0.477386368  0.201915200  0.239031872 0 0 0 0
5515150000  0.365585920  0.448629312  0.211874512  0.225269280 0 0 0 0
5520200000  0.407012096  0.415075808  0.216873888  0.212961792 0 0 0 0
5525250000  0.442003584  0.378574464  0.224885120  0.199093264 0 0 0 0
5530300000  0.476212352  0.333364800  0.229875760  0.186499664 0 0 0 0
5535350000  0.500086656  0.295439072  0.234753520  0.171915264 0 0 0 0
5540400000  0.524927968  0.245465968  0.237182672  0.161370336 0 0 0 0
5545450000  0.545185600  0.199588192  0.240571472  0.147399136 0 0 0 0
5550500000  0.559494528  0.151561936  0.241264032  0.137339712 0 0 0 0
5555550000  0.564986880  0.102918864  0.241961056  0.128073304 0 0 0 0
5560600000  0.568680960  0.051652808  0.244519440  0.114197664 0 0 0 0
5565650000  0.572184960  0.003608093  0.242603008  0.111154352 0 0 0 0
5570700000  0.562263744 -0.045880620  0.242846368  0.101802024 0 0 0 0
5575750000  0.555438592 -0.092930120  0.244104944  0.092953880 0 0 0 0
5580800000  0.541925440 -0.141382288  0.242681536  0.089324016 0 0 0 0
5585850000  0.527705184 -0.183041504  0.244376832  0.081586328 0 0 0 0
5590900000  0.501600032 -0.227536464  0.245019120  0.076504328 0 0 0 0
5595950000  0.475962624 -0.268412624  0.245868848  0.071071016 0 0 0 0
5601000000  0.450343360 -0.305349056  0.247031504  0.065068076 0 0 0 0
5606050000  0.410011776 -0.339629248  0.248456112  0.062185584 0 0 0 0
5611100000  0.368869920 -0.369590720  0.250953520  0.053994908 0 0 0 0
5616150000  0.335611968 -0.395370272  0.253038144  0.051834240 0 0 0 0
5621200000  0.288309792 -0.421865536  0.256171136  0.045722984 0 0 0 0
5626250000  0.237715456 -0.434350624  0.259216784  0.037442180 0 0 0 0
5631300000  0.202566944 -0.452262464  0.262427872  0.034310924 0 0 0 0
5636350000  0.145645216 -0.453236768  0.266068160  0.026306924 0 0 0 0
5641400000  0.111867800 -0.458731488  0.269547072  0.021497788 0 0 0 0
5646450000  0.053656360 -0.452458720  0.273145632  0.014448691 0 0 0 0
5651500000  0.028136478 -0.452203264  0.276768640  0.004197239 0 0 0 0
5656550000 -0.019355064 -0.439551392  0.281093280 -0.002088934 0 0 0 0
5661600000 -0.059403308 -0.424397184  0.284926656 -0.013373956 0 0 0 0
5666650000 -0.096961712 -0.407000768  0.288013472 -0.020857232 0 0 0 0
5671700000 -0.137056496 -0.384823968  0.291366624 -0.034477668 0 0 0 0
5676750000 -0.159836688 -0.367514496  0.294438368 -0.043817916 0 0 0 0
5681800000 -0.190798336 -0.341318336  0.297746848 -0.054703188 0 0 0 0
5686850000 -0.212707504 -0.317508768  0.299952896 -0.066875048 0 0 0 0
5691900000 -0.241128352 -0.288357440  0.302168736 -0.078826136 0 0 0 0
5696950000 -0.269546848 -0.257264592  0.302541024 -0.094987848 0 0 0 0
5702000000 -0.279558816 -0.235377920  0.302345344 -0.112888552 0 0 0 0
5707050000 -0.297674592 -0.202097136  0.303432832 -0.122512288 0 0 0 0
5712100000 -0.315842912 -0.169921024  0.300385088 -0.142569952 0 0 0 0
5717150000 -0.327838560 -0.138868544  0.298122496 -0.156034864 0 0 0 0
5722200000 -0.330680640 -0.109545552  0.296244096 -0.168937824 0 0 0 0
5727250000 -0.349034592 -0.069951200  0.287834336 -0.192195568 0 0 0 0
5732300000 -0.347180064 -0.043577260  0.286712512 -0.201718944 0 0 0 0
5737350000 -0.351279680 -0.012737595  0.275328576 -0.222897344 0 0 0 0
5742400000 -0.353171008  0.032069606  0.267158576 -0.239349376 0 0 0 0
5747450000 -0.356015232  0.063167720  0.254870080 -0.257599056 0 0 0 0
5752500000 -0.342740864  0.094896264  0.243974624 -0.273655680 0 0 0 0
5757550000 -0.337064000  0.129319744  0.232069360 -0.288315872 0 0 0 0
5762600000 -0.329596224  0.160800752  0.212003392 -0.307182528 0 0 0 0
5767650000 -0.318474944  0.197936096  0.199379248 -0.318227808 0 0 0 0
5772700000 -0.298174880  0.228725984  0.181632672 -0.331470944 0 0 0 0
5777750000 -0.276556032  0.253192240  0.160879312 -0.344427264 0 0 0 0
5782800000 -0.256371744  0.283911392  0.142837872 -0.354455200 0 0 0 0
5787850000 -0.233322608  0.303022176  0.122153208 -0.363810080 0 0 0 0
5792900000 -0.202262752  0.333943680  0.104552928 -0.370586816 0 0 0 0
5797950000 -0.176004400  0.358355296  0.077446616 -0.376718208 0 0 0 0
5803000000 -0.143123120  0.375963328  0.051856144 -0.381126176 0 0 0 0
5808050000 -0.108307496  0.389628544  0.027791462 -0.382234720 0 0 0 0
5813100000 -0.074732112  0.401074912  0.008989287 -0.381721344 0 0 0 0
5818150000 -0.034279748  0.411962368 -0.012357680 -0.379384768 0 0 0 0
5823200000  0.003571239  0.418385408 -0.038623580 -0.375304864 0 0 0 0
5828250000  0.041324032  0.419476640 -0.062031600 -0.368555552 0 0 0 0
5833300000  0.078388480  0.419080000 -0.078862448 -0.362012800 0 0 0 0
5838350000  0.111878560  0.415823264 -0.099148544 -0.353067200 0 0 0 0
5843400000  0.151314208  0.407418336 -0.114459216 -0.344873600 0 0 0 0
5848450000  0.191284160  0.394967712 -0.132761864 -0.333359296 0 0 0 0
5853500000  0.224199168  0.383720224 -0.146038432 -0.322361856 0 0 0 0
5858550000  0.260261504  0.359682336 -0.161371984 -0.310401568 0 0 0 0
5863600000  0.290059360  0.340231360 -0.174068768 -0.298184512 0 0 0 0
5868650000  0.320609440  0.321519616 -0.181350672 -0.288229792 0 0 0 0
5873700000  0.353533952  0.286017376 -0.193760192 -0.274226176 0 0 0 0
5878750000  0.373674272  0.260127424 -0.203647056 -0.261307568 0 0 0 0
5883800000  0.392844544  0.225600864 -0.212138672 -0.248636224 0 0 0 0
5888850000  0.410704672  0.189295712 -0.220849872 -0.236295664 0 0 0 0
5893900000  0.434202048  0.153813760 -0.224967616 -0.227086080 0 0 0 0
5898950000  0.442730848  0.119894408 -0.228784256 -0.218652384 0 0 0 0
5904000000  0.455587968  0.082661912 -0.238087568 -0.204806400 0 0 0 0
5909050000  0.453242080  0.034120916 -0.244167552 -0.194966816 0 0 0 0
5914100000  0.451573824 -0.003860607 -0.250867632 -0.183081024 0 0 0 0
5919150000  0.460852448 -0.037966432 -0.253491760 -0.177434368 0 0 0 0
5924200000  0.435913216 -0.091764536 -0.264825968 -0.159590640 0 0 0 0
5929250000  0.446659424 -0.110506488 -0.267434448 -0.156111472 0 0 0 0
5934300000  0.416467552 -0.164037072 -0.275472576 -0.142800576 0 0 0 0
5939350000  0.396511776 -0.195999312 -0.281960128 -0.131850360 0 0 0 0
5944400000  0.377815616 -0.227871264 -0.286402560 -0.123672192 0 0 0 0
5949450000  0.347048384 -0.264368720 -0.294462368 -0.109600064 0 0 0 0
5954500000  0.323937248 -0.291111872 -0.302091296 -0.092202080 0 0 0 0
5959550000  0.299731808 -0.314612704 -0.307268544 -0.082402784 0 0 0 0
5964600000  0.257440000 -0.337145664 -0.313295200 -0.064273208 0 0 0 0
5969650000  0.225757408 -0.352650944 -0.317628960 -0.052108808 0 0 0 0
5974700000  0.200463952 -0.369289184 -0.321772672 -0.031826496 0 0 0 0
5979750000  0.164664336 -0.378337696 -0.324548768 -0.014450013 0 0 0 0
5984800000  0.118893488 -0.390182016 -0.326470336  0.004069432 0 0 0 0
5989850000  0.086775616 -0.396667328 -0.327179328  0.021338652 0 0 0 0
5994900000  0.059425036 -0.396731552 -0.326511744  0.039406148 0 0 0 0
5999950000  0.001644944 -0.399883424 -0.323074016  0.063925536 0 0 0 0
6005000000 -0.010938067 -0.394436576 -0.318534688  0.082608192 0 0 0 0
