!File created by NanoVNA
# Hz S RI R 50
4995000000  0.218261296 -0.725856064  0.006584400 -0.102133224 0 0 0 0
5000050000  0.137501824 -0.738841728  0.006015671 -0.102794232 0 0 0 0
5005100000  0.073038392 -0.749827008  0.005798452 -0.103841448 0 0 0 0
5010150000 -0.014751895 -0.744731584  0.005637009 -0.104770552 0 0 0 0
5015200000 -0.088049512 -0.741419712  0.005080714 -0.106337000 0 0 0 0
5020250000 -0.159415552 -0.725019392  0.001786702 -0.109459184 0 0 0 0
5025300000 -0.246042800 -0.695526976  0.000447665 -0.111133448 0 0 0 0
5030350000 -0.313674912 -0.660569856 -0.000424656 -0.113243096 0 0 0 0
5035400000 -0.379584096 -0.616979712 -0.001177593 -0.115250296 0 0 0 0
5040450000 -0.447132768 -0.552695552 -0.003107189 -0.117605208 0 0 0 0
5045500000 -0.498042784 -0.501269088 -0.003875604 -0.119843600 0 0 0 0
5050550000 -0.539448704 -0.436337024 -0.005699789 -0.121942648 0 0 0 0
5055600000 -0.576148096 -0.373037312 -0.007200175 -0.124726768 0 0 0 0
5060650000 -0.599931008 -0.306216480 -0.008144483 -0.127219408 0 0 0 0
5065700000 -0.624976192 -0.225945920 -0.010961565 -0.130305168 0 0 0 0
5070750000 -0.639306816 -0.167156096 -0.012841675 -0.134113624 0 0 0 0
5075800000 -0.643920640 -0.084197328 -0.014185966 -0.137376336 0 0 0 0
5080850000 -0.643604672 -0.019316168 -0.017210164 -0.141339728 0 0 0 0
5085900000 -0.632954368  0.053830164 -0.019734448 -0.145826784 0 0 0 0
5090950000 -0.620482624  0.118958248 -0.022286804 -0.150540336 0 0 0 0
5096000000 -0.598505728  0.183003056 -0.027014346 -0.155359280 0 0 0 0
5101050000 -0.569620480  0.253195792 -0.031138930 -0.160712432 0 0 0 0
5106100000 -0.540462336  0.304798656 -0.036922192 -0.165969312 0 0 0 0
5111150000 -0.495172608  0.367394720 -0.042872804 -0.171882624 0 0 0 0
5116200000 -0.451322048  0.419527200 -0.050211864 -0.177471504 0 0 0 0
5121250000 -0.401298208  0.459532128 -0.058103128 -0.183049152 0 0 0 0
5126300000 -0.347954336  0.498855616 -0.066455164 -0.188948928 0 0 0 0
5131350000 -0.294638496  0.532159456 -0.077615960 -0.193654464 0 0 0 0
5136400000 -0.235564272  0.558981760 -0.088878256 -0.198278608 0 0 0 0
5141450000 -0.180472256  0.579341440 -0.102803584 -0.201502512 0 0 0 0
5146500000 -0.118588280  0.591052480 -0.116724280 -0.204135888 0 0 0 0
5151550000 -0.051857608  0.606056512 -0.132812096 -0.204638080 0 0 0 0
5156600000 -0.003759776  0.606010176 -0.148847888 -0.204256576 0 0 0 0
5161650000  0.061044644  0.606144192 -0.166876608 -0.201040672 0 0 0 0
5166700000  0.120627648  0.594495872 -0.185291392 -0.195116256 0 0 0 0
5171750000  0.175483920  0.583913728 -0.203556448 -0.186705536 0 0 0 0
5176800000  0.229531792  0.561381440 -0.218675904 -0.177561584 0 0 0 0
5181850000  0.277710688  0.540969664 -0.235878480 -0.164105968 0 0 0 0
5186900000  0.328876000  0.516644416 -0.250632496 -0.149887744 0 0 0 0
5191950000  0.372352000  0.488222592 -0.262486272 -0.133961752 0 0 0 0
5197000000  0.418524288  0.453632064 -0.272675392 -0.117618632 0 0 0 0
5202050000  0.459499296  0.415046464 -0.282368160 -0.094663000 0 0 0 0
5207100000  0.494033600  0.379801056 -0.288087840 -0.075550416 0 0 0 0
5212150000  0.528434688  0.337215904 -0.290624160 -0.060385808 0 0 0 0
5217200000  0.558895296  0.292178080 -0.292157216 -0.039751896 0 0 0 0
5222250000  0.583288448  0.246432160 -0.292487136 -0.023334266 0 0 0 0
5227300000  0.604578432  0.196826304 -0.290015680 -0.003762319 0 0 0 0
5232350000  0.622891136  0.148855872 -0.287176000  0.011453996 0 0 0 0
5237400000  0.635649408  0.092339952 -0.282333984  0.028428992 0 0 0 0
5242450000  0.643413184  0.038856596 -0.277013152  0.040527076 0 0 0 0
5247500000  0.649221184 -0.011959471 -0.271090080  0.054218548 0 0 0 0
5252550000  0.646471552 -0.069214432 -0.264939808  0.066394212 0 0 0 0
5257600000  0.643136320 -0.119338848 -0.258541968  0.074905072 0 0 0 0
5262650000  0.632855296 -0.170880992 -0.252399088  0.082806920 0 0 0 0
5267700000  0.616989248 -0.225749664 -0.245682192  0.092688008 0 0 0 0
5272750000  0.597311488 -0.280059456 -0.239744720  0.101362024 0 0 0 0
5277800000  0.570917696 -0.330932000 -0.234340352  0.108330064 0 0 0 0
5282850000  0.542024768 -0.377347200 -0.229139536  0.115620024 0 0 0 0
5287900000  0.510555264 -0.422900320 -0.225025920  0.119762656 0 0 0 0
5292950000  0.466345664 -0.466625312 -0.219862224  0.126777160 0 0 0 0
5298000000  0.430793248 -0.508689888 -0.217135280  0.131504056 0 0 0 0
5303050000  0.376910496 -0.547176512 -0.212256736  0.139479408 0 0 0 0
5308100000  0.330858112 -0.577941440 -0.208304832  0.145846624 0 0 0 0
5313150000  0.274914976 -0.608960128 -0.205400560  0.152082736 0 0 0 0
5318200000  0.212006368 -0.627521024 -0.201450560  0.157545648 0 0 0 0
5323250000  0.142426736 -0.645661120 -0.197633744  0.165015744 0 0 0 0
5328300000  0.078173144 -0.655120320 -0.193725856  0.171139968 0 0 0 0
5333350000  0.014589680 -0.657701632 -0.190507584  0.176838016 0 0 0 0
5338400000 -0.041087920 -0.658413440 -0.190681904  0.180106784 0 0 0 0
5343450000 -0.146138384 -0.619491904 -0.177479168  0.194971600 0 0 0 0
5348500000 -0.186014864 -0.620971328 -0.178769424  0.195606272 0 0 0 0
5353550000 -0.252994064 -0.585317120 -0.169392304  0.205928560 0 0 0 0
5358600000 -0.310405440 -0.541583616 -0.160952176  0.214019296 0 0 0 0
5363650000 -0.363981952 -0.499175488 -0.162463616  0.215647776 0 0 0 0
5368700000 -0.413874944 -0.447254368 -0.154358368  0.223407920 0 0 0 0
5373750000 -0.451061600 -0.403510048 -0.148187680  0.229425040 0 0 0 0
5378800000 -0.488594112 -0.345610080 -0.141571024  0.236379264 0 0 0 0
5383850000 -0.511967360 -0.289242464 -0.134738560  0.242233776 0 0 0 0
5388900000 -0.543030336 -0.222179824 -0.128591376  0.249045440 0 0 0 0
5393950000 -0.559924736 -0.156954096 -0.119241560  0.256989456 0 0 0 0
5399000000 -0.569488256 -0.096236136 -0.110743648  0.263808048 0 0 0 0
5404050000 -0.571024128 -0.049357008 -0.108424224  0.268711936 0 0 0 0
5409100000 -0.571977920  0.029743932 -0.093884304  0.278372672 0 0 0 0
5414150000 -0.561365056  0.082090840 -0.088942272  0.283483616 0 0 0 0
5419200000 -0.546708608  0.159256080 -0.077567496  0.291156576 0 0 0 0
5424250000 -0.521671776  0.211053728 -0.064847156  0.297561920 0 0 0 0
5429300000 -0.490720448  0.275821536 -0.049037204  0.303919008 0 0 0 0
5434350000 -0.463855360  0.319557216 -0.037895724  0.308685440 0 0 0 0
5439400000 -0.418048128  0.372978656 -0.024990578  0.313314752 0 0 0 0
5444450000 -0.370871808  0.420723520 -0.010025306  0.317926976 0 0 0 0
5449500000 -0.325718720  0.456567648  0.011747941  0.320380832 0 0 0 0
5454550000 -0.270776544  0.484461792  0.022260102  0.322907040 0 0 0 0
5459600000 -0.230618656  0.527071008  0.044638152  0.322451520 0 0 0 0
5464650000 -0.162814832  0.541522496  0.059425328  0.321331584 0 0 0 0
5469700000 -0.109369248  0.560130304  0.078410240  0.318789664 0 0 0 0
5474750000 -0.049783492  0.562687488  0.096537960  0.313194976 0 0 0 0
5479800000  0.007672414  0.570422848  0.115198416  0.307234016 0 0 0 0
5484850000  0.061521148  0.572000896  0.135079552  0.298592320 0 0 0 0
5489900000  0.121151144  0.557623744  0.146510784  0.291036288 0 0 0 0
5494950000  0.175996480  0.545451968  0.159103696  0.282424928 0 0 0 0
5500000000  0.225640592  0.528614400  0.177362592  0.266940592 0 0 0 0
5505050000  0.276472992  0.504463488  0.185558320  0.257828864 0 0 0 0
5510100000  0.324560576  0.477784576  0.202096560  0.239200144 0 0 0 0
5515150000  0.365449600  0.450380256  0.206717216  0.231168928 0 0 0 0
5520200000  0.407324832  0.416089600  0.213650592  0.216926752 0 0 0 0
5525250000  0.442556640  0.379895968  0.221673120  0.202750128 0 0 0 0
5530300000  0.476241056  0.333293920  0.228213728  0.189599328 0 0 0 0
5535350000  0.500598848  0.296302272  0.232021440  0.175932544 0 0 0 0
5540400000  0.526423648  0.247610176  0.234103376  0.165957040 0 0 0 0
5545450000  0.544776960  0.199141680  0.237132944  0.153468928 0 0 0 0
5550500000  0.560395392  0.151606656  0.238808272  0.142751936 0 0 0 0
5555550000  0.567598336  0.103877048  0.239497344  0.133292896 0 0 0 0
5560600000  0.576799424  0.059950824  0.240022848  0.123423592 0 0 0 0
5565650000  0.569420288  0.001046870  0.241581776  0.114452832 0 0 0 0
5570700000  0.562722240 -0.046405936  0.241367616  0.105604680 0 0 0 0
5575750000  0.558272960 -0.092006152  0.241541392  0.099247632 0 0 0 0
5580800000  0.543354112 -0.142587568  0.241630768  0.093821120 0 0 0 0
5585850000  0.526914464 -0.183329808  0.242440960  0.086171496 0 0 0 0
5590900000  0.500953312 -0.229443360  0.243420512  0.081380416 0 0 0 0
5595950000  0.474480704 -0.268384032  0.244034128  0.075565288 0 0 0 0
5601000000  0.452312608 -0.306336448  0.245690176  0.068851208 0 0 0 0
5606050000  0.413306240 -0.339849248  0.246981024  0.065313168 0 0 0 0
5611100000  0.377121856 -0.370792736  0.249207184  0.061680000 0 0 0 0
5616150000  0.312558848 -0.398982848  0.253038848  0.050916668 0 0 0 0
5621200000  0.301697152 -0.421193408  0.253899104  0.054758688 0 0 0 0
5626250000  0.248149824 -0.435881600  0.257670784  0.044520548 0 0 0 0
5631300000  0.202818064 -0.453921344  0.260975296  0.039084764 0 0 0 0
5636350000  0.148104656 -0.453773728  0.264395328  0.033028820 0 0 0 0
5641400000  0.105862712 -0.459429760  0.268584288  0.027535222 0 0 0 0
5646450000  0.046970000 -0.451761568  0.272445504  0.017226754 0 0 0 0
5651500000  0.027134560 -0.454197600  0.276061152  0.010851688 0 0 0 0
5656550000 -0.019526586 -0.439240800  0.280202848  0.004453679 0 0 0 0
5661600000 -0.060079320 -0.421201120  0.284822784 -0.005567460 0 0 0 0
5666650000 -0.100810616 -0.407139296  0.288945952 -0.012909616 0 0 0 0
5671700000 -0.136270656 -0.384543136  0.292731744 -0.024714796 0 0 0 0
5676750000 -0.170430064 -0.362781472  0.295056896 -0.040898064 0 0 0 0
5681800000 -0.201697856 -0.335811392  0.298967328 -0.048809752 0 0 0 0
5686850000 -0.217815664 -0.313832640  0.301526400 -0.060827884 0 0 0 0
5691900000 -0.243763184 -0.285566176  0.304058112 -0.071693544 0 0 0 0
5696950000 -0.270152480 -0.253890160  0.304045184 -0.089314584 0 0 0 0
5702000000 -0.277756800 -0.234317936  0.305488064 -0.103121072 0 0 0 0
5707050000 -0.305032544 -0.193714416  0.305355200 -0.116804032 0 0 0 0
5712100000 -0.317380800 -0.164077904  0.303354688 -0.135547904 0 0 0 0
5717150000 -0.326396288 -0.134097424  0.302751456 -0.146267184 0 0 0 0
5722200000 -0.331133408 -0.108720544  0.301993472 -0.161756368 0 0 0 0
5727250000 -0.346584896 -0.067480248  0.292574592 -0.183844576 0 0 0 0
5732300000 -0.353727840 -0.032571168  0.287560896 -0.200058464 0 0 0 0
5737350000 -0.349244320 -0.007549902  0.279415552 -0.216997632 0 0 0 0
5742400000 -0.352722272  0.035939676  0.273290592 -0.231503408 0 0 0 0
5747450000 -0.349167616  0.061354644  0.261945936 -0.250074832 0 0 0 0
5752500000 -0.340261184  0.096775864  0.249088656 -0.267929440 0 0 0 0
5757550000 -0.335184672  0.130016480  0.239298272 -0.281995232 0 0 0 0
5762600000 -0.324831008  0.158178448  0.223982496 -0.297985792 0 0 0 0
5767650000 -0.314231680  0.195542336  0.209255408 -0.311700192 0 0 0 0
5772700000 -0.294379456  0.227483872  0.192535600 -0.325475872 0 0 0 0
5777750000 -0.276065792  0.253262336  0.173464336 -0.338401792 0 0 0 0
5782800000 -0.255780288  0.282249856  0.153799984 -0.349829344 0 0 0 0
5787850000 -0.236757312  0.306089312  0.133602960 -0.360516224 0 0 0 0
5792900000 -0.200547056  0.331081184  0.116458280 -0.365726656 0 0 0 0
5797950000 -0.172572944  0.352409824  0.091731216 -0.372271456 0 0 0 0
5803000000 -0.142587664  0.371532224  0.064328552 -0.378173248 0 0 0 0
5808050000 -0.107071344  0.385495456  0.041713432 -0.380436576 0 0 0 0
5813100000 -0.075177672  0.397962624  0.021850066 -0.380486304 0 0 0 0
5818150000 -0.037430888  0.409679520  0.000218969 -0.378936768 0 0 0 0
5823200000  0.001980225  0.415169184 -0.022692206 -0.375839328 0 0 0 0
5828250000  0.038525084  0.417053440 -0.045612076 -0.370557888 0 0 0 0
5833300000  0.076685880  0.417530656 -0.061725240 -0.364967072 0 0 0 0
5838350000  0.110094216  0.414526176 -0.083044320 -0.357506048 0 0 0 0
5843400000  0.148499312  0.407879264 -0.100459376 -0.348864864 0 0 0 0
5848450000  0.185776784  0.392817632 -0.120278728 -0.337792224 0 0 0 0
5853500000  0.218696704  0.382320256 -0.133860408 -0.327963872 0 0 0 0
5858550000  0.257136224  0.362597248 -0.144397504 -0.318967616 0 0 0 0
5863600000  0.286796960  0.342626624 -0.157712720 -0.306890304 0 0 0 0
5868650000  0.315813728  0.321224192 -0.170544848 -0.294654144 0 0 0 0
5873700000  0.348213472  0.286686656 -0.184534880 -0.280590464 0 0 0 0
5878750000  0.372123072  0.264566240 -0.191590208 -0.270641248 0 0 0 0
5883800000  0.390102080  0.228950608 -0.202223680 -0.257419584 0 0 0 0
5888850000  0.412837696  0.196123072 -0.208172592 -0.248077184 0 0 0 0
5893900000  0.434429056  0.156196752 -0.215555824 -0.237876272 0 0 0 0
5898950000  0.442259552  0.122812688 -0.222142336 -0.226726720 0 0 0 0
5904000000  0.457272224  0.084537240 -0.226820464 -0.218760912 0 0 0 0
5909050000  0.461055200  0.046968496 -0.234010704 -0.208063168 0 0 0 0
5914100000  0.452587712 -0.001638360 -0.242005936 -0.196828224 0 0 0 0
5919150000  0.462791488 -0.035181612 -0.245511616 -0.190692336 0 0 0 0
5924200000  0.447298912 -0.082898440 -0.255099200 -0.176910672 0 0 0 0
5929250000  0.442909184 -0.116504696 -0.261717408 -0.169021472 0 0 0 0
5934300000  0.431837568 -0.155830912 -0.266742848 -0.161127440 0 0 0 0
5939350000  0.398543744 -0.197443760 -0.277028288 -0.146704784 0 0 0 0
5944400000  0.384755104 -0.227945872 -0.281447712 -0.140005408 0 0 0 0
5949450000  0.351577376 -0.266149856 -0.290170368 -0.126088216 0 0 0 0
5954500000  0.335263136 -0.290853216 -0.297884096 -0.113628168 0 0 0 0
5959550000  0.296855392 -0.320442496 -0.304808224 -0.100925640 0 0 0 0
5964600000  0.264890848 -0.338959104 -0.311098144 -0.086590312 0 0 0 0
5969650000  0.228241776 -0.357124416 -0.317916320 -0.071990488 0 0 0 0
5974700000  0.198935632 -0.372380672 -0.323196640 -0.052088440 0 0 0 0
5979750000  0.166698672 -0.381995392 -0.327240480 -0.038188600 0 0 0 0
5984800000  0.133445960 -0.394565312 -0.330998944 -0.021460812 0 0 0 0
5989850000  0.071011360 -0.403750720 -0.333080416  0.004672700 0 0 0 0
5994900000  0.055006304 -0.400239744 -0.334661312  0.018875644 0 0 0 0
5999950000  0.001990366 -0.404376992 -0.333440800  0.041860600 0 0 0 0
6005000000 -0.019593168 -0.398741056 -0.329903552  0.064797364 0 0 0 0
