!File created by NanoVNA
# Hz S RI R 50
4995000000  0.238992592 -0.708285952 -0.064803048  0.049935928 0 0 0 0
5000050000  0.158029808 -0.724300416 -0.061422344  0.051673452 0 0 0 0
5005100000  0.098275376 -0.738618048 -0.058538320  0.052777384 0 0 0 0
5010150000  0.016335268 -0.740704768 -0.056313844  0.053689384 0 0 0 0
5015200000 -0.068299472 -0.734545536 -0.053166584  0.055483868 0 0 0 0
5020250000 -0.134301984 -0.724415360 -0.050202640  0.058500020 0 0 0 0
5025300000 -0.221824512 -0.693937152 -0.046787752  0.060211268 0 0 0 0
5030350000 -0.279875712 -0.672548992 -0.043914816  0.061543988 0 0 0 0
5035400000 -0.355324992 -0.626465536 -0.041420624  0.062828212 0 0 0 0
5040450000 -0.419983200 -0.573265536 -0.038405488  0.064068816 0 0 0 0
5045500000 -0.472141088 -0.524648960 -0.035524956  0.065488720 0 0 0 0
5050550000 -0.521813280 -0.454370336 -0.032604610  0.066617304 0 0 0 0
5055600000 -0.562667904 -0.389045760 -0.028901874  0.068083640 0 0 0 0
5060650000 -0.587012544 -0.329076032 -0.027055996  0.068803208 0 0 0 0
5065700000 -0.615639424 -0.252252016 -0.023127916  0.070374888 0 0 0 0
5070750000 -0.630687040 -0.196500864 -0.020672556  0.071736104 0 0 0 0
5075800000 -0.642534784 -0.110130072 -0.017340082  0.073105848 0 0 0 0
5080850000 -0.645608064 -0.049695212 -0.013708111  0.074543240 0 0 0 0
5085900000 -0.638068288  0.025830940 -0.010471081  0.075900512 0 0 0 0
5090950000 -0.629996928  0.092350688 -0.006948619  0.077393400 0 0 0 0
5096000000 -0.609977472  0.161363632 -0.002897351  0.078791952 0 0 0 0
5101050000 -0.580056896  0.237046592  0.000875031  0.080310592 0 0 0 0
5106100000 -0.557135552  0.287876544  0.006059039  0.081662376 0 0 0 0
5111150000 -0.517517568  0.347540352  0.010695492  0.083139328 0 0 0 0
5116200000 -0.476045856  0.401791360  0.015377868  0.084206048 0 0 0 0
5121250000 -0.428641504  0.446710592  0.021887096  0.084857120 0 0 0 0
5126300000 -0.372668864  0.495269632  0.027105654  0.085408960 0 0 0 0
5131350000 -0.325071456  0.527883936  0.033847388  0.085343664 0 0 0 0
5136400000 -0.262927536  0.562231616  0.040309032  0.084829176 0 0 0 0
5141450000 -0.206673888  0.586875328  0.047761640  0.083512680 0 0 0 0
5146500000 -0.145116352  0.600993408  0.054862356  0.081404192 0 0 0 0
5151550000 -0.082872536  0.617291840  0.061869784  0.078911392 0 0 0 0
5156600000 -0.031835288  0.621720832  0.068590296  0.075821032 0 0 0 0
5161650000  0.040903656  0.628232256  0.076310704  0.070277992 0 0 0 0
5166700000  0.103631816  0.618959424  0.083377464  0.064293704 0 0 0 0
5171750000  0.161337696  0.611621824  0.088983272  0.058265020 0 0 0 0
5176800000  0.218181600  0.590848192  0.093734192  0.051734056 0 0 0 0
5181850000  0.273220512  0.572322752  0.098351152  0.043384196 0 0 0 0
5186900000  0.325686624  0.548346112  0.101678760  0.035953796 0 0 0 0
5191950000  0.379724032  0.519988768  0.104263224  0.027064016 0 0 0 0
5197000000  0.427132864  0.485048128  0.105519280  0.019356952 0 0 0 0
5202050000  0.472383072  0.445024160  0.105995136  0.010175382 0 0 0 0
5207100000  0.511390912  0.408868480  0.105648544  0.002669271 0 0 0 0
5212150000  0.550674944  0.362303712  0.104270096 -0.004530346 0 0 0 0
5217200000  0.584486336  0.314248096  0.102415864 -0.012042184 0 0 0 0
5222250000  0.611919168  0.264341264  0.100101200 -0.018311106 0 0 0 0
5227300000  0.636438912  0.206576288  0.096463112 -0.026921136 0 0 0 0
5232350000  0.656528000  0.159282960  0.093692760 -0.030700290 0 0 0 0
5237400000  0.669364288  0.094801544  0.089805352 -0.036871216 0 0 0 0
5242450000  0.678471104  0.040812604  0.086282816 -0.040678684 0 0 0 0
5247500000  0.683114752 -0.018118544  0.082549472 -0.044781148 0 0 0 0
5252550000  0.681617344 -0.077784912  0.079177808 -0.048193932 0 0 0 0
5257600000  0.675239680 -0.132989064  0.075157296 -0.051454368 0 0 0 0
5262650000  0.661113472 -0.191420944  0.072130824 -0.053971924 0 0 0 0
5267700000  0.642928384 -0.249387376  0.068413056 -0.057435532 0 0 0 0
5272750000  0.620818560 -0.306863712  0.065335252 -0.059574524 0 0 0 0
5277800000  0.590797760 -0.361085248  0.062769564 -0.061619892 0 0 0 0
5282850000  0.557052992 -0.409724576  0.059853792 -0.064171756 0 0 0 0
5287900000  0.515749216 -0.458172288  0.057280584 -0.066124076 0 0 0 0
5292950000  0.468897568 -0.502578304  0.054561024 -0.068557264 0 0 0 0
5298000000  0.426420096 -0.545479552  0.052387180 -0.070996032 0 0 0 0
5303050000  0.368313344 -0.581910208  0.049706660 -0.073601656 0 0 0 0
5308100000  0.310970304 -0.610381632  0.047946516 -0.075718848 0 0 0 0
5313150000  0.254161328 -0.637660032  0.045318188 -0.078655632 0 0 0 0
5318200000  0.182370512 -0.656248640  0.042899976 -0.081382680 0 0 0 0
5323250000  0.121504136 -0.672068160  0.040829460 -0.084019864 0 0 0 0
5328300000  0.040507904 -0.671390144  0.037492912 -0.087251168 0 0 0 0
5333350000 -0.026848064 -0.665546304  0.034341832 -0.090474736 0 0 0 0
5338400000 -0.091227168 -0.653743616  0.032745134 -0.093151544 0 0 0 0
5343450000 -0.150374192 -0.639276288  0.030979522 -0.095821504 0 0 0 0
5348500000 -0.236838864 -0.598953344  0.026138780 -0.099438176 0 0 0 0
5353550000 -0.288761312 -0.565496576  0.021373320 -0.102773352 0 0 0 0
5358600000 -0.339526528 -0.518697024  0.016839980 -0.105915592 0 0 0 0
5363650000 -0.391110912 -0.475422368  0.016415354 -0.109099240 0 0 0 0
5368700000 -0.434911328 -0.421036128  0.012131886 -0.112096776 0 0 0 0
5373750000 -0.468210624 -0.375676256  0.007649547 -0.115392176 0 0 0 0
5378800000 -0.500615968 -0.313677344  0.003703232 -0.119134672 0 0 0 0
5383850000 -0.525516224 -0.257913712 -0.001746242 -0.122494968 0 0 0 0
5388900000 -0.545010368 -0.196748544 -0.005672466 -0.126144616 0 0 0 0
5393950000 -0.557225984 -0.135372560 -0.011547831 -0.129924000 0 0 0 0
5399000000 -0.561928448 -0.074203712 -0.018042656 -0.133267776 0 0 0 0
5404050000 -0.561101888 -0.004578142 -0.024271138 -0.136638144 0 0 0 0
5409100000 -0.555234560  0.055127128 -0.031677050 -0.140150704 0 0 0 0
5414150000 -0.542011392  0.122294424 -0.039517468 -0.142901552 0 0 0 0
5419200000 -0.522965376  0.178746112 -0.046815316 -0.146097056 0 0 0 0
5424250000 -0.495288896  0.236216608 -0.056226148 -0.148121952 0 0 0 0
5429300000 -0.460478176  0.291065024 -0.064720504 -0.149751312 0 0 0 0
5434350000 -0.433033408  0.334607360 -0.075169080 -0.150544096 0 0 0 0
5439400000 -0.386012320  0.381628576 -0.084680072 -0.151445520 0 0 0 0
5444450000 -0.338182880  0.423066624 -0.092499944 -0.152898528 0 0 0 0
5449500000 -0.292476928  0.454608992 -0.107139808 -0.149316736 0 0 0 0
5454550000 -0.236313200  0.485508288 -0.119205616 -0.146311168 0 0 0 0
5459600000 -0.201069616  0.514567008 -0.129489424 -0.143541312 0 0 0 0
5464650000 -0.134426608  0.528804480 -0.140298032 -0.139567552 0 0 0 0
5469700000 -0.082734480  0.542780224 -0.151869280 -0.132826792 0 0 0 0
5474750000 -0.027541058  0.541654784 -0.162300880 -0.125481608 0 0 0 0
5479800000  0.026975838  0.547552768 -0.173082816 -0.116620616 0 0 0 0
5484850000  0.075595832  0.544511168 -0.182734912 -0.106896672 0 0 0 0
5489900000  0.132183640  0.531405024 -0.190601184 -0.097550608 0 0 0 0
5494950000  0.182212288  0.517380064 -0.196784240 -0.088973936 0 0 0 0
5500000000  0.227752752  0.500975840 -0.204444816 -0.073233312 0 0 0 0
5505050000  0.274868224  0.478051008 -0.209861648 -0.061688040 0 0 0 0
5510100000  0.317350560  0.452462560 -0.213567760 -0.048660180 0 0 0 0
5515150000  0.355402240  0.425720128 -0.215926864 -0.039650636 0 0 0 0
5520200000  0.393759232  0.392530368 -0.217042544 -0.023116554 0 0 0 0
5525250000  0.425727072  0.359300736 -0.218186256 -0.013189735 0 0 0 0
5530300000  0.456484480  0.316418720 -0.217844368 -0.001895740 0 0 0 0
5535350000  0.478946752  0.283286560 -0.216938672  0.008569695 0 0 0 0
5540400000  0.501387776  0.237476192 -0.215641216  0.018824926 0 0 0 0
5545450000  0.518156960  0.193659536 -0.212951664  0.031347596 0 0 0 0
5550500000  0.532689856  0.150330176 -0.210921472  0.040162872 0 0 0 0
5555550000  0.539295040  0.107460896 -0.208272256  0.048356640 0 0 0 0
5560600000  0.542353600  0.061156900 -0.204448768  0.059575712 0 0 0 0
5565650000  0.547557760  0.017704950 -0.203190208  0.063441060 0 0 0 0
5570700000  0.536640928 -0.028733940 -0.198939184  0.073267880 0 0 0 0
5575750000  0.535599936 -0.068949808 -0.196011360  0.080700840 0 0 0 0
5580800000  0.522512032 -0.114991928 -0.193639072  0.087462672 0 0 0 0
5585850000  0.508898848 -0.152941856 -0.190392064  0.095240488 0 0 0 0
5590900000  0.482630656 -0.196442752 -0.187885760  0.102584632 0 0 0 0
5595950000  0.467547712 -0.232651408 -0.185004336  0.110011544 0 0 0 0
5601000000  0.458375840 -0.264449264 -0.184788384  0.113688344 0 0 0 0
5606050000  0.412977664 -0.303244576 -0.181649312  0.122761056 0 0 0 0
5611100000  0.375503616 -0.333309856 -0.177912064  0.132592680 0 0 0 0
5616150000  0.361978784 -0.360891840 -0.180493360  0.134817664 0 0 0 0
5621200000  0.327118560 -0.386057856 -0.178178784  0.142645984 0 0 0 0
5626250000  0.275141120 -0.408310560 -0.172663120  0.155483472 0 0 0 0
5631300000  0.238994544 -0.430314848 -0.171261264  0.163862080 0 0 0 0
5636350000  0.195511808 -0.440690304 -0.167906256  0.173582448 0 0 0 0
5641400000  0.163610928 -0.456742368 -0.167240896  0.181307392 0 0 0 0
5646450000  0.104419776 -0.460170048 -0.161809536  0.193911104 0 0 0 0
5651500000  0.071306960 -0.466392480 -0.157359232  0.203693072 0 0 0 0
5656550000  0.021072470 -0.463452864 -0.153818656  0.214283808 0 0 0 0
5661600000 -0.018051430 -0.457812480 -0.146483920  0.226294304 0 0 0 0
5666650000 -0.058204884 -0.452798592 -0.144685488  0.234649648 0 0 0 0
5671700000 -0.109130392 -0.434331136 -0.133600784  0.248833840 0 0 0 0
5676750000 -0.147684000 -0.419259680 -0.125495864  0.259900544 0 0 0 0
5681800000 -0.184004976 -0.397297600 -0.120077512  0.269976960 0 0 0 0
5686850000 -0.227141952 -0.369828480 -0.105054752  0.283959392 0 0 0 0
5691900000 -0.267076016 -0.339668448 -0.096435648  0.294066976 0 0 0 0
5696950000 -0.295371488 -0.310534624 -0.083739128  0.305578176 0 0 0 0
5702000000 -0.316094688 -0.283791168 -0.069348720  0.317101152 0 0 0 0
5707050000 -0.347174816 -0.241086160 -0.055799412  0.327142304 0 0 0 0
5712100000 -0.370534272 -0.200208992 -0.038330392  0.336744288 0 0 0 0
5717150000 -0.389470432 -0.155319952 -0.022166766  0.344679616 0 0 0 0
5722200000 -0.394433824 -0.119968520 -0.007977871  0.353433056 0 0 0 0
5727250000 -0.417804768 -0.063890496  0.023277948  0.359630208 0 0 0 0
5732300000 -0.417038208 -0.024559330  0.031472288  0.365940640 0 0 0 0
5737350000 -0.423222016  0.029493074  0.066721172  0.366493632 0 0 0 0
5742400000 -0.411325696  0.073832680  0.081843632  0.369880512 0 0 0 0
5747450000 -0.406974848  0.116743536  0.108515232  0.368786592 0 0 0 0
5752500000 -0.383094016  0.156569136  0.131717864  0.366995168 0 0 0 0
5757550000 -0.367291872  0.196994352  0.154745952  0.363340704 0 0 0 0
5762600000 -0.346527264  0.235370608  0.180746864  0.354831488 0 0 0 0
5767650000 -0.321398976  0.272387648  0.228714208  0.334842976 0 0 0 0
5772700000 -0.288833984  0.303672800  0.225025392  0.335268736 0 0 0 0
5777750000 -0.257314112  0.329935072  0.250732544  0.319106080 0 0 0 0
5782800000 -0.224553856  0.355296096  0.269889824  0.304728224 0 0 0 0
5787850000 -0.191232016  0.369235712  0.287856608  0.289141792 0 0 0 0
5792900000 -0.146536656  0.387445632  0.303438976  0.273033440 0 0 0 0
5797950000 -0.110592384  0.399626400  0.319881408  0.251129024 0 0 0 0
5803000000 -0.074684456  0.409605664  0.339445344  0.222983696 0 0 0 0
5808050000 -0.032920924  0.409888000  0.349899232  0.203784144 0 0 0 0
5813100000  0.002256921  0.410349888  0.357098720  0.184040256 0 0 0 0
5818150000  0.042824400  0.408833568  0.363628576  0.165242208 0 0 0 0
5823200000  0.079757448  0.401507840  0.370985792  0.140401328 0 0 0 0
5828250000  0.112815656  0.392800800  0.375042816  0.115508056 0 0 0 0
5833300000  0.145028608  0.380978080  0.376971680  0.094575016 0 0 0 0
5838350000  0.171824672  0.367486560  0.377191936  0.073666136 0 0 0 0
5843400000  0.203388720  0.351580096  0.376195936  0.055577532 0 0 0 0
5848450000  0.231666896  0.329886624  0.374239520  0.032931250 0 0 0 0
5853500000  0.252276816  0.310002368  0.370581664  0.010433110 0 0 0 0
5858550000  0.279286464  0.285987168  0.366438400 -0.001203381 0 0 0 0
5863600000  0.295545984  0.260810224  0.361253344 -0.019249308 0 0 0 0
5868650000  0.310437312  0.236927968  0.355623104 -0.040027760 0 0 0 0
5873700000  0.334318496  0.210888688  0.348512512 -0.053582928 0 0 0 0
5878750000  0.343636032  0.187670064  0.342191520 -0.064834884 0 0 0 0
5883800000  0.350119104  0.156852720  0.336005344 -0.077015136 0 0 0 0
5888850000  0.357296416  0.130699112  0.328302496 -0.091435056 0 0 0 0
5893900000  0.372200736  0.102720824  0.322251904 -0.100862024 0 0 0 0
5898950000  0.369033888  0.075391720  0.314923072 -0.111802632 0 0 0 0
5904000000  0.372058496  0.046940616  0.307399840 -0.123173512 0 0 0 0
5909050000  0.373088160  0.024231882  0.302824800 -0.129861144 0 0 0 0
5914100000  0.366474560 -0.005829524  0.294432640 -0.142391136 0 0 0 0
5919150000  0.369314304 -0.030182722  0.289412576 -0.147953456 0 0 0 0
5924200000  0.359880320 -0.061664484  0.280618592 -0.162130944 0 0 0 0
5929250000  0.360149888 -0.079205040  0.276702240 -0.167516304 0 0 0 0
5934300000  0.352955392 -0.107679368  0.268596128 -0.177261472 0 0 0 0
5939350000  0.341552352 -0.131484464  0.264266576 -0.184364944 0 0 0 0
5944400000  0.329606240 -0.155863872  0.256273744 -0.194770560 0 0 0 0
5949450000  0.316640224 -0.184551776  0.251407776 -0.201743760 0 0 0 0
5954500000  0.307439200 -0.207719728  0.242861648 -0.212561696 0 0 0 0
5959550000  0.294798560 -0.231889360  0.237825632 -0.219885808 0 0 0 0
5964600000  0.272698880 -0.252775728  0.227997888 -0.230735856 0 0 0 0
5969650000  0.253764368 -0.277205408  0.220793728 -0.239027856 0 0 0 0
5974700000  0.235030448 -0.297369056  0.211366992 -0.248216496 0 0 0 0
5979750000  0.216028992 -0.316521600  0.205293024 -0.255609984 0 0 0 0
5984800000  0.164142688 -0.344215104  0.191069744 -0.267656176 0 0 0 0
5989850000  0.142187200 -0.359584608  0.179938352 -0.276934560 0 0 0 0
5994900000  0.128688944 -0.368709856  0.173522768 -0.281166592 0 0 0 0
5999950000  0.067204632 -0.388184832  0.156929824 -0.293037568 0 0 0 0
6005000000  0.048142984 -0.392254432  0.144237520 -0.299055872 0 0 0 0
