!File created by NanoVNA
# Hz S RI R 50
4995000000  0.231084128 -0.712618752 -0.050922384  0.056214868 0 0 0 0
5000050000  0.158108432 -0.730235712 -0.048087344  0.056934068 0 0 0 0
5005100000  0.089669048 -0.741870080 -0.044673028  0.058251496 0 0 0 0
5010150000  0.013520889 -0.747685760 -0.043447972  0.058000048 0 0 0 0
5015200000 -0.068643440 -0.739863168 -0.040237288  0.059397392 0 0 0 0
5020250000 -0.140197088 -0.728356352 -0.036140840  0.062297780 0 0 0 0
5025300000 -0.225465248 -0.703830016 -0.033418392  0.063215232 0 0 0 0
5030350000 -0.289163328 -0.673678272 -0.030227524  0.064437964 0 0 0 0
5035400000 -0.366282688 -0.626802176 -0.027600992  0.065402524 0 0 0 0
5040450000 -0.430132032 -0.574716288 -0.024313546  0.066592240 0 0 0 0
5045500000 -0.482052192 -0.523980384 -0.021609234  0.067242296 0 0 0 0
5050550000 -0.526805760 -0.462710720 -0.018404746  0.068090960 0 0 0 0
5055600000 -0.569089280 -0.392919072 -0.014872145  0.069184288 0 0 0 0
5060650000 -0.596594688 -0.329367200 -0.012303290  0.069890472 0 0 0 0
5065700000 -0.622939712 -0.251948896 -0.008263464  0.070750360 0 0 0 0
5070750000 -0.638204096 -0.193587920 -0.005692113  0.071697584 0 0 0 0
5075800000 -0.648632640 -0.112232096 -0.002041380  0.072595848 0 0 0 0
5080850000 -0.652145216 -0.048890392  0.001820197  0.073417376 0 0 0 0
5085900000 -0.646146944  0.023053174  0.005170337  0.074353072 0 0 0 0
5090950000 -0.636614080  0.092208176  0.009850066  0.075205280 0 0 0 0
5096000000 -0.619321856  0.158098272  0.013784447  0.076096600 0 0 0 0
5101050000 -0.590964160  0.232315264  0.018312590  0.076781544 0 0 0 0
5106100000 -0.563257984  0.290531264  0.023713374  0.077027168 0 0 0 0
5111150000 -0.524252896  0.352075392  0.029065688  0.077506720 0 0 0 0
5116200000 -0.483441056  0.405493024  0.034121368  0.077475184 0 0 0 0
5121250000 -0.437098784  0.446868032  0.039922636  0.077226472 0 0 0 0
5126300000 -0.384125216  0.494564928  0.046580020  0.075987584 0 0 0 0
5131350000 -0.333637696  0.529028480  0.052803512  0.074562496 0 0 0 0
5136400000 -0.270035744  0.565458816  0.059409704  0.072489256 0 0 0 0
5141450000 -0.213046064  0.591118720  0.066474452  0.069322760 0 0 0 0
5146500000 -0.155194480  0.603369664  0.072634728  0.066008920 0 0 0 0
5151550000 -0.089755992  0.621577088  0.079055040  0.061401224 0 0 0 0
5156600000 -0.029379408  0.632152256  0.085811120  0.055463748 0 0 0 0
5161650000  0.032279566  0.632491008  0.090853400  0.050332972 0 0 0 0
5166700000  0.098081152  0.625053504  0.096292168  0.042090312 0 0 0 0
5171750000  0.155202752  0.617264064  0.100516296  0.034950624 0 0 0 0
5176800000  0.216338464  0.597148608  0.103406904  0.027189276 0 0 0 0
5181850000  0.269316672  0.579189312  0.105775960  0.018974320 0 0 0 0
5186900000  0.324340608  0.554678592  0.107029792  0.010611478 0 0 0 0
5191950000  0.376277664  0.526279520  0.107387888  0.001593252 0 0 0 0
5197000000  0.424680800  0.491673152  0.106557992 -0.006291453 0 0 0 0
5202050000  0.470001248  0.451429600  0.104812440 -0.014491618 0 0 0 0
5207100000  0.512733888  0.413177216  0.102236928 -0.023038748 0 0 0 0
5212150000  0.551515008  0.366989824  0.099476200 -0.028494546 0 0 0 0
5217200000  0.585749952  0.318846880  0.095783832 -0.035218640 0 0 0 0
5222250000  0.613398464  0.267581792  0.091836144 -0.040562336 0 0 0 0
5227300000  0.637913088  0.213169440  0.087673952 -0.045383120 0 0 0 0
5232350000  0.659185536  0.159681760  0.083230824 -0.050377920 0 0 0 0
5237400000  0.673198720  0.099903216  0.079253344 -0.053474720 0 0 0 0
5242450000  0.681797760  0.041238844  0.074902912 -0.056988804 0 0 0 0
5247500000  0.686593856 -0.017782528  0.070520360 -0.060028308 0 0 0 0
5252550000  0.685232192 -0.079501272  0.066797272 -0.062501812 0 0 0 0
5257600000  0.678758656 -0.135946176  0.062797048 -0.064408580 0 0 0 0
5262650000  0.665367808 -0.194996752  0.059434164 -0.066175832 0 0 0 0
5267700000  0.648152576 -0.253822560  0.055451708 -0.068565464 0 0 0 0
5272750000  0.622504896 -0.311984544  0.052039324 -0.069820368 0 0 0 0
5277800000  0.591085056 -0.368423264  0.049226172 -0.071705208 0 0 0 0
5282850000  0.562193920 -0.417140256  0.046654600 -0.073075016 0 0 0 0
5287900000  0.521753920 -0.465682592  0.044720596 -0.074361008 0 0 0 0
5292950000  0.470697728 -0.511566176  0.040855036 -0.076766880 0 0 0 0
5298000000  0.429697152 -0.554214208  0.039534020 -0.078065936 0 0 0 0
5303050000  0.370851712 -0.593665728  0.036775348 -0.080167312 0 0 0 0
5308100000  0.316236192 -0.622117504  0.034952704 -0.082578544 0 0 0 0
5313150000  0.248263696 -0.648902848  0.032394804 -0.084810136 0 0 0 0
5318200000  0.180364096 -0.668187712  0.030502050 -0.087067760 0 0 0 0
5323250000  0.114051312 -0.682063360  0.027878540 -0.089494128 0 0 0 0
5328300000  0.036589188 -0.682811456  0.025417516 -0.091959712 0 0 0 0
5333350000 -0.036021028 -0.676619392  0.022045622 -0.094985384 0 0 0 0
5338400000 -0.099623768 -0.666663104  0.019699968 -0.097568648 0 0 0 0
5343450000 -0.156322480 -0.651766016  0.018220490 -0.100140720 0 0 0 0
5348500000 -0.253007264 -0.590841728  0.011364867 -0.103014824 0 0 0 0
5353550000 -0.294430016 -0.568312640  0.008753409 -0.105725224 0 0 0 0
5358600000 -0.343788704 -0.533770080  0.005733581 -0.108428096 0 0 0 0
5363650000 -0.397810592 -0.487526560  0.004707048 -0.111722064 0 0 0 0
5368700000 -0.445143424 -0.428468672 -0.001120047 -0.114548824 0 0 0 0
5373750000 -0.480168928 -0.380192064 -0.005095587 -0.117532776 0 0 0 0
5378800000 -0.513605952 -0.318021632 -0.009826891 -0.120898000 0 0 0 0
5383850000 -0.532315360 -0.262356880 -0.014375740 -0.123882080 0 0 0 0
5388900000 -0.555375808 -0.198097136 -0.019071354 -0.127209408 0 0 0 0
5393950000 -0.569067456 -0.125916616 -0.026540286 -0.130324152 0 0 0 0
5399000000 -0.571171200 -0.076551824 -0.031110616 -0.133901152 0 0 0 0
5404050000 -0.572003136 -0.004496242 -0.037599156 -0.136985984 0 0 0 0
5409100000 -0.564584704  0.058056632 -0.046423540 -0.139460976 0 0 0 0
5414150000 -0.549350592  0.115520736 -0.053038608 -0.142413344 0 0 0 0
5419200000 -0.530291008  0.182620624 -0.060839756 -0.145197536 0 0 0 0
5424250000 -0.502503264  0.232789680 -0.069946336 -0.146610432 0 0 0 0
5429300000 -0.467544928  0.290117408 -0.079616120 -0.147920960 0 0 0 0
5434350000 -0.438900768  0.335114016 -0.089202072 -0.148420640 0 0 0 0
5439400000 -0.392154528  0.379012064 -0.099537816 -0.148332496 0 0 0 0
5444450000 -0.341754912  0.428300576 -0.109841928 -0.147666688 0 0 0 0
5449500000 -0.298085760  0.453777280 -0.122459016 -0.144628000 0 0 0 0
5454550000 -0.244342064  0.479217760 -0.132644464 -0.142646768 0 0 0 0
5459600000 -0.208612320  0.509788864 -0.143389872 -0.138370304 0 0 0 0
5464650000 -0.142090656  0.524371040 -0.154871008 -0.132866024 0 0 0 0
5469700000 -0.089715704  0.540527872 -0.167071936 -0.124689464 0 0 0 0
5474750000 -0.033091836  0.541455360 -0.177484832 -0.116147448 0 0 0 0
5479800000  0.019775558  0.544296128 -0.186278112 -0.108910992 0 0 0 0
5484850000  0.069172800  0.542833856 -0.196214496 -0.096696008 0 0 0 0
5489900000  0.125079480  0.529027040 -0.203694560 -0.086718000 0 0 0 0
5494950000  0.178477408  0.517543840 -0.211180752 -0.073812576 0 0 0 0
5500000000  0.220606752  0.498297088 -0.215430528 -0.063979500 0 0 0 0
5505050000  0.270356736  0.475582944 -0.220297792 -0.048824160 0 0 0 0
5510100000  0.311920256  0.450377952 -0.223112816 -0.036572008 0 0 0 0
5515150000  0.351245536  0.423004352 -0.225626336 -0.021543384 0 0 0 0
5520200000  0.388567584  0.392499392 -0.225459392 -0.012978239 0 0 0 0
5525250000  0.421515744  0.358163936 -0.225931888  0.002144074 0 0 0 0
5530300000  0.452562944  0.316249984 -0.224961920  0.013091890 0 0 0 0
5535350000  0.474866496  0.282462048 -0.223113824  0.024632826 0 0 0 0
5540400000  0.498337344  0.236279728 -0.221315888  0.033997404 0 0 0 0
5545450000  0.515717024  0.193022288 -0.217729008  0.047253572 0 0 0 0
5550500000  0.531313248  0.150241120 -0.215226368  0.054624388 0 0 0 0
5555550000  0.528956896  0.100124544 -0.210007072  0.069128928 0 0 0 0
5560600000  0.546030592  0.065280056 -0.207515904  0.073670880 0 0 0 0
5565650000  0.550552768  0.020863134 -0.206064592  0.076926040 0 0 0 0
5570700000  0.536889024 -0.030148910 -0.200341552  0.090303056 0 0 0 0
5575750000  0.538164608 -0.068116304 -0.197123600  0.096617360 0 0 0 0
5580800000  0.524106336 -0.116311704 -0.193791264  0.104081896 0 0 0 0
5585850000  0.510718688 -0.155328496 -0.189815472  0.112092496 0 0 0 0
5590900000  0.494882880 -0.196200192 -0.188287120  0.117223368 0 0 0 0
5595950000  0.475765952 -0.233695904 -0.185032752  0.124048232 0 0 0 0
5601000000  0.455316320 -0.270402624 -0.181381904  0.132183328 0 0 0 0
5606050000  0.422799552 -0.305807680 -0.179190288  0.139051344 0 0 0 0
5611100000  0.388873504 -0.337828512 -0.176386496  0.146144608 0 0 0 0
5616150000  0.373129920 -0.364368320 -0.176999760  0.150611360 0 0 0 0
5621200000  0.339872480 -0.394070592 -0.175433216  0.158053472 0 0 0 0
5626250000  0.288808192 -0.417712128 -0.167418256  0.171964528 0 0 0 0
5631300000  0.251636480 -0.441255104 -0.166178384  0.179131056 0 0 0 0
5636350000  0.208442560 -0.452689824 -0.164260224  0.187614000 0 0 0 0
5641400000  0.165976912 -0.469140960 -0.160593328  0.197549248 0 0 0 0
5646450000  0.110094480 -0.474618176 -0.155144832  0.209022672 0 0 0 0
5651500000  0.075056840 -0.482452128 -0.148828624  0.219860272 0 0 0 0
5656550000  0.028303604 -0.481291936 -0.144936304  0.229698176 0 0 0 0
5661600000 -0.023393020 -0.470182528 -0.136490240  0.241709280 0 0 0 0
5666650000 -0.063388156 -0.465709344 -0.131256360  0.251494176 0 0 0 0
5671700000 -0.108183488 -0.454479744 -0.123888840  0.263238400 0 0 0 0
5676750000 -0.138151664 -0.443689184 -0.117577344  0.272743360 0 0 0 0
5681800000 -0.202981056 -0.407436256 -0.102233352  0.286476512 0 0 0 0
5686850000 -0.224824928 -0.390133792 -0.093310152  0.296532256 0 0 0 0
5691900000 -0.262803024 -0.362016096 -0.082848128  0.307203808 0 0 0 0
5696950000 -0.304432960 -0.322547072 -0.068050960  0.317529408 0 0 0 0
5702000000 -0.327192256 -0.294517472 -0.051889856  0.328738944 0 0 0 0
5707050000 -0.358225792 -0.249731760 -0.038831040  0.337073088 0 0 0 0
5712100000 -0.385151680 -0.203712800 -0.018835768  0.346180608 0 0 0 0
5717150000 -0.400535712 -0.165152320 -0.002618862  0.353324672 0 0 0 0
5722200000 -0.411943392 -0.121404384  0.015887246  0.361308480 0 0 0 0
5727250000 -0.416441568 -0.080231112  0.033944372  0.365745824 0 0 0 0
5732300000 -0.434490112 -0.013942649  0.062347336  0.369042208 0 0 0 0
5737350000 -0.422876320  0.016610260  0.085849280  0.370171104 0 0 0 0
5742400000 -0.414494752  0.065832688  0.099317320  0.372940608 0 0 0 0
5747450000 -0.411867168  0.116410880  0.131945744  0.367684032 0 0 0 0
5752500000 -0.385608512  0.152991888  0.180488512  0.356989024 0 0 0 0
5757550000 -0.371225280  0.197834928  0.173811488  0.360032000 0 0 0 0
5762600000 -0.348481504  0.233463328  0.205165056  0.347659968 0 0 0 0
5767650000 -0.321564608  0.270983552  0.249000128  0.325561024 0 0 0 0
5772700000 -0.287988320  0.302504672  0.245363376  0.326254944 0 0 0 0
5777750000 -0.255001040  0.325151904  0.267617440  0.309665984 0 0 0 0
5782800000 -0.221502208  0.351299808  0.310360416  0.275385504 0 0 0 0
5787850000 -0.190835504  0.368336224  0.307635104  0.272797600 0 0 0 0
5792900000 -0.145429008  0.384656576  0.319895008  0.257040240 0 0 0 0
5797950000 -0.107754224  0.395103072  0.333097888  0.237466928 0 0 0 0
5803000000 -0.070917680  0.403096000  0.349878240  0.210585776 0 0 0 0
5808050000 -0.030074042  0.403988992  0.360319776  0.188057024 0 0 0 0
5813100000  0.003765933  0.404075680  0.366547232  0.168305840 0 0 0 0
5818150000  0.043478660  0.401783840  0.372146688  0.148837216 0 0 0 0
5823200000  0.082246736  0.395041376  0.377158336  0.123428264 0 0 0 0
5828250000  0.115051816  0.386553664  0.379750624  0.098783552 0 0 0 0
5833300000  0.146055600  0.373438176  0.380447200  0.080608384 0 0 0 0
5838350000  0.171348976  0.360967968  0.380436704  0.056729120 0 0 0 0
5843400000  0.202376368  0.343739648  0.377772896  0.037863768 0 0 0 0
5848450000  0.231231568  0.323532032  0.374940064  0.018014992 0 0 0 0
5853500000  0.254316624  0.306246048  0.370605248  0.000775586 0 0 0 0
5858550000  0.274019712  0.276990208  0.364845216 -0.024640280 0 0 0 0
5863600000  0.295975680  0.259531264  0.359473088 -0.031276484 0 0 0 0
5868650000  0.309097952  0.233526832  0.352486592 -0.052571152 0 0 0 0
5873700000  0.327226240  0.201808192  0.344270272 -0.068170632 0 0 0 0
5878750000  0.342235328  0.184809520  0.338377824 -0.078013648 0 0 0 0
5883800000  0.350453248  0.155047392  0.330426048 -0.092015312 0 0 0 0
5888850000  0.353629472  0.128368888  0.322904448 -0.102286432 0 0 0 0
5893900000  0.369298848  0.100909008  0.316693600 -0.112573840 0 0 0 0
5898950000  0.371994880  0.077488376  0.309628032 -0.120203968 0 0 0 0
5904000000  0.379142688  0.053216912  0.301347776 -0.132339808 0 0 0 0
5909050000  0.378045568  0.025826792  0.296008576 -0.139668336 0 0 0 0
5914100000  0.368493248 -0.004949952  0.287298144 -0.150533872 0 0 0 0
5919150000  0.370042144 -0.031193188  0.281819968 -0.157546224 0 0 0 0
5924200000  0.362914400 -0.059011296  0.272076384 -0.170193632 0 0 0 0
5929250000  0.377699392 -0.068527560  0.270690368 -0.170651296 0 0 0 0
5934300000  0.355640640 -0.111782848  0.259603168 -0.185794480 0 0 0 0
5939350000  0.344385408 -0.134275680  0.254547024 -0.192067408 0 0 0 0
5944400000  0.339709824 -0.155599200  0.249710672 -0.198021712 0 0 0 0
5949450000  0.323167936 -0.187977344  0.241982032 -0.208262240 0 0 0 0
5954500000  0.312986400 -0.212387632  0.234046256 -0.217655376 0 0 0 0
5959550000  0.303518784 -0.232998976  0.229561584 -0.223970416 0 0 0 0
5964600000  0.278556608 -0.259035136  0.219549584 -0.234458320 0 0 0 0
5969650000  0.264728432 -0.278123008  0.212622144 -0.242252080 0 0 0 0
5974700000  0.239569536 -0.305407616  0.201979520 -0.252584256 0 0 0 0
5979750000  0.219286352 -0.324616672  0.195574976 -0.259551488 0 0 0 0
5984800000  0.196631568 -0.343891040  0.186347968 -0.267179872 0 0 0 0
5989850000  0.140280288 -0.369654240  0.170520880 -0.279087360 0 0 0 0
5994900000  0.126080184 -0.379563584  0.163101872 -0.284787424 0 0 0 0
5999950000  0.096443400 -0.390579808  0.155110448 -0.290282016 0 0 0 0
6005000000  0.058106140 -0.402310656  0.138206832 -0.299381664 0 0 0 0
