!File created by NanoVNA
# Hz S RI R 50
4995000000  0.240270928 -0.701104384 -0.094363792  0.030701822 0 0 0 0
5000050000  0.162286992 -0.717718720 -0.091312928  0.033575876 0 0 0 0
5005100000  0.105227928 -0.732691008 -0.088843424  0.035471744 0 0 0 0
5010150000  0.025332252 -0.737246464 -0.086373216  0.038072788 0 0 0 0
5015200000 -0.063244620 -0.731883520 -0.083648720  0.041057452 0 0 0 0
5020250000 -0.129435152 -0.721355648 -0.081218944  0.045868660 0 0 0 0
5025300000 -0.209678960 -0.700490048 -0.078656696  0.048184412 0 0 0 0
5030350000 -0.274856960 -0.672889280 -0.075966912  0.050639260 0 0 0 0
5035400000 -0.345716768 -0.635817600 -0.073935584  0.052946364 0 0 0 0
5040450000 -0.412658912 -0.580475072 -0.070819248  0.055442708 0 0 0 0
5045500000 -0.470485376 -0.526433056 -0.068312776  0.057381844 0 0 0 0
5050550000 -0.518557248 -0.461175616 -0.065136320  0.060257228 0 0 0 0
5055600000 -0.559120448 -0.393140640 -0.062249788  0.062645352 0 0 0 0
5060650000 -0.589142336 -0.331539904 -0.060221520  0.064092996 0 0 0 0
5065700000 -0.615560128 -0.255477552 -0.056816108  0.066946792 0 0 0 0
5070750000 -0.631538560 -0.195501088 -0.054531788  0.069026176 0 0 0 0
5075800000 -0.642645056 -0.117389848 -0.051856484  0.071464848 0 0 0 0
5080850000 -0.646022208 -0.049639764 -0.048864020  0.074077320 0 0 0 0
5085900000 -0.642062976  0.020168114 -0.046632116  0.076351800 0 0 0 0
5090950000 -0.632692416  0.093000056 -0.042998388  0.079386080 0 0 0 0
5096000000 -0.614940736  0.159850928 -0.039574220  0.082163120 0 0 0 0
5101050000 -0.587313664  0.231841504 -0.037278144  0.084757960 0 0 0 0
5106100000 -0.561975808  0.283117280 -0.032622684  0.088105976 0 0 0 0
5111150000 -0.522726880  0.348140032 -0.029144310  0.091459240 0 0 0 0
5116200000 -0.479515456  0.404598528 -0.024353350  0.094330256 0 0 0 0
5121250000 -0.429184832  0.451709664 -0.019087494  0.097476248 0 0 0 0
5126300000 -0.377602592  0.495084800 -0.013167895  0.100579280 0 0 0 0
5131350000 -0.327821888  0.529632384 -0.007502523  0.103039440 0 0 0 0
5136400000 -0.266192192  0.563777408 -0.001050813  0.105545168 0 0 0 0
5141450000 -0.207305408  0.589463168  0.006756325  0.107486464 0 0 0 0
5146500000 -0.142979600  0.606175424  0.015296380  0.108572264 0 0 0 0
5151550000 -0.079819104  0.621405056  0.023157140  0.109257544 0 0 0 0
5156600000 -0.021360732  0.629049280  0.033261340  0.108285368 0 0 0 0
5161650000  0.036953300  0.627500864  0.038974028  0.108030048 0 0 0 0
5166700000  0.106760672  0.621554368  0.049356644  0.105235192 0 0 0 0
5171750000  0.164112624  0.613757312  0.058298964  0.101455456 0 0 0 0
5176800000  0.220507024  0.590967616  0.066663968  0.096531160 0 0 0 0
5181850000  0.279107520  0.572199680  0.075045536  0.090511192 0 0 0 0
5186900000  0.333697856  0.547488832  0.082070176  0.084306488 0 0 0 0
5191950000  0.381162272  0.518208032  0.087285520  0.077985064 0 0 0 0
5197000000  0.430951328  0.481968096  0.093022352  0.069653384 0 0 0 0
5202050000  0.474740160  0.441726048  0.097267400  0.061606816 0 0 0 0
5207100000  0.516818240  0.402809504  0.101459984  0.052011228 0 0 0 0
5212150000  0.553177024  0.356928960  0.102925568  0.045141172 0 0 0 0
5217200000  0.586154752  0.308426272  0.104158592  0.037394204 0 0 0 0
5222250000  0.613124992  0.257275648  0.105113584  0.028795078 0 0 0 0
5227300000  0.634939648  0.204211312  0.104779376  0.021215912 0 0 0 0
5232350000  0.654249536  0.152952592  0.104089488  0.013928187 0 0 0 0
5237400000  0.667640064  0.093770368  0.103119528  0.007016215 0 0 0 0
5242450000  0.674277440  0.035728880  0.101266536  0.000840911 0 0 0 0
5247500000  0.678868992 -0.021368984  0.099366304 -0.005399430 0 0 0 0
5252550000  0.675931264 -0.081045576  0.097179280 -0.010601693 0 0 0 0
5257600000  0.669889408 -0.134811424  0.094875440 -0.015360631 0 0 0 0
5262650000  0.656857088 -0.191902000  0.092795104 -0.019194560 0 0 0 0
5267700000  0.635529216 -0.249950432  0.090032880 -0.024877108 0 0 0 0
5272750000  0.614183872 -0.305182048  0.087854480 -0.028404534 0 0 0 0
5277800000  0.584722624 -0.359244640  0.086179648 -0.031372156 0 0 0 0
5282850000  0.556560256 -0.405117376  0.083898560 -0.035337872 0 0 0 0
5287900000  0.515053824 -0.452956256  0.081944016 -0.038471940 0 0 0 0
5292950000  0.462103808 -0.497746368  0.079823160 -0.042672896 0 0 0 0
5298000000  0.424619008 -0.538163712  0.078186744 -0.045930916 0 0 0 0
5303050000  0.370707968 -0.575354496  0.076482128 -0.049500808 0 0 0 0
5308100000  0.309229856 -0.603111552  0.074348328 -0.053385812 0 0 0 0
5313150000  0.257949536 -0.629555264  0.073185192 -0.056504524 0 0 0 0
5318200000  0.187542848 -0.647348864  0.071186824 -0.060305024 0 0 0 0
5323250000  0.119006152 -0.661597440  0.068938592 -0.064518064 0 0 0 0
5328300000  0.047890108 -0.663549568  0.066690124 -0.068323216 0 0 0 0
5333350000 -0.014687235 -0.660551168  0.064566308 -0.072562304 0 0 0 0
5338400000 -0.080927512 -0.652165504  0.062754080 -0.076045568 0 0 0 0
5343450000 -0.154971696 -0.624589120  0.059664216 -0.080656616 0 0 0 0
5348500000 -0.218505920 -0.603644160  0.057361064 -0.084330992 0 0 0 0
5353550000 -0.280168352 -0.565115904  0.052832568 -0.089559992 0 0 0 0
5358600000 -0.333723584 -0.519772832  0.048636564 -0.094066784 0 0 0 0
5363650000 -0.379376544 -0.483799168  0.048249456 -0.096950944 0 0 0 0
5368700000 -0.426683840 -0.426742208  0.044792236 -0.101389760 0 0 0 0
5373750000 -0.460263904 -0.382603616  0.040306340 -0.105875864 0 0 0 0
5378800000 -0.496522784 -0.318341536  0.036275924 -0.110572968 0 0 0 0
5383850000 -0.520205088 -0.260011680  0.031264212 -0.115040624 0 0 0 0
5388900000 -0.542750592 -0.200426736  0.027910180 -0.119341744 0 0 0 0
5393950000 -0.553388032 -0.149024032  0.023031564 -0.124239848 0 0 0 0
5399000000 -0.563743872 -0.077369488  0.016014703 -0.129099336 0 0 0 0
5404050000 -0.563336704 -0.011563315  0.010839534 -0.133413600 0 0 0 0
5409100000 -0.559128896  0.046183428  0.003516613 -0.138053216 0 0 0 0
5414150000 -0.546324864  0.118268888 -0.003118008 -0.142616304 0 0 0 0
5419200000 -0.528271008  0.175380480 -0.008441014 -0.147013136 0 0 0 0
5424250000 -0.501240384  0.229641760 -0.019057274 -0.150244880 0 0 0 0
5429300000 -0.468625440  0.288609024 -0.026586154 -0.153785456 0 0 0 0
5434350000 -0.442842752  0.330046176 -0.037011120 -0.156743280 0 0 0 0
5439400000 -0.396159456  0.377729152 -0.046427588 -0.159371376 0 0 0 0
5444450000 -0.345638592  0.428034048 -0.056321396 -0.160927552 0 0 0 0
5449500000 -0.303493760  0.454155872 -0.068453504 -0.161623248 0 0 0 0
5454550000 -0.243970608  0.493179488 -0.081944928 -0.160350112 0 0 0 0
5459600000 -0.211130704  0.516559232 -0.090626168 -0.160354800 0 0 0 0
5464650000 -0.143768112  0.534773344 -0.103966920 -0.157518736 0 0 0 0
5469700000 -0.091602808  0.549012416 -0.116300072 -0.153277696 0 0 0 0
5474750000 -0.033408202  0.550814720 -0.127873688 -0.147683744 0 0 0 0
5479800000  0.022440598  0.557436160 -0.139528640 -0.141378048 0 0 0 0
5484850000  0.073438992  0.556804800 -0.150948976 -0.133038744 0 0 0 0
5489900000  0.129042384  0.540759104 -0.158999984 -0.126739560 0 0 0 0
5494950000  0.182589296  0.528033152 -0.167783456 -0.117712248 0 0 0 0
5500000000  0.229172112  0.510526240 -0.177097504 -0.105158600 0 0 0 0
5505050000  0.278602176  0.486819936 -0.183299520 -0.095225184 0 0 0 0
5510100000  0.321906080  0.460319008 -0.189629840 -0.082471536 0 0 0 0
5515150000  0.361446528  0.432359008 -0.193240176 -0.073961856 0 0 0 0
5520200000  0.400188128  0.398918304 -0.196565648 -0.060910456 0 0 0 0
5525250000  0.433178688  0.364058016 -0.200129472 -0.048134988 0 0 0 0
5530300000  0.463906016  0.319066400 -0.201949232 -0.038630624 0 0 0 0
5535350000  0.487188096  0.284870336 -0.201682992 -0.029372386 0 0 0 0
5540400000  0.509444608  0.236968528 -0.202232496 -0.016685207 0 0 0 0
5545450000  0.526980576  0.193453168 -0.202425984 -0.008389226 0 0 0 0
5550500000  0.539657856  0.145924016 -0.201374736  0.002304849 0 0 0 0
5555550000  0.541035264  0.098418952 -0.199784480  0.013609839 0 0 0 0
5560600000  0.557508928  0.062749952 -0.198531216  0.016874564 0 0 0 0
5565650000  0.550367424  0.008777138 -0.197079120  0.026730356 0 0 0 0
5570700000  0.541903296 -0.035493108 -0.195308560  0.035737812 0 0 0 0
5575750000  0.538880640 -0.078650720 -0.194094096  0.042741760 0 0 0 0
5580800000  0.522100576 -0.125408056 -0.192214912  0.050231464 0 0 0 0
5585850000  0.511344320 -0.161930896 -0.190651840  0.058160444 0 0 0 0
5590900000  0.483991744 -0.203459232 -0.190378000  0.063955492 0 0 0 0
5595950000  0.457789440 -0.243808528 -0.188663712  0.071717088 0 0 0 0
5601000000  0.441168416 -0.277430688 -0.188129792  0.078113856 0 0 0 0
5606050000  0.405964896 -0.310987040 -0.188373792  0.084743400 0 0 0 0
5611100000  0.379228256 -0.339709440 -0.187845728  0.091126928 0 0 0 0
5616150000  0.335053088 -0.366808032 -0.186673984  0.100328352 0 0 0 0
5621200000  0.309605344 -0.391027232 -0.187933696  0.105095432 0 0 0 0
5626250000  0.275081248 -0.410291232 -0.186372256  0.115772440 0 0 0 0
5631300000  0.225277952 -0.432375200 -0.186115024  0.124642112 0 0 0 0
5636350000  0.180955248 -0.438257984 -0.183696816  0.135696352 0 0 0 0
5641400000  0.148052656 -0.451786592 -0.185004224  0.142533744 0 0 0 0
5646450000  0.093178248 -0.451590976 -0.181938000  0.155132704 0 0 0 0
5651500000  0.058621912 -0.457412576 -0.178519696  0.166285088 0 0 0 0
5656550000  0.017667584 -0.453651136 -0.177785040  0.176135520 0 0 0 0
5661600000 -0.020356452 -0.447445472 -0.175037728  0.187622048 0 0 0 0
5666650000 -0.069165744 -0.437015520 -0.169186336  0.201300400 0 0 0 0
5671700000 -0.114754640 -0.419971968 -0.164393264  0.213410688 0 0 0 0
5676750000 -0.143628320 -0.408544128 -0.161529648  0.223995312 0 0 0 0
5681800000 -0.190406304 -0.379696512 -0.151265216  0.239241968 0 0 0 0
5686850000 -0.217945008 -0.358796192 -0.143117680  0.251879936 0 0 0 0
5691900000 -0.250832256 -0.336320640 -0.137587488  0.263988496 0 0 0 0
5696950000 -0.287657856 -0.299329152 -0.125295144  0.277824256 0 0 0 0
5702000000 -0.307258464 -0.274793408 -0.111180864  0.292270432 0 0 0 0
5707050000 -0.339886688 -0.234067728 -0.101664600  0.303561920 0 0 0 0
5712100000 -0.358927712 -0.195099168 -0.086061976  0.316246336 0 0 0 0
5717150000 -0.379884192 -0.154734352 -0.073057096  0.326620960 0 0 0 0
5722200000 -0.392256928 -0.113613688 -0.054328736  0.338652096 0 0 0 0
5727250000 -0.402100480 -0.074551448 -0.032553762  0.347984160 0 0 0 0
5732300000 -0.410134560 -0.028203710 -0.018782138  0.357030976 0 0 0 0
5737350000 -0.410998080  0.014189126  0.009219514  0.362936512 0 0 0 0
5742400000 -0.403385952  0.060404860  0.025473816  0.368889600 0 0 0 0
5747450000 -0.404350400  0.107123256  0.055945048  0.371491424 0 0 0 0
5752500000 -0.381100640  0.144417712  0.076945432  0.373443616 0 0 0 0
5757550000 -0.370682752  0.189727504  0.098815576  0.373202400 0 0 0 0
5762600000 -0.349227968  0.221971280  0.128783408  0.368857696 0 0 0 0
5767650000 -0.326456640  0.263628960  0.149196880  0.364458816 0 0 0 0
5772700000 -0.296918112  0.298022048  0.177395344  0.355852288 0 0 0 0
5777750000 -0.263220912  0.320225536  0.227627024  0.333544608 0 0 0 0
5782800000 -0.232670800  0.349585760  0.222147488  0.334942624 0 0 0 0
5787850000 -0.201464976  0.366926880  0.244569360  0.321087072 0 0 0 0
5792900000 -0.156692800  0.385824160  0.261460656  0.307975200 0 0 0 0
5797950000 -0.121315024  0.401601024  0.284448192  0.286144064 0 0 0 0
5803000000 -0.083244144  0.410180224  0.302019904  0.266938272 0 0 0 0
5808050000 -0.043420028  0.414987648  0.319733952  0.243109376 0 0 0 0
5813100000 -0.007189538  0.416337408  0.329539968  0.225666384 0 0 0 0
5818150000  0.034575428  0.415760512  0.339426048  0.206682848 0 0 0 0
5823200000  0.074060680  0.410537856  0.348602336  0.184003184 0 0 0 0
5828250000  0.108360920  0.401084448  0.358503776  0.156945376 0 0 0 0
5833300000  0.141642368  0.390266816  0.361208160  0.139549664 0 0 0 0
5838350000  0.170536400  0.377595136  0.365192800  0.117303752 0 0 0 0
5843400000  0.204149680  0.361079648  0.367666272  0.097906144 0 0 0 0
5848450000  0.234087888  0.339638848  0.367708256  0.075087608 0 0 0 0
5853500000  0.259485104  0.322961472  0.366218496  0.058565856 0 0 0 0
5858550000  0.281517472  0.292680896  0.365035328  0.035397168 0 0 0 0
5863600000  0.303369952  0.270541696  0.361334848  0.022505346 0 0 0 0
5868650000  0.318048224  0.244483632  0.357444928  0.000538667 0 0 0 0
5873700000  0.341197888  0.213786416  0.353668000 -0.014074374 0 0 0 0
5878750000  0.349838176  0.186553232  0.348819264 -0.029663902 0 0 0 0
5883800000  0.358880480  0.159658240  0.343228736 -0.042320252 0 0 0 0
5888850000  0.366032736  0.130613104  0.337623296 -0.056746244 0 0 0 0
5893900000  0.380065824  0.100935416  0.333257568 -0.065966524 0 0 0 0
5898950000  0.379273344  0.073116472  0.327664192 -0.078196720 0 0 0 0
5904000000  0.383540832  0.046625064  0.320769312 -0.092433024 0 0 0 0
5909050000  0.383179968  0.020295288  0.316462720 -0.100408880 0 0 0 0
5914100000  0.371384416 -0.012736288  0.310118496 -0.113782160 0 0 0 0
5919150000  0.378712608 -0.035057876  0.306034240 -0.119599328 0 0 0 0
5924200000  0.366694400 -0.064469876  0.299892672 -0.132923272 0 0 0 0
5929250000  0.367480640 -0.082756552  0.294789984 -0.143369440 0 0 0 0
5934300000  0.349793728 -0.117446216  0.286360288 -0.155832624 0 0 0 0
5939350000  0.335778368 -0.142238224  0.282396576 -0.164674880 0 0 0 0
5944400000  0.324885120 -0.165124736  0.276940064 -0.174150240 0 0 0 0
5949450000  0.310851296 -0.193098272  0.273760608 -0.181262576 0 0 0 0
5954500000  0.310018272 -0.210853456  0.264698688 -0.194215696 0 0 0 0
5959550000  0.283552544 -0.239544656  0.257169040 -0.206474192 0 0 0 0
5964600000  0.265294944 -0.256410000  0.250481104 -0.215117328 0 0 0 0
5969650000  0.250193600 -0.276548608  0.243971792 -0.224209936 0 0 0 0
5974700000  0.221650048 -0.299229280  0.234287744 -0.235493296 0 0 0 0
5979750000  0.199971056 -0.317961664  0.224624672 -0.246689184 0 0 0 0
5984800000  0.170656576 -0.337042624  0.216141184 -0.255266816 0 0 0 0
5989850000  0.146737424 -0.353188576  0.204562848 -0.266118432 0 0 0 0
5994900000  0.102277080 -0.367015296  0.191205952 -0.277324832 0 0 0 0
5999950000  0.076072744 -0.377543424  0.181061232 -0.284944800 0 0 0 0
6005000000  0.050143708 -0.387178080  0.167836960 -0.293584480 0 0 0 0
