!File created by NanoVNA
# Hz S RI R 50
4995000000  0.234047248 -0.709129280 -0.080228688  0.042631564 0 0 0 0
5000050000  0.158590608 -0.725469184 -0.077363536  0.044327228 0 0 0 0
5005100000  0.093088800 -0.737882944 -0.073904656  0.047005780 0 0 0 0
5010150000  0.020429564 -0.745561856 -0.072424000  0.047416756 0 0 0 0
5015200000 -0.060717796 -0.740597184 -0.069501408  0.049459124 0 0 0 0
5020250000 -0.134156112 -0.728712000 -0.065854332  0.054420688 0 0 0 0
5025300000 -0.222259408 -0.701798016 -0.063240356  0.056189132 0 0 0 0
5030350000 -0.284216736 -0.677632128 -0.060443276  0.058200492 0 0 0 0
5035400000 -0.361255264 -0.629608256 -0.057742724  0.060046392 0 0 0 0
5040450000 -0.425612384 -0.580336768 -0.055312984  0.061671632 0 0 0 0
5045500000 -0.481167808 -0.527500800 -0.051682112  0.063929544 0 0 0 0
5050550000 -0.528388864 -0.457926848 -0.049157336  0.065475272 0 0 0 0
5055600000 -0.569338944 -0.396070752 -0.046318788  0.067289096 0 0 0 0
5060650000 -0.598936768 -0.331623392 -0.043780372  0.068742544 0 0 0 0
5065700000 -0.624775424 -0.253457904 -0.039979624  0.070870736 0 0 0 0
5070750000 -0.640689408 -0.194203872 -0.037694484  0.072751720 0 0 0 0
5075800000 -0.651321280 -0.112830584 -0.034815688  0.074367016 0 0 0 0
5080850000 -0.653905600 -0.046116380 -0.031604302  0.076457400 0 0 0 0
5085900000 -0.649396416  0.023849836 -0.028229226  0.078583448 0 0 0 0
5090950000 -0.639865728  0.095060120 -0.024915894  0.080799888 0 0 0 0
5096000000 -0.618864896  0.165059616 -0.021094292  0.082995072 0 0 0 0
5101050000 -0.593657600  0.233294192 -0.016945882  0.085274640 0 0 0 0
5106100000 -0.566286784  0.293226400 -0.012122682  0.087817528 0 0 0 0
5111150000 -0.524683424  0.358124256 -0.008049965  0.090159256 0 0 0 0
5116200000 -0.484424960  0.408064768 -0.003138497  0.092292064 0 0 0 0
5121250000 -0.440205952  0.448053248  0.002066714  0.094258448 0 0 0 0
5126300000 -0.379608512  0.501643904  0.009434940  0.095901856 0 0 0 0
5131350000 -0.333870592  0.533114432  0.015342604  0.097279664 0 0 0 0
5136400000 -0.269898944  0.568155264  0.022169072  0.098250112 0 0 0 0
5141450000 -0.212701168  0.593277184  0.030846386  0.097976984 0 0 0 0
5146500000 -0.152679984  0.607138624  0.038127680  0.097458120 0 0 0 0
5151550000 -0.088294208  0.623476928  0.045985200  0.096175168 0 0 0 0
5156600000 -0.028745842  0.630852672  0.055683040  0.092755872 0 0 0 0
5161650000  0.030455670  0.630657792  0.061101620  0.091416960 0 0 0 0
5166700000  0.102754816  0.625352832  0.070910592  0.085294008 0 0 0 0
5171750000  0.158922816  0.616644352  0.078174352  0.080039304 0 0 0 0
5176800000  0.216569952  0.595394112  0.084806408  0.073483256 0 0 0 0
5181850000  0.273129120  0.577313280  0.090927352  0.066520548 0 0 0 0
5186900000  0.328141120  0.551910720  0.095730736  0.059045672 0 0 0 0
5191950000  0.378977408  0.522799360  0.099917304  0.050660924 0 0 0 0
5197000000  0.428878112  0.487159136  0.103116920  0.041768136 0 0 0 0
5202050000  0.472553120  0.446328672  0.105083648  0.032396124 0 0 0 0
5207100000  0.513383552  0.409153888  0.106202360  0.024683132 0 0 0 0
5212150000  0.552020928  0.362194304  0.105892640  0.017230012 0 0 0 0
5217200000  0.585478592  0.313132544  0.105162744  0.009572688 0 0 0 0
5222250000  0.612960768  0.261895232  0.103972112  0.001055990 0 0 0 0
5227300000  0.635126400  0.210235728  0.102032160 -0.004224488 0 0 0 0
5232350000  0.655701312  0.154951872  0.099568760 -0.012449949 0 0 0 0
5237400000  0.669358656  0.095887128  0.097020208 -0.017071212 0 0 0 0
5242450000  0.677168320  0.038350696  0.093874688 -0.022586444 0 0 0 0
5247500000  0.680470528 -0.021196082  0.090679928 -0.027329250 0 0 0 0
5252550000  0.680757248 -0.080001720  0.087920672 -0.031680252 0 0 0 0
5257600000  0.672150400 -0.138159472  0.084878448 -0.035543484 0 0 0 0
5262650000  0.659388672 -0.194204368  0.082065896 -0.038515988 0 0 0 0
5267700000  0.640074368 -0.253237040  0.078691216 -0.042515736 0 0 0 0
5272750000  0.618787584 -0.308283136  0.076026168 -0.045249044 0 0 0 0
5277800000  0.588282048 -0.364162528  0.073689808 -0.047917188 0 0 0 0
5282850000  0.560420224 -0.411722080  0.071529216 -0.050842844 0 0 0 0
5287900000  0.519924864 -0.459806240  0.069193088 -0.053437948 0 0 0 0
5292950000  0.468772992 -0.505524992  0.066835404 -0.056395360 0 0 0 0
5298000000  0.432131168 -0.547993536  0.065143040 -0.059037808 0 0 0 0
5303050000  0.370533568 -0.585840832  0.062477708 -0.062338560 0 0 0 0
5308100000  0.315714464 -0.614109888  0.060411016 -0.065511064 0 0 0 0
5313150000  0.253811056 -0.641864256  0.058581388 -0.068478120 0 0 0 0
5318200000  0.184352864 -0.660188800  0.056336684 -0.071706288 0 0 0 0
5323250000  0.121269904 -0.676955968  0.054068768 -0.075204792 0 0 0 0
5328300000  0.052473292 -0.681143872  0.052105748 -0.078088344 0 0 0 0
5333350000 -0.019361506 -0.675531520  0.049334232 -0.081740016 0 0 0 0
5338400000 -0.098538136 -0.659207296  0.046863644 -0.085341424 0 0 0 0
5343450000 -0.149240608 -0.650280320  0.046056552 -0.088191128 0 0 0 0
5348500000 -0.245011824 -0.592247808  0.039264592 -0.093022008 0 0 0 0
5353550000 -0.287563776 -0.567863680  0.036646696 -0.096506800 0 0 0 0
5358600000 -0.330019200 -0.545618688  0.034624728 -0.099845928 0 0 0 0
5363650000 -0.392617152 -0.491597216  0.032484804 -0.103258336 0 0 0 0
5368700000 -0.437816064 -0.435830048  0.027566902 -0.107193680 0 0 0 0
5373750000 -0.472093856 -0.387941184  0.024552274 -0.110889160 0 0 0 0
5378800000 -0.511407968 -0.319880704  0.019637398 -0.115142376 0 0 0 0
5383850000 -0.530778528 -0.268358672  0.014822602 -0.118924928 0 0 0 0
5388900000 -0.552256064 -0.215241680  0.012689324 -0.122974536 0 0 0 0
5393950000 -0.568247936 -0.139426288  0.004646743 -0.127357856 0 0 0 0
5399000000 -0.576151488 -0.066871584 -0.002887191 -0.131198808 0 0 0 0
5404050000 -0.573562048 -0.014637426 -0.006479509 -0.135728848 0 0 0 0
5409100000 -0.568113280  0.042648636 -0.013379051 -0.139559024 0 0 0 0
5414150000 -0.556013824  0.111850944 -0.021259094 -0.143265520 0 0 0 0
5419200000 -0.537022208  0.171724928 -0.027477794 -0.147308512 0 0 0 0
5424250000 -0.509832160  0.228264624 -0.036289068 -0.150323520 0 0 0 0
5429300000 -0.475956448  0.285703200 -0.046256860 -0.152585008 0 0 0 0
5434350000 -0.447593056  0.333848640 -0.056312988 -0.154668288 0 0 0 0
5439400000 -0.400290496  0.379852640 -0.066168392 -0.155990864 0 0 0 0
5444450000 -0.352125184  0.419940896 -0.073505184 -0.158374816 0 0 0 0
5449500000 -0.303625664  0.465923776 -0.092084952 -0.154150800 0 0 0 0
5454550000 -0.253171184  0.477943968 -0.096763928 -0.156772128 0 0 0 0
5459600000 -0.213288256  0.517748832 -0.110917096 -0.152596976 0 0 0 0
5464650000 -0.147096496  0.530940640 -0.121294208 -0.150310608 0 0 0 0
5469700000 -0.095040520  0.544842752 -0.134318880 -0.144198224 0 0 0 0
5474750000 -0.036180208  0.548163456 -0.145711728 -0.137680048 0 0 0 0
5479800000  0.018371820  0.552550208 -0.156641856 -0.130444376 0 0 0 0
5484850000  0.068282760  0.550637632 -0.166451600 -0.122668056 0 0 0 0
5489900000  0.125689000  0.536969344 -0.175955184 -0.112892976 0 0 0 0
5494950000  0.179511808  0.524777760 -0.183917392 -0.103255760 0 0 0 0
5500000000  0.223180480  0.505535840 -0.190122960 -0.094054368 0 0 0 0
5505050000  0.274670688  0.482791168 -0.197594448 -0.079530720 0 0 0 0
5510100000  0.318539552  0.456456032 -0.202449488 -0.067004300 0 0 0 0
5515150000  0.357409952  0.428624704 -0.206162768 -0.056704996 0 0 0 0
5520200000  0.396046496  0.396293536 -0.207921312 -0.043760528 0 0 0 0
5525250000  0.429327712  0.361097984 -0.210499168 -0.031790436 0 0 0 0
5530300000  0.460614528  0.317913440 -0.210987184 -0.020819394 0 0 0 0
5535350000  0.481953056  0.280677760 -0.211002368 -0.009473880 0 0 0 0
5540400000  0.506297536  0.235083856 -0.210517072  0.000065506 0 0 0 0
5545450000  0.524192096  0.191170640 -0.209043808  0.011574925 0 0 0 0
5550500000  0.538264384  0.146575952 -0.207820688  0.021077984 0 0 0 0
5555550000  0.540059200  0.098467264 -0.206032320  0.030723810 0 0 0 0
5560600000  0.557528832  0.062029304 -0.204395600  0.035051144 0 0 0 0
5565650000  0.549132416  0.008844598 -0.202045136  0.045862776 0 0 0 0
5570700000  0.540627840 -0.038038700 -0.199411872  0.054427544 0 0 0 0
5575750000  0.539728704 -0.077378072 -0.197044560  0.061950928 0 0 0 0
5580800000  0.527930016 -0.123974304 -0.195305856  0.068450456 0 0 0 0
5585850000  0.515682624 -0.162530912 -0.193195520  0.076740280 0 0 0 0
5590900000  0.491919136 -0.204321712 -0.192166096  0.081815848 0 0 0 0
5595950000  0.473224160 -0.240879280 -0.190530192  0.088747208 0 0 0 0
5601000000  0.448689184 -0.278558336 -0.188675152  0.096548400 0 0 0 0
5606050000  0.421526176 -0.311321632 -0.188304768  0.101757168 0 0 0 0
5611100000  0.380622464 -0.343293472 -0.185003008  0.112963376 0 0 0 0
5616150000  0.356727040 -0.372028544 -0.186140224  0.117718240 0 0 0 0
5621200000  0.311148928 -0.398608032 -0.183716752  0.127324864 0 0 0 0
5626250000  0.280336160 -0.419241280 -0.182765888  0.136135936 0 0 0 0
5631300000  0.244154448 -0.440907808 -0.181699008  0.144944704 0 0 0 0
5636350000  0.194736608 -0.449575648 -0.180315984  0.153751040 0 0 0 0
5641400000  0.152318560 -0.462842944 -0.178262704  0.164467008 0 0 0 0
5646450000  0.102847312 -0.468123008 -0.175280448  0.175863856 0 0 0 0
5651500000  0.072765000 -0.473892512 -0.172077088  0.185815184 0 0 0 0
5656550000  0.020338092 -0.471696224 -0.169659168  0.196636320 0 0 0 0
5661600000 -0.019851008 -0.461653376 -0.162557664  0.209678752 0 0 0 0
5666650000 -0.070981616 -0.454880384 -0.157816480  0.221439568 0 0 0 0
5671700000 -0.118816312 -0.438479072 -0.152453520  0.233446272 0 0 0 0
5676750000 -0.141309504 -0.428169632 -0.145698400  0.244999200 0 0 0 0
5681800000 -0.195220480 -0.399492160 -0.136825744  0.259075344 0 0 0 0
5686850000 -0.220295888 -0.377075808 -0.129010600  0.269773568 0 0 0 0
5691900000 -0.254247520 -0.354795360 -0.120747864  0.281815840 0 0 0 0
5696950000 -0.296067808 -0.317979904 -0.108168240  0.294730944 0 0 0 0
5702000000 -0.318249568 -0.286477152 -0.091356560  0.308138752 0 0 0 0
5707050000 -0.342457792 -0.253821168 -0.083824280  0.318011552 0 0 0 0
5712100000 -0.365197696 -0.210811040 -0.065768444  0.329416768 0 0 0 0
5717150000 -0.389341664 -0.167047712 -0.049108300  0.339464096 0 0 0 0
5722200000 -0.402058080 -0.124315720 -0.032494064  0.349647648 0 0 0 0
5727250000 -0.419999552 -0.075130616 -0.007019087  0.358210560 0 0 0 0
5732300000 -0.410579296 -0.044473060  0.000958335  0.365323232 0 0 0 0
5737350000 -0.421916576  0.011391096  0.036634892  0.369741824 0 0 0 0
5742400000 -0.412892544  0.060974420  0.050732684  0.373658240 0 0 0 0
5747450000 -0.408651936  0.103993384  0.079936440  0.374418048 0 0 0 0
5752500000 -0.387665760  0.145016560  0.104517576  0.373966816 0 0 0 0
5757550000 -0.372934880  0.187102560  0.126412856  0.373110272 0 0 0 0
5762600000 -0.354228928  0.225677392  0.156203456  0.365888192 0 0 0 0
5767650000 -0.329330240  0.265001776  0.202996128  0.350810272 0 0 0 0
5772700000 -0.295135392  0.296098592  0.199602304  0.350486688 0 0 0 0
5777750000 -0.262696448  0.319707808  0.226127296  0.335629120 0 0 0 0
5782800000 -0.229822224  0.346090528  0.246661920  0.323657504 0 0 0 0
5787850000 -0.201228304  0.368870304  0.273828320  0.302553760 0 0 0 0
5792900000 -0.151293520  0.380180416  0.280349120  0.295756512 0 0 0 0
5797950000 -0.117735528  0.397571520  0.305558208  0.269280800 0 0 0 0
5803000000 -0.079133520  0.405544352  0.321678272  0.248838864 0 0 0 0
5808050000 -0.037516020  0.407957856  0.333694368  0.229524016 0 0 0 0
5813100000 -0.004584397  0.410268096  0.346017408  0.205521200 0 0 0 0
5818150000  0.039274976  0.409018528  0.352526784  0.188881760 0 0 0 0
5823200000  0.076306936  0.403012960  0.362412480  0.161109488 0 0 0 0
5828250000  0.110643272  0.393244704  0.368806592  0.136238576 0 0 0 0
5833300000  0.144723648  0.382836672  0.369832320  0.119755288 0 0 0 0
5838350000  0.170735504  0.368155584  0.373078720  0.094074544 0 0 0 0
5843400000  0.202243376  0.350825824  0.373133696  0.075383376 0 0 0 0
5848450000  0.233494032  0.330710560  0.371465888  0.055163368 0 0 0 0
5853500000  0.255367184  0.311893312  0.369595840  0.034773584 0 0 0 0
5858550000  0.285969792  0.289851488  0.366152192  0.020124426 0 0 0 0
5863600000  0.294300064  0.258471936  0.361957120 -0.003864831 0 0 0 0
5868650000  0.317129792  0.240418256  0.356591360 -0.015947929 0 0 0 0
5873700000  0.337446976  0.207103440  0.351592320 -0.032832378 0 0 0 0
5878750000  0.348634240  0.185042256  0.345863904 -0.045667856 0 0 0 0
5883800000  0.357438048  0.156610336  0.339013568 -0.060930184 0 0 0 0
5888850000  0.365289792  0.128594440  0.333649344 -0.071546832 0 0 0 0
5893900000  0.375241600  0.098799144  0.326816096 -0.084134264 0 0 0 0
5898950000  0.375382720  0.071042392  0.321370016 -0.093064368 0 0 0 0
5904000000  0.382986688  0.047157568  0.314541952 -0.105750480 0 0 0 0
5909050000  0.378438528  0.018860682  0.308913472 -0.114730032 0 0 0 0
5914100000  0.376019296 -0.010182272  0.302271488 -0.126978296 0 0 0 0
5919150000  0.384053536 -0.031952844  0.298731520 -0.130010888 0 0 0 0
5924200000  0.362922752 -0.068307680  0.289063712 -0.147813440 0 0 0 0
5929250000  0.361381728 -0.087650824  0.283116960 -0.156676032 0 0 0 0
5934300000  0.360934304 -0.115537696  0.279196736 -0.162867504 0 0 0 0
5939350000  0.340283680 -0.140686352  0.272921952 -0.172905024 0 0 0 0
5944400000  0.335411296 -0.163518288  0.268166480 -0.180538960 0 0 0 0
5949450000  0.319164000 -0.192209744  0.261037200 -0.191018112 0 0 0 0
5954500000  0.310981824 -0.212743888  0.253640176 -0.202282816 0 0 0 0
5959550000  0.294911584 -0.239114352  0.248360480 -0.211111296 0 0 0 0
5964600000  0.270948896 -0.259879088  0.239623456 -0.221776192 0 0 0 0
5969650000  0.261244240 -0.279408480  0.232453200 -0.230946512 0 0 0 0
5974700000  0.237027264 -0.304127104  0.223707616 -0.240998944 0 0 0 0
5979750000  0.210662080 -0.322776192  0.213972144 -0.250692688 0 0 0 0
5984800000  0.177647024 -0.343942688  0.203936960 -0.260600352 0 0 0 0
5989850000  0.152594304 -0.362532160  0.197313376 -0.267245120 0 0 0 0
5994900000  0.133662272 -0.374055936  0.186401264 -0.276782048 0 0 0 0
5999950000  0.069113368 -0.390324448  0.169080416 -0.288377632 0 0 0 0
6005000000  0.059293224 -0.396945312  0.158500096 -0.294644896 0 0 0 0
