!File created by NanoVNA
# Hz S RI R 50
4995000000  0.232770096 -0.691424640 -0.119465768 -0.009044845 0 0 0 0
5000050000  0.164075488 -0.709332544 -0.118270040 -0.004439739 0 0 0 0
5005100000  0.102356592 -0.723223296 -0.117085736  0.001046437 0 0 0 0
5010150000  0.030253058 -0.730170496 -0.115784552  0.003400127 0 0 0 0
5015200000 -0.050606624 -0.726778112 -0.114601920  0.008922076 0 0 0 0
5020250000 -0.124571304 -0.714120512 -0.114348632  0.016628711 0 0 0 0
5025300000 -0.202026544 -0.695858112 -0.112741216  0.020232176 0 0 0 0
5030350000 -0.269331360 -0.667000768 -0.111173216  0.024796428 0 0 0 0
5035400000 -0.342919840 -0.625553728 -0.109433952  0.028396220 0 0 0 0
5040450000 -0.405413888 -0.578893696 -0.107734528  0.032295496 0 0 0 0
5045500000 -0.463142016 -0.525005824 -0.105225272  0.037405004 0 0 0 0
5050550000 -0.513903808 -0.460306848 -0.103458928  0.040956872 0 0 0 0
5055600000 -0.551996288 -0.400055744 -0.100989528  0.045136820 0 0 0 0
5060650000 -0.583089344 -0.336779488 -0.099218136  0.048023028 0 0 0 0
5065700000 -0.611426880 -0.263572160 -0.096865936  0.051565932 0 0 0 0
5070750000 -0.629165888 -0.205088144 -0.095166392  0.055273924 0 0 0 0
5075800000 -0.641417536 -0.119967824 -0.092590000  0.059538436 0 0 0 0
5080850000 -0.645291776 -0.053563192 -0.090637048  0.063116076 0 0 0 0
5085900000 -0.642860352  0.013088628 -0.088966312  0.066508936 0 0 0 0
5090950000 -0.634724800  0.083959776 -0.086775160  0.070631536 0 0 0 0
5096000000 -0.616242688  0.155313472 -0.084378112  0.075402744 0 0 0 0
5101050000 -0.590434240  0.228754720 -0.082142640  0.079456376 0 0 0 0
5106100000 -0.564943680  0.285930784 -0.078988336  0.084547856 0 0 0 0
5111150000 -0.526925696  0.347106176 -0.076041408  0.089713536 0 0 0 0
5116200000 -0.485287648  0.404545888 -0.073220640  0.094268952 0 0 0 0
5121250000 -0.436299296  0.451359424 -0.069106736  0.099748864 0 0 0 0
5126300000 -0.378760832  0.500179840 -0.063639276  0.105765960 0 0 0 0
5131350000 -0.331682048  0.533208000 -0.058723460  0.110857736 0 0 0 0
5136400000 -0.270302656  0.565813248 -0.054149752  0.115726912 0 0 0 0
5141450000 -0.212163296  0.593060352 -0.045871668  0.121565264 0 0 0 0
5146500000 -0.149364688  0.608281344 -0.039167860  0.126067280 0 0 0 0
5151550000 -0.077534128  0.628528576 -0.029883246  0.130424680 0 0 0 0
5156600000 -0.029237130  0.629743616 -0.022214912  0.133760080 0 0 0 0
5161650000  0.043518932  0.635360832 -0.011667567  0.136570368 0 0 0 0
5166700000  0.107379864  0.625497984 -0.000798867  0.138158160 0 0 0 0
5171750000  0.166459136  0.617405312  0.010405228  0.138386704 0 0 0 0
5176800000  0.225768320  0.595443968  0.020515024  0.137440016 0 0 0 0
5181850000  0.282784608  0.575622080  0.032129650  0.134923440 0 0 0 0
5186900000  0.335636800  0.549572672  0.041309292  0.132082864 0 0 0 0
5191950000  0.387731904  0.519194080  0.051929948  0.127146144 0 0 0 0
5197000000  0.435357664  0.483286528  0.059679512  0.122057504 0 0 0 0
5202050000  0.478823392  0.441660032  0.067874208  0.115654184 0 0 0 0
5207100000  0.520876352  0.402137728  0.076522304  0.107740184 0 0 0 0
5212150000  0.558596032  0.354172192  0.081703816  0.101124440 0 0 0 0
5217200000  0.589526208  0.306213472  0.087406688  0.093216392 0 0 0 0
5222250000  0.616182592  0.254565056  0.091227952  0.085759016 0 0 0 0
5227300000  0.638586112  0.198778944  0.095027936  0.077352000 0 0 0 0
5232350000  0.656425536  0.146455504  0.098091456  0.068895232 0 0 0 0
5237400000  0.668589632  0.085459408  0.099934304  0.062055496 0 0 0 0
5242450000  0.675179328  0.029382516  0.100985192  0.055150068 0 0 0 0
5247500000  0.677257088 -0.028177948  0.101663280  0.048182220 0 0 0 0
5252550000  0.673713088 -0.087944832  0.102264824  0.042038456 0 0 0 0
5257600000  0.665333952 -0.142801920  0.102154360  0.036453332 0 0 0 0
5262650000  0.651415104 -0.197716480  0.101941952  0.031426978 0 0 0 0
5267700000  0.630048640 -0.254902544  0.101939752  0.025410446 0 0 0 0
5272750000  0.608322176 -0.309851456  0.101511168  0.020380992 0 0 0 0
5277800000  0.578694336 -0.360578144  0.101316352  0.015921049 0 0 0 0
5282850000  0.546530624 -0.407227808  0.100886560  0.010906497 0 0 0 0
5287900000  0.503055808 -0.454436864  0.100292056  0.006775136 0 0 0 0
5292950000  0.455607968 -0.495154784  0.100016648  0.001463906 0 0 0 0
5298000000  0.416954016 -0.534679232  0.099995408 -0.002400400 0 0 0 0
5303050000  0.358618176 -0.568926144  0.099636632 -0.006934420 0 0 0 0
5308100000  0.302022048 -0.597336064  0.099649992 -0.012445231 0 0 0 0
5313150000  0.243785568 -0.619407296  0.099208184 -0.016928424 0 0 0 0
5318200000  0.185289488 -0.637259456  0.098870008 -0.020939278 0 0 0 0
5323250000  0.120876976 -0.652104512  0.098577744 -0.026269752 0 0 0 0
5328300000  0.047312964 -0.652248064  0.097549912 -0.031733084 0 0 0 0
5333350000 -0.016120328 -0.646647104  0.096838448 -0.036691132 0 0 0 0
5338400000 -0.087213584 -0.633097728  0.096152368 -0.041913924 0 0 0 0
5343450000 -0.139426384 -0.623048192  0.095511904 -0.046684392 0 0 0 0
5348500000 -0.209876400 -0.593577088  0.093849896 -0.052455748 0 0 0 0
5353550000 -0.275379904 -0.539979712  0.090204392 -0.061112100 0 0 0 0
5358600000 -0.306682336 -0.530253952  0.089738200 -0.064571732 0 0 0 0
5363650000 -0.368059040 -0.475157600  0.088467384 -0.069735208 0 0 0 0
5368700000 -0.410384992 -0.426213888  0.085944480 -0.075908248 0 0 0 0
5373750000 -0.449082272 -0.379495584  0.082736976 -0.082231024 0 0 0 0
5378800000 -0.484813472 -0.324140384  0.080278536 -0.088051568 0 0 0 0
5383850000 -0.510946272 -0.265192480  0.076549216 -0.094584576 0 0 0 0
5388900000 -0.529479872 -0.221312688  0.074351112 -0.099679464 0 0 0 0
5393950000 -0.549080320 -0.140000304  0.068247392 -0.107608840 0 0 0 0
5399000000 -0.556405760 -0.093740288  0.064817720 -0.113347536 0 0 0 0
5404050000 -0.559873792 -0.020468396  0.059259592 -0.120139088 0 0 0 0
5409100000 -0.557825536  0.041449924  0.053099368 -0.127788272 0 0 0 0
5414150000 -0.546703872  0.101288504  0.047781888 -0.132958520 0 0 0 0
5419200000 -0.531190528  0.153669936  0.043043652 -0.139057024 0 0 0 0
5424250000 -0.505611360  0.214736448  0.033527810 -0.145617840 0 0 0 0
5429300000 -0.476775424  0.276097824  0.025572260 -0.151419504 0 0 0 0
5434350000 -0.448913568  0.324892160  0.016745262 -0.156519456 0 0 0 0
5439400000 -0.406137760  0.370948800  0.008820825 -0.162012272 0 0 0 0
5444450000 -0.357304000  0.421772960 -0.002251240 -0.166345440 0 0 0 0
5449500000 -0.314524096  0.453139904 -0.015783936 -0.169817920 0 0 0 0
5454550000 -0.259897792  0.483499072 -0.025477456 -0.172942128 0 0 0 0
5459600000 -0.223812528  0.518463328 -0.037544072 -0.174437680 0 0 0 0
5464650000 -0.153786592  0.539162752 -0.051182300 -0.174664416 0 0 0 0
5469700000 -0.102417232  0.553222464 -0.063518212 -0.174081440 0 0 0 0
5474750000 -0.043629492  0.556891072 -0.077311176 -0.171261104 0 0 0 0
5479800000  0.012431940  0.564052800 -0.088893760 -0.168767216 0 0 0 0
5484850000  0.063724788  0.563932992 -0.103752976 -0.162921328 0 0 0 0
5489900000  0.124446576  0.551607104 -0.114433160 -0.156958304 0 0 0 0
5494950000  0.179593824  0.540017216 -0.125964312 -0.149948144 0 0 0 0
5500000000  0.225262720  0.521111968 -0.134901584 -0.142812624 0 0 0 0
5505050000  0.278841184  0.498029152 -0.145484880 -0.132303792 0 0 0 0
5510100000  0.324457856  0.471685248 -0.153331040 -0.122492800 0 0 0 0
5515150000  0.365504992  0.443239200 -0.160269696 -0.113398992 0 0 0 0
5520200000  0.406109056  0.409408576 -0.164967248 -0.103218336 0 0 0 0
5525250000  0.440156832  0.373332352 -0.170947232 -0.092487352 0 0 0 0
5530300000  0.473631488  0.328503680 -0.174801568 -0.082323784 0 0 0 0
5535350000  0.496793472  0.290489952 -0.177346208 -0.073356640 0 0 0 0
5540400000  0.520332224  0.241546224 -0.180196320 -0.062703708 0 0 0 0
5545450000  0.538763520  0.195428752 -0.181909296 -0.053508608 0 0 0 0
5550500000  0.554217856  0.150336992 -0.183285696 -0.044163712 0 0 0 0
5555550000  0.555952000  0.099863704 -0.184529888 -0.034891832 0 0 0 0
5560600000  0.563117440  0.053928636 -0.185073360 -0.025898040 0 0 0 0
5565650000  0.562720320  0.005244377 -0.184919200 -0.020788500 0 0 0 0
5570700000  0.550795456 -0.045666804 -0.185423744 -0.009437851 0 0 0 0
5575750000  0.547371776 -0.087215264 -0.185424416 -0.003042664 0 0 0 0
5580800000  0.529575520 -0.134682064 -0.185594448  0.002605222 0 0 0 0
5585850000  0.510960512 -0.175940496 -0.185743376  0.011505109 0 0 0 0
5590900000  0.493181728 -0.216794272 -0.186609568  0.016343467 0 0 0 0
5595950000  0.466860832 -0.255386256 -0.186673104  0.023891348 0 0 0 0
5601000000  0.456927584 -0.287315360 -0.187884896  0.027700820 0 0 0 0
5606050000  0.405662016 -0.323840512 -0.188659776  0.036435828 0 0 0 0
5611100000  0.379427200 -0.352182880 -0.189591184  0.043292444 0 0 0 0
5616150000  0.331133792 -0.378785536 -0.190682976  0.051338056 0 0 0 0
5621200000  0.295985600 -0.402598752 -0.192153328  0.058202388 0 0 0 0
5626250000  0.258500368 -0.419877248 -0.193517104  0.067266032 0 0 0 0
5631300000  0.220496320 -0.439009120 -0.194200272  0.076911144 0 0 0 0
5636350000  0.172764608 -0.442897312 -0.196058400  0.083967392 0 0 0 0
5641400000  0.135494640 -0.451592032 -0.196732208  0.093693936 0 0 0 0
5646450000  0.078173744 -0.451671936 -0.197953888  0.104191536 0 0 0 0
5651500000  0.048292128 -0.454953120 -0.196662064  0.116825344 0 0 0 0
5656550000 -0.004844980 -0.444891744 -0.197717776  0.126197104 0 0 0 0
5661600000 -0.041020248 -0.434230816 -0.195692608  0.140054480 0 0 0 0
5666650000 -0.076660056 -0.426260512 -0.195448352  0.150920320 0 0 0 0
5671700000 -0.117148168 -0.407672192 -0.193672304  0.162601824 0 0 0 0
5676750000 -0.158716736 -0.388904544 -0.188393360  0.178806848 0 0 0 0
5681800000 -0.193059184 -0.364978688 -0.186151088  0.191423056 0 0 0 0
5686850000 -0.211906656 -0.346852096 -0.181189216  0.204910816 0 0 0 0
5691900000 -0.254541072 -0.316027328 -0.177018112  0.218776624 0 0 0 0
5696950000 -0.283690560 -0.285321216 -0.166040208  0.235608288 0 0 0 0
5702000000 -0.294503040 -0.264736736 -0.159536544  0.249289904 0 0 0 0
5707050000 -0.323751072 -0.227081664 -0.152081264  0.262943776 0 0 0 0
5712100000 -0.344183936 -0.191395680 -0.137122928  0.279657440 0 0 0 0
5717150000 -0.361637728 -0.155312368 -0.127641496  0.291694976 0 0 0 0
5722200000 -0.372570720 -0.117956680 -0.115592976  0.305706592 0 0 0 0
5727250000 -0.396806144 -0.066410572 -0.089931184  0.321650912 0 0 0 0
5732300000 -0.399490848 -0.027535450 -0.079983864  0.331559616 0 0 0 0
5737350000 -0.393969120  0.000408124 -0.061537064  0.341815392 0 0 0 0
5742400000 -0.393325024  0.055004640 -0.043488432  0.351155904 0 0 0 0
5747450000 -0.392888288  0.093202720 -0.017831592  0.359609632 0 0 0 0
5752500000 -0.377400160  0.133628336  0.007513434  0.366893600 0 0 0 0
5757550000 -0.367599136  0.177100128  0.026430200  0.371839136 0 0 0 0
5762600000 -0.349564096  0.210145712  0.056039404  0.373236672 0 0 0 0
5767650000 -0.327723456  0.249451600  0.077780400  0.374308512 0 0 0 0
5772700000 -0.299406432  0.282736960  0.102425912  0.371824448 0 0 0 0
5777750000 -0.268825248  0.307149216  0.129131648  0.366591712 0 0 0 0
5782800000 -0.242010736  0.340280640  0.158031744  0.358404096 0 0 0 0
5787850000 -0.211442288  0.356630528  0.179836288  0.351741984 0 0 0 0
5792900000 -0.168068624  0.379969600  0.199374192  0.342045376 0 0 0 0
5797950000 -0.134653664  0.399018464  0.227346032  0.322962464 0 0 0 0
5803000000 -0.095645296  0.408550784  0.247399088  0.308384352 0 0 0 0
5808050000 -0.055329300  0.413520224  0.266984320  0.291153504 0 0 0 0
5813100000 -0.018270192  0.419203392  0.282365824  0.274412000 0 0 0 0
5818150000  0.024135214  0.420148320  0.296328992  0.257213888 0 0 0 0
5823200000  0.064102620  0.416232608  0.310753664  0.234889328 0 0 0 0
5828250000  0.100771648  0.409539520  0.322406848  0.213925408 0 0 0 0
5833300000  0.134043368  0.399082752  0.332409760  0.192594512 0 0 0 0
5838350000  0.164181824  0.388137216  0.339632384  0.170492016 0 0 0 0
5843400000  0.199115568  0.371090688  0.344765472  0.153502528 0 0 0 0
5848450000  0.230550720  0.349729088  0.349575744  0.129640848 0 0 0 0
5853500000  0.257930464  0.332254720  0.351284768  0.112572632 0 0 0 0
5858550000  0.284183616  0.304186848  0.353816384  0.089096256 0 0 0 0
5863600000  0.310059648  0.284677632  0.351851936  0.080694312 0 0 0 0
5868650000  0.321903552  0.252175664  0.352309504  0.051935652 0 0 0 0
5873700000  0.347865856  0.222382896  0.350740768  0.035681844 0 0 0 0
5878750000  0.363255616  0.199756032  0.347940192  0.027885424 0 0 0 0
5883800000  0.368805472  0.164404400  0.345378944  0.006002270 0 0 0 0
5888850000  0.378616032  0.136271024  0.341937472 -0.008193984 0 0 0 0
5893900000  0.391001024  0.100915192  0.339652064 -0.018900158 0 0 0 0
5898950000  0.388174176  0.073225912  0.335194784 -0.032480378 0 0 0 0
5904000000  0.395208800  0.043958068  0.332409536 -0.044898092 0 0 0 0
5909050000  0.394987328  0.016367237  0.329736384 -0.053465720 0 0 0 0
5914100000  0.381441344 -0.018574418  0.324911264 -0.070759376 0 0 0 0
5919150000  0.378747360 -0.049069404  0.321180608 -0.081687720 0 0 0 0
5924200000  0.368108704 -0.077963160  0.316733120 -0.096370488 0 0 0 0
5929250000  0.371986080 -0.095419592  0.314320288 -0.104256096 0 0 0 0
5934300000  0.361129760 -0.124591824  0.309994880 -0.115430640 0 0 0 0
5939350000  0.340037344 -0.149992992  0.306223328 -0.127405760 0 0 0 0
5944400000  0.326181504 -0.175166864  0.301506496 -0.138854768 0 0 0 0
5949450000  0.310476736 -0.201706560  0.297326848 -0.151773424 0 0 0 0
5954500000  0.298799296 -0.222154000  0.290956288 -0.164669024 0 0 0 0
5959550000  0.282684640 -0.245294176  0.286524576 -0.175678672 0 0 0 0
5964600000  0.248599232 -0.266475168  0.278447616 -0.190282880 0 0 0 0
5969650000  0.233240048 -0.282304480  0.272204736 -0.200983824 0 0 0 0
5974700000  0.215782992 -0.301388480  0.264349856 -0.213537584 0 0 0 0
5979750000  0.189672880 -0.317144768  0.254760800 -0.227087584 0 0 0 0
5984800000  0.164012704 -0.337500672  0.247446352 -0.237701568 0 0 0 0
5989850000  0.135978496 -0.351347104  0.235259680 -0.250184592 0 0 0 0
5994900000  0.113322104 -0.359402112  0.225486240 -0.260594512 0 0 0 0
5999950000  0.058254696 -0.374551648  0.211279088 -0.273140288 0 0 0 0
6005000000  0.036832772 -0.381133792  0.196781216 -0.284365792 0 0 0 0
