!File created by NanoVNA
# Hz S RI R 50
4995000000  0.237170544 -0.699946944 -0.109533416  0.013797257 0 0 0 0
5000050000  0.166483392 -0.719359552 -0.107534600  0.016818122 0 0 0 0
5005100000  0.100399096 -0.732796480 -0.104933368  0.021369918 0 0 0 0
5010150000  0.021527802 -0.736051072 -0.102873920  0.024160886 0 0 0 0
5015200000 -0.057711996 -0.733703744 -0.100777048  0.027784922 0 0 0 0
5020250000 -0.126322432 -0.726413696 -0.099263256  0.034015048 0 0 0 0
5025300000 -0.211599456 -0.702889088 -0.096942352  0.037151872 0 0 0 0
5030350000 -0.275774720 -0.679720768 -0.094476040  0.041057032 0 0 0 0
5035400000 -0.352444768 -0.635545536 -0.092409224  0.043902036 0 0 0 0
5040450000 -0.416789600 -0.582097152 -0.089720040  0.047237756 0 0 0 0
5045500000 -0.474430240 -0.529640032 -0.086977024  0.050589912 0 0 0 0
5050550000 -0.525384608 -0.462127648 -0.084627768  0.053604248 0 0 0 0
5055600000 -0.564424128 -0.399475264 -0.082036656  0.056662284 0 0 0 0
5060650000 -0.593480768 -0.340219584 -0.079971608  0.058686096 0 0 0 0
5065700000 -0.622024960 -0.254800048 -0.076779856  0.062392056 0 0 0 0
5070750000 -0.641137408 -0.199114736 -0.074443504  0.065614552 0 0 0 0
5075800000 -0.651483968 -0.113964768 -0.071925424  0.068456288 0 0 0 0
5080850000 -0.656011328 -0.052912368 -0.069606944  0.071284024 0 0 0 0
5085900000 -0.650223296  0.024244702 -0.066651756  0.074919192 0 0 0 0
5090950000 -0.644028992  0.091538920 -0.064490936  0.077911888 0 0 0 0
5096000000 -0.623959296  0.161592512 -0.061814604  0.081380088 0 0 0 0
5101050000 -0.595542592  0.236093648 -0.058625436  0.085157368 0 0 0 0
5106100000 -0.571853952  0.288031744 -0.055637120  0.089243936 0 0 0 0
5111150000 -0.530875616  0.353144768 -0.051767080  0.093323152 0 0 0 0
5116200000 -0.489877056  0.408019392 -0.047662312  0.097576504 0 0 0 0
5121250000 -0.438942816  0.456495616 -0.042923896  0.101949864 0 0 0 0
5126300000 -0.386227456  0.501864544 -0.037525864  0.106346360 0 0 0 0
5131350000 -0.334734656  0.537376640 -0.031465770  0.110350344 0 0 0 0
5136400000 -0.273707584  0.571279744 -0.025687922  0.114212400 0 0 0 0
5141450000 -0.212377616  0.598396480 -0.017169988  0.117758296 0 0 0 0
5146500000 -0.149770656  0.612651648 -0.008934570  0.120626016 0 0 0 0
5151550000 -0.090413016  0.625211968 -0.001716422  0.122855048 0 0 0 0
5156600000 -0.023482158  0.637529152  0.009771334  0.124175680 0 0 0 0
5161650000  0.042888368  0.638784896  0.019026828  0.124560784 0 0 0 0
5166700000  0.098388944  0.625319872  0.026271652  0.124353048 0 0 0 0
5171750000  0.165113168  0.619388096  0.039711392  0.121412712 0 0 0 0
5176800000  0.220480896  0.596959872  0.047679756  0.118711952 0 0 0 0
5181850000  0.278293152  0.577607680  0.057505652  0.114334808 0 0 0 0
5186900000  0.331896640  0.552250240  0.067083532  0.108798616 0 0 0 0
5191950000  0.385720352  0.522045856  0.075259896  0.101981272 0 0 0 0
5197000000  0.431276160  0.485787552  0.081240720  0.095735712 0 0 0 0
5202050000  0.476433344  0.444342592  0.088080840  0.086765728 0 0 0 0
5207100000  0.516785312  0.405705152  0.093165632  0.079245104 0 0 0 0
5212150000  0.555133248  0.358689152  0.096579904  0.071745424 0 0 0 0
5217200000  0.587572992  0.309219488  0.099630656  0.062975796 0 0 0 0
5222250000  0.613591552  0.257788784  0.102283296  0.054002928 0 0 0 0
5227300000  0.636837312  0.204535008  0.102929088  0.047687408 0 0 0 0
5232350000  0.655648832  0.148630048  0.104459072  0.037980528 0 0 0 0
5237400000  0.668625920  0.091206344  0.103992872  0.032324072 0 0 0 0
5242450000  0.674999552  0.031788626  0.103597088  0.025100178 0 0 0 0
5247500000  0.678518528 -0.025533996  0.102519856  0.019201044 0 0 0 0
5252550000  0.675227648 -0.086180432  0.101703032  0.012772871 0 0 0 0
5257600000  0.666800064 -0.141785664  0.100209656  0.007440988 0 0 0 0
5262650000  0.655073664 -0.196472784  0.098792168  0.004004503 0 0 0 0
5267700000  0.634492672 -0.254752880  0.097450464 -0.002528150 0 0 0 0
5272750000  0.614359040 -0.307978080  0.095484640 -0.006371096 0 0 0 0
5277800000  0.581425152 -0.363950912  0.094469680 -0.010345936 0 0 0 0
5282850000  0.547272448 -0.412636416  0.093019552 -0.015518226 0 0 0 0
5287900000  0.507233376 -0.458251136  0.091646792 -0.018305594 0 0 0 0
5292950000  0.463988832 -0.500557120  0.090349288 -0.022960230 0 0 0 0
5298000000  0.425304416 -0.541300224  0.089246360 -0.026455866 0 0 0 0
5303050000  0.359607552 -0.578381184  0.088045568 -0.030869182 0 0 0 0
5308100000  0.309220192 -0.606565504  0.086921744 -0.035041276 0 0 0 0
5313150000  0.247263504 -0.632998912  0.085803368 -0.039601460 0 0 0 0
5318200000  0.182807424 -0.650060416  0.084881504 -0.042731300 0 0 0 0
5323250000  0.117703480 -0.665386944  0.083264672 -0.047553224 0 0 0 0
5328300000  0.045830908 -0.667104320  0.081745376 -0.051904028 0 0 0 0
5333350000 -0.018951368 -0.663176384  0.080028592 -0.056643388 0 0 0 0
5338400000 -0.092885392 -0.651486016  0.078374592 -0.061437440 0 0 0 0
5343450000 -0.140907472 -0.643233152  0.077842560 -0.064599388 0 0 0 0
5348500000 -0.244044240 -0.590238784  0.072643448 -0.072572000 0 0 0 0
5353550000 -0.275534816 -0.565873920  0.070362296 -0.076963896 0 0 0 0
5358600000 -0.320970144 -0.541243968  0.069150400 -0.080472384 0 0 0 0
5363650000 -0.381436704 -0.493014976  0.067207624 -0.085097376 0 0 0 0
5368700000 -0.428053696 -0.436923520  0.064544708 -0.089961272 0 0 0 0
5373750000 -0.463037024 -0.393347680  0.060401584 -0.095470664 0 0 0 0
5378800000 -0.498900224 -0.330406048  0.057041952 -0.100539752 0 0 0 0
5383850000 -0.524505248 -0.272912608  0.052726044 -0.106176632 0 0 0 0
5388900000 -0.547722624 -0.212312192  0.050162784 -0.110683856 0 0 0 0
5393950000 -0.563369984 -0.151460544  0.044246632 -0.116972296 0 0 0 0
5399000000 -0.570324736 -0.087648288  0.039117516 -0.122074296 0 0 0 0
5404050000 -0.573610304 -0.009504227  0.032988374 -0.127997352 0 0 0 0
5409100000 -0.567340864  0.035562232  0.027762594 -0.133436624 0 0 0 0
5414150000 -0.558084608  0.100900872  0.021576596 -0.138823936 0 0 0 0
5419200000 -0.539342720  0.166393232  0.014963067 -0.143916736 0 0 0 0
5424250000 -0.514268992  0.219764928  0.006704284 -0.148746464 0 0 0 0
5429300000 -0.481502752  0.276833440 -0.001253487 -0.153140256 0 0 0 0
5434350000 -0.454694496  0.324908192 -0.011133799 -0.157542320 0 0 0 0
5439400000 -0.411299840  0.373086528 -0.020016300 -0.161755456 0 0 0 0
5444450000 -0.362400832  0.419012352 -0.028823842 -0.165182192 0 0 0 0
5449500000 -0.317557824  0.456233760 -0.043429412 -0.166610816 0 0 0 0
5454550000 -0.260729792  0.486621664 -0.053873104 -0.167907584 0 0 0 0
5459600000 -0.223141056  0.522292608 -0.065738804 -0.168335232 0 0 0 0
5464650000 -0.155355888  0.536803552 -0.077876752 -0.167303456 0 0 0 0
5469700000 -0.102822040  0.552651520 -0.091474120 -0.164389648 0 0 0 0
5474750000 -0.043702156  0.555685184 -0.102910704 -0.160939440 0 0 0 0
5479800000  0.011679069  0.560645568 -0.115769544 -0.155753776 0 0 0 0
5484850000  0.065007100  0.561910592 -0.127592472 -0.149666192 0 0 0 0
5489900000  0.122869376  0.546510208 -0.136880080 -0.143626464 0 0 0 0
5494950000  0.178612624  0.534847136 -0.147940704 -0.134564080 0 0 0 0
5500000000  0.224949232  0.516144768 -0.156048336 -0.126604720 0 0 0 0
5505050000  0.276212480  0.492264448 -0.164538656 -0.116017176 0 0 0 0
5510100000  0.321852608  0.466164672 -0.172515392 -0.104340664 0 0 0 0
5515150000  0.362726912  0.438041504 -0.177689680 -0.095157784 0 0 0 0
5520200000  0.403463776  0.403648000 -0.181699104 -0.084070696 0 0 0 0
5525250000  0.437073600  0.368104256 -0.186851488 -0.072413832 0 0 0 0
5530300000  0.469150784  0.322885440 -0.189657712 -0.062500864 0 0 0 0
5535350000  0.493424736  0.286786752 -0.191798080 -0.051442816 0 0 0 0
5540400000  0.516140224  0.237685312 -0.193084992 -0.042027668 0 0 0 0
5545450000  0.535428224  0.192980960 -0.194068240 -0.031457152 0 0 0 0
5550500000  0.549503488  0.146462224 -0.194375568 -0.022451516 0 0 0 0
5555550000  0.548953152  0.095471520 -0.194619856 -0.011114436 0 0 0 0
5560600000  0.564931072  0.056967720 -0.193950256 -0.006879885 0 0 0 0
5565650000  0.555480448  0.000769396 -0.193808608  0.002980821 0 0 0 0
5570700000  0.548043264 -0.045701200 -0.193133520  0.011917125 0 0 0 0
5575750000  0.549316800 -0.084088264 -0.192978688  0.018133684 0 0 0 0
5580800000  0.531950592 -0.133966896 -0.192556432  0.024274812 0 0 0 0
5585850000  0.515061024 -0.173559152 -0.191443200  0.033902580 0 0 0 0
5590900000  0.492413440 -0.216869664 -0.191982688  0.039072164 0 0 0 0
5595950000  0.469159392 -0.254024144 -0.191392000  0.047065680 0 0 0 0
5601000000  0.450202688 -0.290048256 -0.191679120  0.054047680 0 0 0 0
5606050000  0.413826240 -0.324314528 -0.191856432  0.061811280 0 0 0 0
5611100000  0.366108288 -0.354321088 -0.191715632  0.069510680 0 0 0 0
5616150000  0.348663552 -0.380524544 -0.193393472  0.074036392 0 0 0 0
5621200000  0.303872992 -0.406251744 -0.193842464  0.083060432 0 0 0 0
5626250000  0.268307536 -0.424293120 -0.193531104  0.093012344 0 0 0 0
5631300000  0.225862768 -0.443325312 -0.194205888  0.101362592 0 0 0 0
5636350000  0.176095952 -0.449544704 -0.194130880  0.111568032 0 0 0 0
5641400000  0.146380352 -0.462936992 -0.194838720  0.120901984 0 0 0 0
5646450000  0.092726192 -0.462912448 -0.194268608  0.131155864 0 0 0 0
5651500000  0.065277032 -0.468387168 -0.192978640  0.142783104 0 0 0 0
5656550000  0.018105976 -0.462939264 -0.191884336  0.154501632 0 0 0 0
5661600000 -0.031084592 -0.451922944 -0.188263232  0.168436176 0 0 0 0
5666650000 -0.074800064 -0.440676288 -0.185332288  0.180311472 0 0 0 0
5671700000 -0.107152712 -0.429894496 -0.185205728  0.190809328 0 0 0 0
5676750000 -0.151636000 -0.409939424 -0.177348368  0.206711184 0 0 0 0
5681800000 -0.185204224 -0.389744800 -0.174443232  0.218580032 0 0 0 0
5686850000 -0.219581776 -0.364781024 -0.166589344  0.232985520 0 0 0 0
5691900000 -0.252810448 -0.339068608 -0.158529888  0.247711344 0 0 0 0
5696950000 -0.284035808 -0.308736608 -0.149589456  0.261248352 0 0 0 0
5702000000 -0.307491744 -0.279497600 -0.135474288  0.277272704 0 0 0 0
5707050000 -0.335473088 -0.242671152 -0.130454928  0.288291616 0 0 0 0
5712100000 -0.357559648 -0.203926544 -0.112580768  0.303467616 0 0 0 0
5717150000 -0.373597888 -0.168449888 -0.101960528  0.314458432 0 0 0 0
5722200000 -0.394909952 -0.117969432 -0.083357912  0.328634336 0 0 0 0
5727250000 -0.396191232 -0.089605792 -0.069085384  0.339175968 0 0 0 0
5732300000 -0.407875296 -0.038791696 -0.050639572  0.349704832 0 0 0 0
5737350000 -0.410414784  0.002678505 -0.021718060  0.358750272 0 0 0 0
5742400000 -0.404645408  0.050872120 -0.006700896  0.366180832 0 0 0 0
5747450000 -0.403550112  0.092840224  0.018809074  0.371744448 0 0 0 0
5752500000 -0.384405632  0.133775800  0.041640232  0.375978752 0 0 0 0
5757550000 -0.372920416  0.178035952  0.066929044  0.377883456 0 0 0 0
5762600000 -0.354345056  0.213557136  0.122245664  0.372513376 0 0 0 0
5767650000 -0.330407168  0.251844704  0.114167032  0.374868192 0 0 0 0
5772700000 -0.302986592  0.290239072  0.143438928  0.367051968 0 0 0 0
5777750000 -0.269250592  0.310804384  0.167027360  0.360713696 0 0 0 0
5782800000 -0.239302880  0.340940800  0.217832256  0.339783360 0 0 0 0
5787850000 -0.210845536  0.363195776  0.222284336  0.334121760 0 0 0 0
5792900000 -0.162104288  0.377647328  0.228855216  0.331193088 0 0 0 0
5797950000 -0.128805384  0.397569152  0.259589904  0.306510560 0 0 0 0
5803000000 -0.090137376  0.405578688  0.279630944  0.288824128 0 0 0 0
5808050000 -0.048482084  0.411218816  0.295876768  0.270115808 0 0 0 0
5813100000 -0.011754193  0.413924704  0.309311104  0.251547936 0 0 0 0
5818150000  0.030137326  0.414444992  0.321967872  0.232955760 0 0 0 0
5823200000  0.069398344  0.408881536  0.334672800  0.207937232 0 0 0 0
5828250000  0.105069816  0.401901152  0.342855520  0.186198384 0 0 0 0
5833300000  0.140601792  0.392091680  0.348510112  0.168320224 0 0 0 0
5838350000  0.169829440  0.380075136  0.353942976  0.144803936 0 0 0 0
5843400000  0.202460944  0.362956448  0.357667008  0.125460400 0 0 0 0
5848450000  0.233310704  0.340298176  0.360265504  0.102222496 0 0 0 0
5853500000  0.260662640  0.324196576  0.360464128  0.083315696 0 0 0 0
5858550000  0.283626816  0.293229440  0.360836640  0.060650268 0 0 0 0
5863600000  0.309282688  0.275114496  0.358172096  0.049174708 0 0 0 0
5868650000  0.322507584  0.245887008  0.355696096  0.027975366 0 0 0 0
5873700000  0.345606240  0.214733056  0.352576800  0.009821717 0 0 0 0
5878750000  0.357147040  0.189665504  0.348713600 -0.005043448 0 0 0 0
5883800000  0.366374720  0.159493120  0.344212480 -0.020024168 0 0 0 0
5888850000  0.376106976  0.130379248  0.340386944 -0.031125636 0 0 0 0
5893900000  0.385970144  0.096780184  0.335458592 -0.046405636 0 0 0 0
5898950000  0.386292416  0.070220936  0.331186816 -0.056709816 0 0 0 0
5904000000  0.391940064  0.042247948  0.325840832 -0.070904288 0 0 0 0
5909050000  0.390846080  0.015215071  0.321944704 -0.079699200 0 0 0 0
5914100000  0.382308128 -0.017193538  0.316581248 -0.092824648 0 0 0 0
5919150000  0.385967712 -0.042073824  0.312592832 -0.101179368 0 0 0 0
5924200000  0.368097664 -0.075234992  0.306914048 -0.114596192 0 0 0 0
5929250000  0.367984128 -0.095836152  0.301760480 -0.127014656 0 0 0 0
5934300000  0.368975616 -0.119754864  0.299815776 -0.130683096 0 0 0 0
5939350000  0.334918016 -0.151380656  0.292956992 -0.145977584 0 0 0 0
5944400000  0.328050016 -0.174630768  0.288461056 -0.155395840 0 0 0 0
5949450000  0.316462368 -0.199940432  0.283588928 -0.166056992 0 0 0 0
5954500000  0.308010720 -0.221450640  0.276891456 -0.178100272 0 0 0 0
5959550000  0.284920768 -0.244016496  0.271048480 -0.189413280 0 0 0 0
5964600000  0.262923744 -0.264047952  0.262332944 -0.202827184 0 0 0 0
5969650000  0.249634128 -0.282306688  0.257970896 -0.210814816 0 0 0 0
5974700000  0.226599872 -0.304378336  0.248394304 -0.223564096 0 0 0 0
5979750000  0.200210832 -0.323379200  0.238600704 -0.236211360 0 0 0 0
5984800000  0.178666368 -0.340218976  0.231708528 -0.244468512 0 0 0 0
5989850000  0.145040560 -0.357922272  0.222023120 -0.256145888 0 0 0 0
5994900000  0.124107760 -0.369202112  0.211480848 -0.265609264 0 0 0 0
5999950000  0.061448188 -0.387407168  0.193986048 -0.279808032 0 0 0 0
6005000000  0.055779436 -0.389955424  0.184151792 -0.286709184 0 0 0 0
