!File created by NanoVNA
# Hz S RI R 50
4995000000  0.226197008 -0.686426880 -0.118694304 -0.066383004 0 0 0 0
5000050000  0.146801104 -0.700353792 -0.121525680 -0.061134680 0 0 0 0
5005100000  0.086994080 -0.709978496 -0.123629352 -0.056650616 0 0 0 0
5010150000  0.013933844 -0.714459968 -0.125580464 -0.053044572 0 0 0 0
5015200000 -0.062178400 -0.709390080 -0.128020896 -0.047843376 0 0 0 0
5020250000 -0.124264832 -0.702618688 -0.133136704 -0.041029812 0 0 0 0
5025300000 -0.203618896 -0.677047424 -0.134869104 -0.035908072 0 0 0 0
5030350000 -0.261988256 -0.656593088 -0.136486320 -0.030535920 0 0 0 0
5035400000 -0.333864320 -0.617482688 -0.138354528 -0.025133208 0 0 0 0
5040450000 -0.396663424 -0.566199040 -0.139491840 -0.018699292 0 0 0 0
5045500000 -0.451055040 -0.519352960 -0.140366448 -0.012272354 0 0 0 0
5050550000 -0.499943808 -0.459239488 -0.141145760 -0.006029272 0 0 0 0
5055600000 -0.541367808 -0.399989920 -0.141416192 -0.000307891 0 0 0 0
5060650000 -0.571817984 -0.333095552 -0.141524768  0.005896502 0 0 0 0
5065700000 -0.598210176 -0.269425408 -0.141357872  0.011305857 0 0 0 0
5070750000 -0.617997440 -0.206796736 -0.141619488  0.017394810 0 0 0 0
5075800000 -0.632846208 -0.128134952 -0.141078096  0.024037618 0 0 0 0
5080850000 -0.636830464 -0.068073224 -0.140594896  0.028936924 0 0 0 0
5085900000 -0.635925248  0.010215486 -0.140430192  0.035778100 0 0 0 0
5090950000 -0.628484864  0.080943176 -0.140143744  0.041456028 0 0 0 0
5096000000 -0.612527104  0.145100832 -0.139400416  0.047836904 0 0 0 0
5101050000 -0.591766464  0.210657088 -0.138733312  0.054258452 0 0 0 0
5106100000 -0.565522624  0.272805856 -0.137503488  0.061900088 0 0 0 0
5111150000 -0.529132736  0.334791040 -0.136516816  0.068998456 0 0 0 0
5116200000 -0.490284896  0.392056064 -0.134723248  0.076577200 0 0 0 0
5121250000 -0.444405536  0.439165696 -0.132668256  0.084832560 0 0 0 0
5126300000 -0.394075648  0.485461792 -0.130412224  0.092652880 0 0 0 0
5131350000 -0.341054368  0.528227200 -0.125942560  0.102500624 0 0 0 0
5136400000 -0.280297632  0.562816064 -0.122973616  0.110094872 0 0 0 0
5141450000 -0.219209840  0.593716928 -0.115846576  0.120679656 0 0 0 0
5146500000 -0.154111808  0.612313280 -0.108977336  0.129755888 0 0 0 0
5151550000 -0.089922128  0.628732160 -0.101944712  0.138012864 0 0 0 0
5156600000 -0.036313920  0.634289152 -0.093815192  0.145956480 0 0 0 0
5161650000  0.040197948  0.641538368 -0.084102864  0.153178512 0 0 0 0
5166700000  0.101959640  0.631603584 -0.072789040  0.159792720 0 0 0 0
5171750000  0.161611824  0.624072320 -0.060510592  0.165304080 0 0 0 0
5176800000  0.222368192  0.602801792 -0.048849772  0.168722224 0 0 0 0
5181850000  0.283160672  0.583340288 -0.034227800  0.171357488 0 0 0 0
5186900000  0.337929408  0.557330368 -0.021350232  0.172316128 0 0 0 0
5191950000  0.388021664  0.526677536 -0.009695245  0.171384752 0 0 0 0
5197000000  0.440052288  0.489510816  0.004080379  0.169353888 0 0 0 0
5202050000  0.484305856  0.447241280  0.015451624  0.165779216 0 0 0 0
5207100000  0.526291136  0.407418592  0.027532104  0.161285376 0 0 0 0
5212150000  0.564704448  0.358487456  0.036243800  0.156153520 0 0 0 0
5217200000  0.598049920  0.308181600  0.044583832  0.150375392 0 0 0 0
5222250000  0.624065536  0.255253488  0.053726640  0.143572160 0 0 0 0
5227300000  0.646240064  0.198940640  0.059785124  0.136812736 0 0 0 0
5232350000  0.664811520  0.144463776  0.067569384  0.129462448 0 0 0 0
5237400000  0.675897664  0.082585016  0.072762984  0.122542872 0 0 0 0
5242450000  0.681715904  0.022841086  0.076674936  0.115825040 0 0 0 0
5247500000  0.685136896 -0.032871906  0.079731312  0.109939320 0 0 0 0
5252550000  0.677728832 -0.096853784  0.083300504  0.103318544 0 0 0 0
5257600000  0.669082816 -0.151340880  0.085564584  0.097783064 0 0 0 0
5262650000  0.651449408 -0.207841904  0.087680152  0.092632568 0 0 0 0
5267700000  0.631735872 -0.264296288  0.089811712  0.087432112 0 0 0 0
5272750000  0.607965632 -0.319984128  0.092258232  0.081548832 0 0 0 0
5277800000  0.573199488 -0.371788224  0.093559296  0.077827656 0 0 0 0
5282850000  0.537068544 -0.418464736  0.095541192  0.072854744 0 0 0 0
5287900000  0.499766528 -0.462921888  0.096872336  0.069319560 0 0 0 0
5292950000  0.440414048 -0.503935392  0.099147928  0.064448128 0 0 0 0
5298000000  0.406312832 -0.541034240  0.100273128  0.061691820 0 0 0 0
5303050000  0.342676096 -0.574395712  0.102822888  0.057041396 0 0 0 0
5308100000  0.288421792 -0.596930240  0.105740480  0.051813104 0 0 0 0
5313150000  0.232331440 -0.619666624  0.107455264  0.048589096 0 0 0 0
5318200000  0.166261536 -0.632486016  0.109607112  0.044863708 0 0 0 0
5323250000  0.100661496 -0.641816896  0.112056592  0.039322944 0 0 0 0
5328300000  0.039577764 -0.644883648  0.114136488  0.035208364 0 0 0 0
5333350000 -0.025983064 -0.634843328  0.116407208  0.029389052 0 0 0 0
5338400000 -0.077720432 -0.627445248  0.118279032  0.026285896 0 0 0 0
5343450000 -0.166454064 -0.586365184  0.121328200  0.015701509 0 0 0 0
5348500000 -0.205617632 -0.577327744  0.122148672  0.013968843 0 0 0 0
5353550000 -0.271976032 -0.521349664  0.124553752  0.001927071 0 0 0 0
5358600000 -0.303916288 -0.506278400  0.125697600 -0.001404812 0 0 0 0
5363650000 -0.356975040 -0.461911136  0.127382744 -0.006466858 0 0 0 0
5368700000 -0.397466496 -0.415822976  0.128316712 -0.014548570 0 0 0 0
5373750000 -0.433979744 -0.371329664  0.129162792 -0.022591442 0 0 0 0
5378800000 -0.464477280 -0.320439840  0.129677368 -0.029825890 0 0 0 0
5383850000 -0.486792864 -0.265466720  0.129345208 -0.039003144 0 0 0 0
5388900000 -0.511455712 -0.212476336  0.129213808 -0.046556028 0 0 0 0
5393950000 -0.525926464 -0.156962224  0.128736448 -0.055090768 0 0 0 0
5399000000 -0.534983520 -0.102430208  0.127555488 -0.063791776 0 0 0 0
5404050000 -0.539780288 -0.037487264  0.125482064 -0.073393648 0 0 0 0
5409100000 -0.540121088  0.019347842  0.122833776 -0.083838680 0 0 0 0
5414150000 -0.535241792  0.090974296  0.119680768 -0.093847672 0 0 0 0
5419200000 -0.523919584  0.140472688  0.117225952 -0.101987128 0 0 0 0
5424250000 -0.501205376  0.200226464  0.110531720 -0.113854896 0 0 0 0
5429300000 -0.474896320  0.253444784  0.105707576 -0.122976632 0 0 0 0
5434350000 -0.452081312  0.304352000  0.098509360 -0.133113296 0 0 0 0
5439400000 -0.409569568  0.354146528  0.091428792 -0.142389552 0 0 0 0
5444450000 -0.368343488  0.398264448  0.084388608 -0.151186032 0 0 0 0
5449500000 -0.327910048  0.434819296  0.072187552 -0.161176064 0 0 0 0
5454550000 -0.273031488  0.471921824  0.061797848 -0.169070336 0 0 0 0
5459600000 -0.237854128  0.512218368  0.049063632 -0.176389520 0 0 0 0
5464650000 -0.172119488  0.531365568  0.038264028 -0.181898512 0 0 0 0
5469700000 -0.121412008  0.549409856  0.022868928 -0.187272576 0 0 0 0
5474750000 -0.060804872  0.559314816  0.008012352 -0.190463872 0 0 0 0
5479800000 -0.005063248  0.567538176 -0.004743391 -0.192773840 0 0 0 0
5484850000  0.047322556  0.570361408 -0.021222150 -0.193144416 0 0 0 0
5489900000  0.108646032  0.560806080 -0.035131252 -0.191946624 0 0 0 0
5494950000  0.166030416  0.551650176 -0.049712408 -0.189115504 0 0 0 0
5500000000  0.214074112  0.535050144 -0.063529560 -0.184966736 0 0 0 0
5505050000  0.269417824  0.513645280 -0.075863272 -0.179929632 0 0 0 0
5510100000  0.317612544  0.488111744 -0.089370272 -0.172107504 0 0 0 0
5515150000  0.361626336  0.460303904 -0.099783872 -0.165001888 0 0 0 0
5520200000  0.404788736  0.427276128 -0.107581424 -0.157784096 0 0 0 0
5525250000  0.442367584  0.390997792 -0.117980984 -0.148309904 0 0 0 0
5530300000  0.477876224  0.344612224 -0.125271112 -0.140046928 0 0 0 0
5535350000  0.504512000  0.307230624 -0.132156072 -0.130497008 0 0 0 0
5540400000  0.528738432  0.253759744 -0.137861488 -0.121815432 0 0 0 0
5545450000  0.551053696  0.209622672 -0.142485584 -0.113559592 0 0 0 0
5550500000  0.568593408  0.160742960 -0.146292224 -0.105556072 0 0 0 0
5555550000  0.571570816  0.109167656 -0.150571488 -0.095764240 0 0 0 0
5560600000  0.580657536  0.060263312 -0.154409568 -0.086893800 0 0 0 0
5565650000  0.585290560  0.012172745 -0.155132928 -0.082943600 0 0 0 0
5570700000  0.572673984 -0.042959644 -0.159084416 -0.072775792 0 0 0 0
5575750000  0.565016192 -0.089740312 -0.161234784 -0.065655500 0 0 0 0
5580800000  0.551882304 -0.140009264 -0.163020384 -0.059723908 0 0 0 0
5585850000  0.530293760 -0.184568496 -0.165468752 -0.051787824 0 0 0 0
5590900000  0.505128608 -0.230055984 -0.167686192 -0.046683520 0 0 0 0
5595950000  0.476429568 -0.270863968 -0.170092832 -0.040712184 0 0 0 0
5601000000  0.458573344 -0.306646528 -0.172458512 -0.034666116 0 0 0 0
5606050000  0.414426784 -0.341693088 -0.175197584 -0.028065662 0 0 0 0
5611100000  0.363190656 -0.374522368 -0.178507552 -0.018386320 0 0 0 0
5616150000  0.340122144 -0.398409568 -0.181304720 -0.015878121 0 0 0 0
5621200000  0.299071712 -0.423379296 -0.184622032 -0.010654568 0 0 0 0
5626250000  0.250886704 -0.438620608 -0.188343248 -0.001201370 0 0 0 0
5631300000  0.202242528 -0.455158336 -0.191637872  0.006290884 0 0 0 0
5636350000  0.150733312 -0.457282816 -0.195375440  0.014753093 0 0 0 0
5641400000  0.115834280 -0.464911104 -0.199004256  0.021213006 0 0 0 0
5646450000  0.052655268 -0.456377536 -0.201809408  0.033086200 0 0 0 0
5651500000  0.025646544 -0.457173408 -0.204261040  0.042711300 0 0 0 0
5656550000 -0.022326544 -0.446218944 -0.207997568  0.052271700 0 0 0 0
5661600000 -0.057587120 -0.431191744 -0.210554144  0.064380148 0 0 0 0
5666650000 -0.094544240 -0.417213184 -0.212882320  0.074961480 0 0 0 0
5671700000 -0.134144544 -0.396604064 -0.215237968  0.086221056 0 0 0 0
5676750000 -0.174606896 -0.372309344 -0.215480256  0.101691456 0 0 0 0
5681800000 -0.198574208 -0.351739968 -0.217140816  0.113540072 0 0 0 0
5686850000 -0.227847680 -0.324129984 -0.216766080  0.127706112 0 0 0 0
5691900000 -0.258830992 -0.294966912 -0.215291984  0.142968960 0 0 0 0
5696950000 -0.280358400 -0.266304112 -0.212046464  0.159340464 0 0 0 0
5702000000 -0.296498880 -0.240664528 -0.207469504  0.177432256 0 0 0 0
5707050000 -0.319649728 -0.203071424 -0.205217568  0.190507408 0 0 0 0
5712100000 -0.332344320 -0.175582592 -0.198104928  0.209080448 0 0 0 0
5717150000 -0.345624064 -0.142942880 -0.193247856  0.222687744 0 0 0 0
5722200000 -0.353855488 -0.105858464 -0.183626176  0.240166096 0 0 0 0
5727250000 -0.375221536 -0.060567332 -0.167161696  0.260433968 0 0 0 0
5732300000 -0.375629600 -0.026876866 -0.160191072  0.272793600 0 0 0 0
5737350000 -0.375533216  0.005086597 -0.145022576  0.288549856 0 0 0 0
5742400000 -0.376103872  0.052300024 -0.127669648  0.304025888 0 0 0 0
5747450000 -0.371382656  0.081556184 -0.111274008  0.317031744 0 0 0 0
5752500000 -0.357374912  0.119384472 -0.092569112  0.329621056 0 0 0 0
5757550000 -0.354729088  0.164312672 -0.072168952  0.341962880 0 0 0 0
5762600000 -0.336277728  0.190673184 -0.045945348  0.351110272 0 0 0 0
5767650000 -0.321103648  0.233464080 -0.027318388  0.358055584 0 0 0 0
5772700000 -0.295907424  0.264098400 -0.002192186  0.363279008 0 0 0 0
5777750000 -0.270824000  0.289700672  0.023787724  0.367111904 0 0 0 0
5782800000 -0.244655744  0.320148032  0.048932796  0.367576672 0 0 0 0
5787850000 -0.217584528  0.338940704  0.072933320  0.367411904 0 0 0 0
5792900000 -0.178933840  0.365599296  0.096289208  0.363484832 0 0 0 0
5797950000 -0.148598992  0.386281952  0.127964392  0.355637088 0 0 0 0
5803000000 -0.109707208  0.397612288  0.147869744  0.348920512 0 0 0 0
5808050000 -0.071546736  0.407739264  0.175103568  0.335998624 0 0 0 0
5813100000 -0.035998540  0.414703552  0.193817104  0.324280544 0 0 0 0
5818150000  0.007815684  0.419354976  0.208686432  0.314877184 0 0 0 0
5823200000  0.045264588  0.418254624  0.235202000  0.294413248 0 0 0 0
5828250000  0.084297512  0.415205344  0.251160768  0.277960960 0 0 0 0
5833300000  0.120590136  0.408065152  0.264778384  0.262492032 0 0 0 0
5838350000  0.151713376  0.398781792  0.279759840  0.241624592 0 0 0 0
5843400000  0.189593072  0.385760608  0.288951360  0.226496064 0 0 0 0
5848450000  0.221989872  0.363493984  0.301860928  0.204231008 0 0 0 0
5853500000  0.251897728  0.348005760  0.308674688  0.185934912 0 0 0 0
5858550000  0.281278240  0.319519616  0.316262816  0.165710144 0 0 0 0
5863600000  0.306482240  0.296609440  0.319281888  0.151638896 0 0 0 0
5868650000  0.331151168  0.272575200  0.323741152  0.133702400 0 0 0 0
5873700000  0.354906816  0.237581664  0.326853024  0.115403872 0 0 0 0
5878750000  0.372274016  0.212723840  0.328839168  0.101435808 0 0 0 0
5883800000  0.381954208  0.176515344  0.331153824  0.083042592 0 0 0 0
5888850000  0.393938496  0.144868384  0.331873728  0.068468248 0 0 0 0
5893900000  0.405234816  0.109422976  0.331347232  0.053882528 0 0 0 0
5898950000  0.403941312  0.074631280  0.331633824  0.040462444 0 0 0 0
5904000000  0.410818304  0.041550584  0.332222944  0.027008576 0 0 0 0
5909050000  0.408594304  0.011593407  0.332571520  0.014918780 0 0 0 0
5914100000  0.396381920 -0.027686272  0.332244224 -0.000489420 0 0 0 0
5919150000  0.401332032 -0.053134384  0.331696256 -0.008163557 0 0 0 0
5924200000  0.378800992 -0.093029696  0.331162592 -0.028840592 0 0 0 0
5929250000  0.383150592 -0.109798048  0.330802912 -0.038920924 0 0 0 0
5934300000  0.367162432 -0.143148720  0.330673248 -0.046607580 0 0 0 0
5939350000  0.341450784 -0.171295616  0.329308960 -0.065209092 0 0 0 0
5944400000  0.324259072 -0.194207632  0.327920992 -0.076862344 0 0 0 0
5949450000  0.308636064 -0.219443184  0.325927904 -0.092246648 0 0 0 0
5954500000  0.292746400 -0.242096016  0.322848672 -0.109454064 0 0 0 0
5959550000  0.271646112 -0.258373504  0.320058528 -0.121800128 0 0 0 0
5964600000  0.246474960 -0.277885472  0.315152896 -0.139221888 0 0 0 0
5969650000  0.219716256 -0.294770560  0.311773536 -0.152099360 0 0 0 0
5974700000  0.197511200 -0.311939200  0.305286176 -0.168353584 0 0 0 0
5979750000  0.172995232 -0.323020640  0.298085984 -0.184405568 0 0 0 0
5984800000  0.146572544 -0.337501600  0.290268128 -0.199825472 0 0 0 0
5989850000  0.110897344 -0.352730560  0.280848896 -0.215352496 0 0 0 0
5994900000  0.100582864 -0.357025472  0.274168576 -0.226932736 0 0 0 0
5999950000  0.047585304 -0.366860192  0.261011040 -0.242272784 0 0 0 0
6005000000  0.019478460 -0.371689952  0.242923792 -0.260573808 0 0 0 0
