!File created by NanoVNA
# Hz S RI R 50
4995000000  0.228449920 -0.691089280 -0.125086800 -0.037289672 0 0 0 0
5000050000  0.159066720 -0.708301888 -0.125706672 -0.031618984 0 0 0 0
5005100000  0.090339168 -0.719416128 -0.126232280 -0.025260630 0 0 0 0
5010150000  0.024358760 -0.727660736 -0.126258968 -0.023177026 0 0 0 0
5015200000 -0.052017588 -0.723431424 -0.126487192 -0.018146792 0 0 0 0
5020250000 -0.128602432 -0.711433216 -0.128962728 -0.008682137 0 0 0 0
5025300000 -0.207772320 -0.692713664 -0.128753960 -0.003913890 0 0 0 0
5030350000 -0.270527264 -0.667204224 -0.128352208  0.001975671 0 0 0 0
5035400000 -0.339925760 -0.628483008 -0.127955408  0.005410845 0 0 0 0
5040450000 -0.406659584 -0.575501888 -0.127189744  0.011805114 0 0 0 0
5045500000 -0.464180384 -0.524853216 -0.125771624  0.017718062 0 0 0 0
5050550000 -0.514681504 -0.463527328 -0.124804344  0.023196110 0 0 0 0
5055600000 -0.551351936 -0.410620608 -0.123401088  0.026991952 0 0 0 0
5060650000 -0.583013888 -0.346115424 -0.122153480  0.031146662 0 0 0 0
5065700000 -0.616250880 -0.263400496 -0.120459272  0.036725120 0 0 0 0
5070750000 -0.632656640 -0.203278560 -0.119049664  0.041805912 0 0 0 0
5075800000 -0.645514176 -0.126231088 -0.117478496  0.046590796 0 0 0 0
5080850000 -0.652049984 -0.052046656 -0.115715464  0.051628172 0 0 0 0
5085900000 -0.649083648  0.016177031 -0.114581480  0.055765376 0 0 0 0
5090950000 -0.640465472  0.085968504 -0.112771240  0.061126288 0 0 0 0
5096000000 -0.625619776  0.149576256 -0.111721952  0.065760792 0 0 0 0
5101050000 -0.599867136  0.226219648 -0.109265832  0.072014664 0 0 0 0
5106100000 -0.576442240  0.282829632 -0.107562824  0.077774688 0 0 0 0
5111150000 -0.533876704  0.350877472 -0.105144016  0.083815664 0 0 0 0
5116200000 -0.499469664  0.399868288 -0.102892280  0.089657368 0 0 0 0
5121250000 -0.447079680  0.451949216 -0.098978016  0.097094584 0 0 0 0
5126300000 -0.391364704  0.501849344 -0.095444080  0.103896408 0 0 0 0
5131350000 -0.344698112  0.534376864 -0.090708184  0.111021088 0 0 0 0
5136400000 -0.279796448  0.571912448 -0.086328672  0.117529072 0 0 0 0
5141450000 -0.217238976  0.602061632 -0.078971840  0.125215264 0 0 0 0
5146500000 -0.158116992  0.614245760 -0.071802592  0.131802320 0 0 0 0
5151550000 -0.089532080  0.633849664 -0.063364744  0.138163632 0 0 0 0
5156600000 -0.029497994  0.641943168 -0.052219408  0.144621488 0 0 0 0
5161650000  0.035182036  0.643197888 -0.045047304  0.148701136 0 0 0 0
5166700000  0.096988144  0.632515008 -0.034607224  0.152271824 0 0 0 0
5171750000  0.163010288  0.626328064 -0.020376330  0.155138896 0 0 0 0
5176800000  0.223502064  0.603067840 -0.010706310  0.156131440 0 0 0 0
5181850000  0.280310816  0.584044672  0.002805267  0.156080976 0 0 0 0
5186900000  0.336719264  0.557791296  0.014658428  0.154438624 0 0 0 0
5191950000  0.387905024  0.526862560  0.025911086  0.151152720 0 0 0 0
5197000000  0.438271424  0.488960032  0.037769276  0.146788976 0 0 0 0
5202050000  0.480451712  0.447512832  0.046183560  0.141957792 0 0 0 0
5207100000  0.522285344  0.407531616  0.055863364  0.135582592 0 0 0 0
5212150000  0.562486784  0.357710944  0.064092876  0.128818320 0 0 0 0
5217200000  0.594200960  0.308267424  0.070573080  0.121734592 0 0 0 0
5222250000  0.620345664  0.255392496  0.076926160  0.114341344 0 0 0 0
5227300000  0.642766528  0.201520944  0.081327848  0.107140384 0 0 0 0
5232350000  0.661152128  0.145966272  0.087036848  0.098350432 0 0 0 0
5237400000  0.672777536  0.084621312  0.089365064  0.092303448 0 0 0 0
5242450000  0.678777984  0.026596324  0.092375952  0.084662888 0 0 0 0
5247500000  0.681304448 -0.032064658  0.094239336  0.078303912 0 0 0 0
5252550000  0.677158656 -0.091748416  0.095790552  0.072073416 0 0 0 0
5257600000  0.670048448 -0.146907920  0.097141368  0.066026228 0 0 0 0
5262650000  0.651607168 -0.205062208  0.097864640  0.060649848 0 0 0 0
5267700000  0.633750528 -0.260997856  0.098893888  0.055196648 0 0 0 0
5272750000  0.606088192 -0.317790112  0.099666528  0.049345896 0 0 0 0
5277800000  0.574558272 -0.369451488  0.100451976  0.044775980 0 0 0 0
5282850000  0.544927808 -0.415084672  0.100956336  0.040584216 0 0 0 0
5287900000  0.499205472 -0.461616896  0.101433464  0.036154916 0 0 0 0
5292950000  0.451542528 -0.501936128  0.102262920  0.031676084 0 0 0 0
5298000000  0.409780448 -0.542140736  0.103141248  0.027608712 0 0 0 0
5303050000  0.352691392 -0.576323904  0.103958368  0.023237654 0 0 0 0
5308100000  0.301254272 -0.603358656  0.105059488  0.018750442 0 0 0 0
5313150000  0.242232176 -0.627170688  0.106117512  0.014385906 0 0 0 0
5318200000  0.176379696 -0.641443584  0.106699848  0.009119628 0 0 0 0
5323250000  0.109299896 -0.654235072  0.107562824  0.003483036 0 0 0 0
5328300000  0.041308864 -0.654653184  0.108361616 -0.001376873 0 0 0 0
5333350000 -0.018776784 -0.650660928  0.108752600 -0.006124254 0 0 0 0
5338400000 -0.072825112 -0.646409024  0.110251248 -0.008394074 0 0 0 0
5343450000 -0.151792224 -0.618133888  0.110378320 -0.017396950 0 0 0 0
5348500000 -0.233452672 -0.564681088  0.109362744 -0.026567448 0 0 0 0
5353550000 -0.270172416 -0.552007232  0.109693296 -0.031697054 0 0 0 0
5358600000 -0.308720736 -0.531359072  0.109283544 -0.037326960 0 0 0 0
5363650000 -0.371952000 -0.481176160  0.109530896 -0.042286308 0 0 0 0
5368700000 -0.410673824 -0.434301920  0.108324784 -0.049357576 0 0 0 0
5373750000 -0.449214528 -0.388177184  0.106603648 -0.056865076 0 0 0 0
5378800000 -0.487035168 -0.326096512  0.105020624 -0.064478188 0 0 0 0
5383850000 -0.508582400 -0.279279392  0.103795256 -0.070694248 0 0 0 0
5388900000 -0.531513408 -0.223396160  0.101665672 -0.077705696 0 0 0 0
5393950000 -0.547448896 -0.163177392  0.098982568 -0.085636864 0 0 0 0
5399000000 -0.560892160 -0.090634536  0.094564408 -0.094169136 0 0 0 0
5404050000 -0.561842944 -0.043873704  0.092858680 -0.100426512 0 0 0 0
5409100000 -0.561858368  0.017643946  0.087976136 -0.109526664 0 0 0 0
5414150000 -0.553934208  0.090634088  0.081795248 -0.118128960 0 0 0 0
5419200000 -0.539566208  0.151661120  0.077742944 -0.125601400 0 0 0 0
5424250000 -0.515780384  0.203251776  0.071284160 -0.133403752 0 0 0 0
5429300000 -0.488180960  0.264757840  0.063668848 -0.141483696 0 0 0 0
5434350000 -0.462421184  0.316322752  0.054490112 -0.149325200 0 0 0 0
5439400000 -0.419060032  0.366728992  0.046530572 -0.156393888 0 0 0 0
5444450000 -0.373617984  0.409395584  0.038838492 -0.162510480 0 0 0 0
5449500000 -0.332389728  0.442305888  0.026159558 -0.168712256 0 0 0 0
5454550000 -0.273287776  0.485267104  0.013732757 -0.174075600 0 0 0 0
5459600000 -0.240557616  0.512082528  0.003243255 -0.178337536 0 0 0 0
5464650000 -0.169126528  0.539177344 -0.011150204 -0.181148304 0 0 0 0
5469700000 -0.116423664  0.556476800 -0.024735440 -0.182989040 0 0 0 0
5474750000 -0.056052468  0.563048960 -0.038299264 -0.183283088 0 0 0 0
5479800000 -0.000778365  0.569050752 -0.051294668 -0.182562240 0 0 0 0
5484850000  0.052411872  0.570218880 -0.067142936 -0.179170304 0 0 0 0
5489900000  0.113738728  0.557666496 -0.078094856 -0.176406000 0 0 0 0
5494950000  0.169252080  0.546003904 -0.089681736 -0.171716384 0 0 0 0
5500000000  0.219246160  0.529993120 -0.103630960 -0.163991136 0 0 0 0
5505050000  0.275537888  0.507715584 -0.117677760 -0.154146160 0 0 0 0
5510100000  0.320285664  0.481207072 -0.123116776 -0.148814624 0 0 0 0
5515150000  0.363721792  0.452421472 -0.133033888 -0.139253760 0 0 0 0
5520200000  0.405997312  0.418069312 -0.139861120 -0.130295216 0 0 0 0
5525250000  0.442252160  0.382147744 -0.148138784 -0.119573808 0 0 0 0
5530300000  0.476847872  0.335033984 -0.153190144 -0.110677616 0 0 0 0
5535350000  0.502758144  0.297423136 -0.157775856 -0.101679592 0 0 0 0
5540400000  0.526513056  0.245913824 -0.162109792 -0.092511672 0 0 0 0
5545450000  0.547229568  0.199183360 -0.165546128 -0.082537880 0 0 0 0
5550500000  0.561610496  0.150021664 -0.168509424 -0.072483568 0 0 0 0
5555550000  0.567144128  0.102512584 -0.170273264 -0.065113604 0 0 0 0
5560600000  0.581285376  0.059450836 -0.171612192 -0.058474828 0 0 0 0
5565650000  0.571812864  0.000641738 -0.173534688 -0.050080500 0 0 0 0
5570700000  0.564294016 -0.047820744 -0.175154176 -0.040388524 0 0 0 0
5575750000  0.557402176 -0.092963056 -0.176470064 -0.032439284 0 0 0 0
5580800000  0.545297984 -0.142440192 -0.177021184 -0.028961920 0 0 0 0
5585850000  0.525744192 -0.185132624 -0.178454608 -0.018999002 0 0 0 0
5590900000  0.502300320 -0.227844768 -0.179974176 -0.014688181 0 0 0 0
5595950000  0.476740640 -0.270239040 -0.181551824 -0.008562051 0 0 0 0
5601000000  0.448122496 -0.306748896 -0.183031216 -0.000001099 0 0 0 0
5606050000  0.409826752 -0.340524064 -0.185090512  0.005660095 0 0 0 0
5611100000  0.365262208 -0.371002688 -0.186661824  0.014335093 0 0 0 0
5616150000  0.345745216 -0.397852032 -0.189681776  0.017069488 0 0 0 0
5621200000  0.296962816 -0.420407808 -0.191793568  0.025066952 0 0 0 0
5626250000  0.266152464 -0.437688512 -0.194581968  0.034015412 0 0 0 0
5631300000  0.211284416 -0.456066656 -0.196664304  0.042693804 0 0 0 0
5636350000  0.168690880 -0.457776288 -0.199410768  0.050254816 0 0 0 0
5641400000  0.129701544 -0.468147904 -0.202204816  0.059245384 0 0 0 0
5646450000  0.071962104 -0.463720960 -0.203792592  0.070128424 0 0 0 0
5651500000  0.044360684 -0.466294784 -0.205760368  0.079925672 0 0 0 0
5656550000 -0.013910308 -0.452011104 -0.207021440  0.091431872 0 0 0 0
5661600000 -0.036166508 -0.447086656 -0.207959744  0.102986984 0 0 0 0
5666650000 -0.085768952 -0.432974080 -0.208935728  0.115542224 0 0 0 0
5671700000 -0.130312264 -0.411236320 -0.207456848  0.130715024 0 0 0 0
5676750000 -0.155166672 -0.394719200 -0.206702368  0.142484912 0 0 0 0
5681800000 -0.202509488 -0.364802656 -0.204252416  0.158451280 0 0 0 0
5686850000 -0.219746608 -0.347569184 -0.202976512  0.170713232 0 0 0 0
5691900000 -0.247050784 -0.320912800 -0.200100912  0.184773808 0 0 0 0
5696950000 -0.282785696 -0.287534816 -0.194616224  0.201088928 0 0 0 0
5702000000 -0.296996512 -0.265618560 -0.187471264  0.218670480 0 0 0 0
5707050000 -0.323983776 -0.227003552 -0.182528848  0.231660896 0 0 0 0
5712100000 -0.341277216 -0.193838496 -0.171941104  0.249018976 0 0 0 0
5717150000 -0.362232640 -0.153253456 -0.162326160  0.263781280 0 0 0 0
5722200000 -0.375544480 -0.114533056 -0.148518224  0.281524448 0 0 0 0
5727250000 -0.376652704 -0.089504856 -0.138707136  0.294378784 0 0 0 0
5732300000 -0.391391424 -0.039010116 -0.122604432  0.309090048 0 0 0 0
5737350000 -0.392267296 -0.004853342 -0.101127024  0.323875648 0 0 0 0
5742400000 -0.391613312  0.045036076 -0.088460520  0.334753856 0 0 0 0
5747450000 -0.387510464  0.077794904 -0.065638296  0.346847296 0 0 0 0
5752500000 -0.372954752  0.120247472 -0.044914884  0.355957344 0 0 0 0
5757550000 -0.365502880  0.162080704 -0.022573236  0.364050624 0 0 0 0
5762600000 -0.347772000  0.194215360  0.005037375  0.369638528 0 0 0 0
5767650000 -0.329408512  0.235430864  0.025858172  0.373156384 0 0 0 0
5772700000 -0.304099456  0.272046880  0.054787344  0.373631872 0 0 0 0
5777750000 -0.274560512  0.296621696  0.079638376  0.372919872 0 0 0 0
5782800000 -0.246996656  0.326550816  0.106092328  0.369872256 0 0 0 0
5787850000 -0.221562528  0.351562112  0.136094912  0.363191808 0 0 0 0
5792900000 -0.174905552  0.368469440  0.149013840  0.358982240 0 0 0 0
5797950000 -0.139943408  0.385783680  0.174260176  0.348437568 0 0 0 0
5803000000 -0.105885656  0.403353088  0.206436544  0.331354016 0 0 0 0
5808050000 -0.064724632  0.409696928  0.227840112  0.316696512 0 0 0 0
5813100000 -0.028686182  0.415219072  0.245544048  0.301043104 0 0 0 0
5818150000  0.016469388  0.417937152  0.257508016  0.289987328 0 0 0 0
5823200000  0.055483540  0.415306048  0.277892128  0.267302512 0 0 0 0
5828250000  0.092923560  0.409936416  0.293245440  0.246321136 0 0 0 0
5833300000  0.130243064  0.402307328  0.302504704  0.229150112 0 0 0 0
5838350000  0.159969392  0.389911168  0.314075872  0.207315040 0 0 0 0
5843400000  0.196441456  0.374976768  0.322378688  0.188946896 0 0 0 0
5848450000  0.228572528  0.352685312  0.329771168  0.166675376 0 0 0 0
5853500000  0.254157280  0.332934336  0.336055104  0.143974464 0 0 0 0
5858550000  0.290859136  0.314424992  0.335637920  0.134510080 0 0 0 0
5863600000  0.306183744  0.282624416  0.340353568  0.110547152 0 0 0 0
5868650000  0.328516448  0.258536368  0.341321952  0.091311936 0 0 0 0
5873700000  0.354267360  0.225215568  0.342146112  0.074691568 0 0 0 0
5878750000  0.367021728  0.200242768  0.340989856  0.058531188 0 0 0 0
5883800000  0.377718624  0.167935328  0.339973856  0.045670468 0 0 0 0
5888850000  0.388072000  0.135677184  0.339053408  0.028960622 0 0 0 0
5893900000  0.398752224  0.100337728  0.336978272  0.015634569 0 0 0 0
5898950000  0.397974208  0.069831560  0.335328544  0.001672626 0 0 0 0
5904000000  0.406795456  0.040776968  0.333918816 -0.011455690 0 0 0 0
5909050000  0.406209280  0.011135383  0.332289408 -0.021278640 0 0 0 0
5914100000  0.399947488 -0.020262060  0.329810592 -0.033343532 0 0 0 0
5919150000  0.394201952 -0.052526040  0.327410752 -0.049733808 0 0 0 0
5924200000  0.383141344 -0.082687104  0.324817312 -0.059397436 0 0 0 0
5929250000  0.374122304 -0.109206656  0.321736352 -0.076302704 0 0 0 0
5934300000  0.366566848 -0.137535136  0.320530560 -0.083729272 0 0 0 0
5939350000  0.347681024 -0.162067472  0.318025888 -0.096390080 0 0 0 0
5944400000  0.327471968 -0.189947008  0.314662688 -0.109524328 0 0 0 0
5949450000  0.317708096 -0.211972304  0.311238336 -0.122799464 0 0 0 0
5954500000  0.295450464 -0.237740800  0.306368384 -0.138511312 0 0 0 0
5959550000  0.280679840 -0.253206704  0.303308480 -0.149277904 0 0 0 0
5964600000  0.245163040 -0.277628704  0.296548256 -0.165880320 0 0 0 0
5969650000  0.233491056 -0.293066400  0.292061760 -0.177555040 0 0 0 0
5974700000  0.212473104 -0.310889376  0.283752384 -0.192697552 0 0 0 0
5979750000  0.195774464 -0.323142752  0.275907520 -0.205658016 0 0 0 0
5984800000  0.157923408 -0.343015296  0.267644320 -0.219524304 0 0 0 0
5989850000  0.126428680 -0.358447328  0.256185328 -0.234551232 0 0 0 0
5994900000  0.094782232 -0.369042592  0.244929744 -0.249202864 0 0 0 0
5999950000  0.071880000 -0.377431072  0.237523488 -0.257038864 0 0 0 0
6005000000  0.042256188 -0.382809824  0.221538240 -0.271098944 0 0 0 0
