!File created by NanoVNA
# Hz S RI R 50
4995000000  0.214146896 -0.692731520 -0.104676680 -0.092079128 0 0 0 0
5000050000  0.135752304 -0.703118080 -0.108133568 -0.089316640 0 0 0 0
5005100000  0.085446008 -0.715260352 -0.111684984 -0.086545488 0 0 0 0
5010150000  0.010060785 -0.716082112 -0.115143080 -0.083980584 0 0 0 0
5015200000 -0.066775448 -0.710673536 -0.119233344 -0.080543688 0 0 0 0
5020250000 -0.135569360 -0.698667968 -0.126972032 -0.074963712 0 0 0 0
5025300000 -0.211240672 -0.677938816 -0.131134216 -0.070864160 0 0 0 0
5030350000 -0.271293376 -0.651404352 -0.135512784 -0.065171652 0 0 0 0
5035400000 -0.343025248 -0.605654720 -0.139157168 -0.061101488 0 0 0 0
5040450000 -0.395283712 -0.566819008 -0.142453056 -0.056827924 0 0 0 0
5045500000 -0.455329792 -0.516931712 -0.146535440 -0.049250932 0 0 0 0
5050550000 -0.500809664 -0.455701984 -0.149403568 -0.044558620 0 0 0 0
5055600000 -0.541093504 -0.394948512 -0.152598896 -0.036320656 0 0 0 0
5060650000 -0.572855616 -0.331787392 -0.155164048 -0.030531378 0 0 0 0
5065700000 -0.598340672 -0.266899712 -0.157157072 -0.025019956 0 0 0 0
5070750000 -0.616033664 -0.208369280 -0.159649568 -0.018082458 0 0 0 0
5075800000 -0.629550784 -0.134430608 -0.161522336 -0.012541324 0 0 0 0
5080850000 -0.636611712 -0.056264264 -0.163465472 -0.002737840 0 0 0 0
5085900000 -0.636774976  0.004107314 -0.165228672  0.002833820 0 0 0 0
5090950000 -0.632302720  0.067764152 -0.167021776  0.009134550 0 0 0 0
5096000000 -0.616893120  0.137180672 -0.168370896  0.018722498 0 0 0 0
5101050000 -0.593273024  0.211866416 -0.169554736  0.026540366 0 0 0 0
5106100000 -0.570125376  0.268466048 -0.170557408  0.035033416 0 0 0 0
5111150000 -0.535380352  0.332440608 -0.171174576  0.044440504 0 0 0 0
5116200000 -0.497582528  0.389897184 -0.171192144  0.053997468 0 0 0 0
5121250000 -0.454293440  0.433252768 -0.171321824  0.062835940 0 0 0 0
5126300000 -0.397760288  0.489522176 -0.169992336  0.074261400 0 0 0 0
5131350000 -0.350827424  0.526568640 -0.167754448  0.085738296 0 0 0 0
5136400000 -0.289524928  0.564969728 -0.165065072  0.097372824 0 0 0 0
5141450000 -0.229883200  0.595483328 -0.160465056  0.109452392 0 0 0 0
5146500000 -0.167884224  0.612039424 -0.155164128  0.120832424 0 0 0 0
5151550000 -0.102785968  0.632023360 -0.149280624  0.132219344 0 0 0 0
5156600000 -0.038855040  0.643732736 -0.138431424  0.145862032 0 0 0 0
5161650000  0.018177982  0.642433408 -0.134191592  0.151843984 0 0 0 0
5166700000  0.097405512  0.641048000 -0.117732528  0.166069552 0 0 0 0
5171750000  0.154913536  0.632682048 -0.106084872  0.173887808 0 0 0 0
5176800000  0.214084144  0.609839616 -0.093314440  0.179814224 0 0 0 0
5181850000  0.274603232  0.592367744 -0.079224480  0.185664144 0 0 0 0
5186900000  0.332885216  0.566342720 -0.063696840  0.189240368 0 0 0 0
5191950000  0.383740096  0.536495872 -0.049737732  0.190638272 0 0 0 0
5197000000  0.438605824  0.498997568 -0.034348096  0.190902144 0 0 0 0
5202050000  0.485549760  0.455672640 -0.020354000  0.189289600 0 0 0 0
5207100000  0.528023712  0.415588576 -0.007010921  0.186254640 0 0 0 0
5212150000  0.566543168  0.366797952  0.003449460  0.182163840 0 0 0 0
5217200000  0.601615040  0.314494624  0.015838162  0.176805392 0 0 0 0
5222250000  0.627312128  0.263000912  0.024114700  0.171070352 0 0 0 0
5227300000  0.651799104  0.204535024  0.034657440  0.164840672 0 0 0 0
5232350000  0.670736960  0.148036048  0.042258440  0.158433536 0 0 0 0
5237400000  0.682781248  0.086302032  0.049442832  0.151769984 0 0 0 0
5242450000  0.688175872  0.023646358  0.055077076  0.145070416 0 0 0 0
5247500000  0.690767168 -0.036759020  0.060550324  0.138525136 0 0 0 0
5252550000  0.686304768 -0.097221456  0.063522696  0.133189488 0 0 0 0
5257600000  0.674938752 -0.156295344  0.067829504  0.127031400 0 0 0 0
5262650000  0.660501376 -0.212256048  0.069418000  0.122789376 0 0 0 0
5267700000  0.638003584 -0.271663456  0.073736904  0.116894256 0 0 0 0
5272750000  0.613131584 -0.327606816  0.075908920  0.112174048 0 0 0 0
5277800000  0.579331840 -0.381124064  0.078217248  0.108180016 0 0 0 0
5282850000  0.540880512 -0.429298848  0.081148880  0.103963256 0 0 0 0
5287900000  0.500371104 -0.474350528  0.081877000  0.101323664 0 0 0 0
5292950000  0.446356064 -0.515837600  0.085461776  0.096890320 0 0 0 0
5298000000  0.401198400 -0.555069248  0.087803016  0.094255112 0 0 0 0
5303050000  0.342399488 -0.587860672  0.090216232  0.091220280 0 0 0 0
5308100000  0.289610336 -0.612394624  0.093371408  0.087897520 0 0 0 0
5313150000  0.226883936 -0.633311360  0.096163792  0.085125808 0 0 0 0
5318200000  0.156583520 -0.645587904  0.099505384  0.081812688 0 0 0 0
5323250000  0.095389864 -0.654923328  0.102645504  0.078059208 0 0 0 0
5328300000  0.016943082 -0.648884608  0.106473624  0.073304024 0 0 0 0
5333350000 -0.042449080 -0.639453248  0.109601328  0.070781600 0 0 0 0
5338400000 -0.107550672 -0.622370752  0.113153568  0.066586092 0 0 0 0
5343450000 -0.154028560 -0.610431104  0.115991768  0.063851492 0 0 0 0
5348500000 -0.245237168 -0.557818432  0.122042160  0.053515936 0 0 0 0
5353550000 -0.268552832 -0.551189824  0.124651504  0.050984028 0 0 0 0
5358600000 -0.322902944 -0.496542240  0.128574448  0.043461848 0 0 0 0
5363650000 -0.369877248 -0.455186592  0.131675856  0.040206764 0 0 0 0
5368700000 -0.407820384 -0.409942400  0.136073136  0.033355828 0 0 0 0
5373750000 -0.438324384 -0.370837728  0.139848896  0.025507860 0 0 0 0
5378800000 -0.470974592 -0.312325280  0.142881936  0.018160638 0 0 0 0
5383850000 -0.487259680 -0.268610848  0.145801040  0.011103957 0 0 0 0
5388900000 -0.512653472 -0.205380656  0.148376096  0.002395219 0 0 0 0
5393950000 -0.528537088 -0.143005376  0.151099152 -0.007031109 0 0 0 0
5399000000 -0.533919200 -0.102112032  0.153023168 -0.015583576 0 0 0 0
5404050000 -0.540341952 -0.030839344  0.154478224 -0.026669860 0 0 0 0
5409100000 -0.536303232  0.015123048  0.155585168 -0.036222992 0 0 0 0
5414150000 -0.529500064  0.065509940  0.156566544 -0.045613172 0 0 0 0
5419200000 -0.518951904  0.138407968  0.155881888 -0.059128692 0 0 0 0
5424250000 -0.498793216  0.185223536  0.154189728 -0.070938160 0 0 0 0
5429300000 -0.474033376  0.243701568  0.151635968 -0.082806968 0 0 0 0
5434350000 -0.452627008  0.292541728  0.148511296 -0.095210792 0 0 0 0
5439400000 -0.413449952  0.343428896  0.144626688 -0.106693640 0 0 0 0
5444450000 -0.374700800  0.383955904  0.139786624 -0.118112584 0 0 0 0
5449500000 -0.333054400  0.428039584  0.128609480 -0.134828224 0 0 0 0
5454550000 -0.285424512  0.456607456  0.124038976 -0.143731056 0 0 0 0
5459600000 -0.251844016  0.495949760  0.112237928 -0.155896528 0 0 0 0
5464650000 -0.188304352  0.516855776  0.102473928 -0.166408480 0 0 0 0
5469700000 -0.138125888  0.539902720  0.089376256 -0.175985648 0 0 0 0
5474750000 -0.079564568  0.550021056  0.074835640 -0.184517760 0 0 0 0
5479800000 -0.022863498  0.563115264  0.060931556 -0.191633408 0 0 0 0
5484850000  0.029340978  0.568001408  0.044340224 -0.197222256 0 0 0 0
5489900000  0.089871376  0.559893952  0.030656894 -0.200522720 0 0 0 0
5494950000  0.148458832  0.554432896  0.013939538 -0.202870864 0 0 0 0
5500000000  0.197744832  0.539191040 -0.000797076 -0.202520560 0 0 0 0
5505050000  0.254832320  0.520835392 -0.016900560 -0.201052352 0 0 0 0
5510100000  0.304144544  0.497248608 -0.031747096 -0.197596080 0 0 0 0
5515150000  0.349236000  0.471273216 -0.044110364 -0.193841760 0 0 0 0
5520200000  0.396340704  0.439357088 -0.057455640 -0.187598032 0 0 0 0
5525250000  0.436201984  0.404126208 -0.068767656 -0.182069632 0 0 0 0
5530300000  0.474247392  0.356977312 -0.081158376 -0.174107808 0 0 0 0
5535350000  0.504082752  0.321977728 -0.089325832 -0.167125824 0 0 0 0
5540400000  0.532683200  0.269913952 -0.098617768 -0.159431472 0 0 0 0
5545450000  0.555574592  0.220847584 -0.106203824 -0.150841936 0 0 0 0
5550500000  0.574426368  0.170994272 -0.112451584 -0.143135696 0 0 0 0
5555550000  0.583328128  0.120324048 -0.118193440 -0.135713840 0 0 0 0
5560600000  0.592791680  0.068705512 -0.123396464 -0.128251600 0 0 0 0
5565650000  0.593624384  0.013878831 -0.128203672 -0.120645176 0 0 0 0
5570700000  0.582902528 -0.042302960 -0.133726912 -0.112144616 0 0 0 0
5575750000  0.580486528 -0.088627160 -0.137581184 -0.104801176 0 0 0 0
5580800000  0.571634816 -0.139834320 -0.139963920 -0.100549376 0 0 0 0
5585850000  0.550857024 -0.187426480 -0.144158768 -0.093393536 0 0 0 0
5590900000  0.526365088 -0.234771856 -0.147608784 -0.087973104 0 0 0 0
5595950000  0.494129344 -0.280818944 -0.151405088 -0.081202736 0 0 0 0
5601000000  0.468649120 -0.320564000 -0.155230112 -0.076193216 0 0 0 0
5606050000  0.425856992 -0.358702176 -0.158939760 -0.070981928 0 0 0 0
5611100000  0.385592480 -0.391785280 -0.163751488 -0.063879064 0 0 0 0
5616150000  0.344281600 -0.420007744 -0.168187024 -0.058286520 0 0 0 0
5621200000  0.315842816 -0.445649120 -0.171234496 -0.057223928 0 0 0 0
5626250000  0.245436224 -0.462790688 -0.177692944 -0.045159532 0 0 0 0
5631300000  0.207293392 -0.480287232 -0.181875968 -0.040993940 0 0 0 0
5636350000  0.149583024 -0.480978048 -0.187392528 -0.031814422 0 0 0 0
5641400000  0.108158896 -0.488050880 -0.192501696 -0.026123350 0 0 0 0
5646450000  0.050282276 -0.480098816 -0.197439264 -0.017744450 0 0 0 0
5651500000  0.023011214 -0.482129024 -0.202650768 -0.007414503 0 0 0 0
5656550000 -0.028904940 -0.465869376 -0.207850704  0.001220665 0 0 0 0
5661600000 -0.072529728 -0.449193056 -0.212858224  0.012300043 0 0 0 0
5666650000 -0.110934416 -0.429865728 -0.216780848  0.022831098 0 0 0 0
5671700000 -0.151146976 -0.408257824 -0.221709904  0.034313480 0 0 0 0
5676750000 -0.181180304 -0.385916608 -0.225209440  0.047249608 0 0 0 0
5681800000 -0.209126560 -0.358106624 -0.229186960  0.058335232 0 0 0 0
5686850000 -0.232610288 -0.332337376 -0.231787968  0.073847864 0 0 0 0
5691900000 -0.264758736 -0.299755648 -0.233406192  0.088184944 0 0 0 0
5696950000 -0.294920704 -0.263826464 -0.233735296  0.105740328 0 0 0 0
5702000000 -0.303156768 -0.240647392 -0.232656992  0.123738360 0 0 0 0
5707050000 -0.326946656 -0.198641680 -0.232443584  0.138103024 0 0 0 0
5712100000 -0.339184224 -0.165891872 -0.229143040  0.156015136 0 0 0 0
5717150000 -0.342718208 -0.139334736 -0.227420880  0.170020624 0 0 0 0
5722200000 -0.356899776 -0.098294928 -0.219871568  0.191592144 0 0 0 0
5727250000 -0.367764832 -0.060870208 -0.211330464  0.210226704 0 0 0 0
5732300000 -0.371178912 -0.024704198 -0.203859808  0.227071216 0 0 0 0
5737350000 -0.370414368  0.006753850 -0.189869120  0.246623760 0 0 0 0
5742400000 -0.366491648  0.048069276 -0.180459632  0.261602496 0 0 0 0
5747450000 -0.365008416  0.080656376 -0.162618128  0.280446848 0 0 0 0
5752500000 -0.349357664  0.113412424 -0.149769232  0.294325408 0 0 0 0
5757550000 -0.345018624  0.153703392 -0.132348744  0.309090464 0 0 0 0
5762600000 -0.330354464  0.182350224 -0.110633712  0.322768352 0 0 0 0
5767650000 -0.315579872  0.220278944 -0.089690656  0.333806528 0 0 0 0
5772700000 -0.291083744  0.248658832 -0.068377800  0.343297504 0 0 0 0
5777750000 -0.267967728  0.275652544 -0.044640004  0.351668032 0 0 0 0
5782800000 -0.242235472  0.302625376 -0.025923764  0.356334432 0 0 0 0
5787850000 -0.221491392  0.329014080  0.006509845  0.360978400 0 0 0 0
5792900000 -0.184048704  0.352339040  0.027655508  0.362382464 0 0 0 0
5797950000 -0.147491600  0.365409056  0.047455140  0.361765856 0 0 0 0
5803000000 -0.118676040  0.386182880  0.082435184  0.357196608 0 0 0 0
5808050000 -0.079839320  0.395312384  0.106377344  0.351390464 0 0 0 0
5813100000 -0.046862740  0.405149504  0.127267480  0.343375776 0 0 0 0
5818150000 -0.004350990  0.411414752  0.147117328  0.336425952 0 0 0 0
5823200000  0.035101948  0.412275232  0.170098144  0.323895616 0 0 0 0
5828250000  0.071344864  0.410594912  0.192513072  0.308231456 0 0 0 0
5833300000  0.107753216  0.404530176  0.209217360  0.295044640 0 0 0 0
5838350000  0.140174544  0.397190080  0.226801248  0.278741952 0 0 0 0
5843400000  0.179401504  0.386471744  0.237842208  0.265876384 0 0 0 0
5848450000  0.215475696  0.368564512  0.253328832  0.246726160 0 0 0 0
5853500000  0.244647872  0.352054944  0.264453744  0.230761760 0 0 0 0
5858550000  0.279416096  0.329115680  0.273023808  0.215256416 0 0 0 0
5863600000  0.303158720  0.303374464  0.282837376  0.197399296 0 0 0 0
5868650000  0.328076128  0.282145632  0.288119648  0.182344496 0 0 0 0
5873700000  0.357359072  0.247975152  0.294766400  0.165376400 0 0 0 0
5878750000  0.373838144  0.220686864  0.300566816  0.149034128 0 0 0 0
5883800000  0.390132800  0.188602016  0.304077760  0.135057456 0 0 0 0
5888850000  0.400581120  0.151636080  0.308905600  0.119160480 0 0 0 0
5893900000  0.416854304  0.115389288  0.310514496  0.107226008 0 0 0 0
5898950000  0.415320352  0.080143000  0.313147520  0.093644704 0 0 0 0
5904000000  0.425562784  0.048156896  0.316457856  0.078087872 0 0 0 0
5909050000  0.426922560  0.014403005  0.318259808  0.069275784 0 0 0 0
5914100000  0.422498752 -0.017935496  0.320443200  0.055217124 0 0 0 0
5919150000  0.406886656 -0.062878976  0.323183584  0.038130728 0 0 0 0
5924200000  0.411487008 -0.086122616  0.324715808  0.027311394 0 0 0 0
5929250000  0.397778048 -0.116056856  0.326979488  0.015230243 0 0 0 0
5934300000  0.379432768 -0.153598560  0.328401152 -0.000696943 0 0 0 0
5939350000  0.357204000 -0.182185920  0.331284000 -0.013304147 0 0 0 0
5944400000  0.334774880 -0.208686816  0.332101568 -0.025912370 0 0 0 0
5949450000  0.311405376 -0.239056544  0.333775872 -0.042161984 0 0 0 0
5954500000  0.309792576 -0.252659824  0.334109056 -0.057386312 0 0 0 0
5959550000  0.274498656 -0.275930144  0.333975296 -0.070921984 0 0 0 0
5964600000  0.243502448 -0.296001440  0.332213760 -0.090617880 0 0 0 0
5969650000  0.222466592 -0.309338144  0.331130976 -0.105725040 0 0 0 0
5974700000  0.196836256 -0.325346336  0.327058624 -0.125148296 0 0 0 0
5979750000  0.175992816 -0.336482176  0.324312000 -0.138745728 0 0 0 0
5984800000  0.135910400 -0.351524608  0.317752896 -0.158358096 0 0 0 0
5989850000  0.119630840 -0.360882464  0.312143648 -0.173501760 0 0 0 0
5994900000  0.074801944 -0.367003424  0.300768448 -0.195768064 0 0 0 0
5999950000  0.039645908 -0.373380576  0.291980448 -0.211191056 0 0 0 0
6005000000  0.018747558 -0.376914688  0.280429312 -0.228455536 0 0 0 0
