!File created by NanoVNA
# Hz S RI R 50
4995000000  0.204598464 -0.704861568 -0.044856436 -0.117895936 0 0 0 0
5000050000  0.130657272 -0.715508544 -0.047994984 -0.118488656 0 0 0 0
5005100000  0.067664872 -0.723751488 -0.050807884 -0.119286416 0 0 0 0
5010150000 -0.011507876 -0.723229504 -0.052320744 -0.121375848 0 0 0 0
5015200000 -0.086762424 -0.711547840 -0.056659800 -0.122001488 0 0 0 0
5020250000 -0.155484256 -0.696065728 -0.064477532 -0.123622352 0 0 0 0
5025300000 -0.231249536 -0.668568064 -0.068523272 -0.124866312 0 0 0 0
5030350000 -0.288751680 -0.640911680 -0.073609424 -0.125757888 0 0 0 0
5035400000 -0.357677440 -0.594184448 -0.078283680 -0.126909224 0 0 0 0
5040450000 -0.418463008 -0.534430144 -0.084617832 -0.127342864 0 0 0 0
5045500000 -0.465799648 -0.484266912 -0.089904320 -0.127955704 0 0 0 0
5050550000 -0.508235872 -0.423452704 -0.096761664 -0.128054768 0 0 0 0
5055600000 -0.539918784 -0.366088992 -0.103113000 -0.127881336 0 0 0 0
5060650000 -0.564681344 -0.310417088 -0.109161136 -0.128912000 0 0 0 0
5065700000 -0.587330048 -0.236371488 -0.117182680 -0.127578840 0 0 0 0
5070750000 -0.600639616 -0.176337984 -0.125090840 -0.127150688 0 0 0 0
5075800000 -0.607472128 -0.101511904 -0.133194416 -0.126062512 0 0 0 0
5080850000 -0.609251776 -0.044203300 -0.142498784 -0.123950392 0 0 0 0
5085900000 -0.604276672  0.021710226 -0.151354144 -0.122531480 0 0 0 0
5090950000 -0.597135360  0.084906856 -0.161039536 -0.120066744 0 0 0 0
5096000000 -0.576294080  0.150019488 -0.171721456 -0.116078528 0 0 0 0
5101050000 -0.554376192  0.213188544 -0.182491728 -0.111986680 0 0 0 0
5106100000 -0.532044832  0.264175856 -0.194438080 -0.105718064 0 0 0 0
5111150000 -0.496060352  0.321120032 -0.205721936 -0.098412496 0 0 0 0
5116200000 -0.461803968  0.372976768 -0.217995360 -0.088903024 0 0 0 0
5121250000 -0.421436064  0.412459424 -0.229477808 -0.079190368 0 0 0 0
5126300000 -0.376964832  0.454636768 -0.241076064 -0.067809056 0 0 0 0
5131350000 -0.331407808  0.493258880 -0.251853888 -0.053265024 0 0 0 0
5136400000 -0.273848224  0.530963360 -0.261434432 -0.037706108 0 0 0 0
5141450000 -0.220499792  0.560463872 -0.270553632 -0.017366700 0 0 0 0
5146500000 -0.170291536  0.573809536 -0.276925856 -0.000578785 0 0 0 0
5151550000 -0.103440272  0.599841792 -0.281672672  0.024988322 0 0 0 0
5156600000 -0.052156196  0.610984384 -0.284081920  0.047027048 0 0 0 0
5161650000  0.012127631  0.619566592 -0.283392480  0.067293864 0 0 0 0
5166700000  0.076225000  0.616708928 -0.278938432  0.093800408 0 0 0 0
5171750000  0.135046704  0.615457728 -0.272054720  0.117402640 0 0 0 0
5176800000  0.193723936  0.598062784 -0.262511856  0.136799936 0 0 0 0
5181850000  0.252338528  0.584309504 -0.248180368  0.159475200 0 0 0 0
5186900000  0.308928224  0.563741504 -0.233907392  0.176859200 0 0 0 0
5191950000  0.365082528  0.537473600 -0.214895840  0.193466368 0 0 0 0
5197000000  0.417081216  0.504469344 -0.197848672  0.204731376 0 0 0 0
5202050000  0.464153472  0.466389536 -0.178107680  0.215020352 0 0 0 0
5207100000  0.509600288  0.428949600 -0.157226000  0.223253040 0 0 0 0
5212150000  0.552062528  0.382312448 -0.138425328  0.227603056 0 0 0 0
5217200000  0.589977600  0.333653824 -0.120724352  0.228859664 0 0 0 0
5222250000  0.620746112  0.280941024 -0.101674280  0.230160176 0 0 0 0
5227300000  0.647479936  0.227184128 -0.085702936  0.228223168 0 0 0 0
5232350000  0.670097344  0.171978416 -0.069518288  0.226031760 0 0 0 0
5237400000  0.686156544  0.105183120 -0.054513576  0.222516560 0 0 0 0
5242450000  0.694914304  0.043999020 -0.042408424  0.218056784 0 0 0 0
5247500000  0.700145088 -0.015768679 -0.032042604  0.212589792 0 0 0 0
5252550000  0.698575040 -0.079012016 -0.023917074  0.207801344 0 0 0 0
5257600000  0.692747648 -0.138217872 -0.015458780  0.202580944 0 0 0 0
5262650000  0.679377600 -0.197294240 -0.009321047  0.197273312 0 0 0 0
5267700000  0.658148544 -0.260608080 -0.000719531  0.192642576 0 0 0 0
5272750000  0.635861312 -0.319267136  0.003758598  0.188085280 0 0 0 0
5277800000  0.596978496 -0.378246432  0.009325352  0.184261984 0 0 0 0
5282850000  0.565463552 -0.427668064  0.013911021  0.180913920 0 0 0 0
5287900000  0.519635200 -0.478142208  0.016814370  0.177913664 0 0 0 0
5292950000  0.470012320 -0.522214880  0.021820826  0.174783024 0 0 0 0
5298000000  0.418293024 -0.565311360  0.024963214  0.172617680 0 0 0 0
5303050000  0.356229440 -0.600715648  0.028543058  0.170817312 0 0 0 0
5308100000  0.301987456 -0.628623168  0.031950166  0.169398288 0 0 0 0
5313150000  0.227474992 -0.650248832  0.036943948  0.168100560 0 0 0 0
5318200000  0.159437536 -0.663712960  0.040171092  0.167144080 0 0 0 0
5323250000  0.092080128 -0.675787520  0.044414704  0.166001104 0 0 0 0
5328300000  0.014313734 -0.673660672  0.048883564  0.164997248 0 0 0 0
5333350000 -0.041582788 -0.665076992  0.051474564  0.164504112 0 0 0 0
5338400000 -0.121157624 -0.639020288  0.056973712  0.163581040 0 0 0 0
5343450000 -0.190446096 -0.608214080  0.063731268  0.161958960 0 0 0 0
5348500000 -0.240124976 -0.589743552  0.064853044  0.162287440 0 0 0 0
5353550000 -0.305995168 -0.536220128  0.076091480  0.158498352 0 0 0 0
5358600000 -0.337665472 -0.514039648  0.078259832  0.159004032 0 0 0 0
5363650000 -0.402636544 -0.434239328  0.087091472  0.156097824 0 0 0 0
5368700000 -0.432050176 -0.385535552  0.091073040  0.155437920 0 0 0 0
5373750000 -0.461997568 -0.339012608  0.098232744  0.153352208 0 0 0 0
5378800000 -0.487080448 -0.283309280  0.105317056  0.151441264 0 0 0 0
5383850000 -0.498355968 -0.236856272  0.111521808  0.149413520 0 0 0 0
5388900000 -0.518976800 -0.166732752  0.119564512  0.146616224 0 0 0 0
5393950000 -0.525663392 -0.112678456  0.126642896  0.144582672 0 0 0 0
5399000000 -0.529442624 -0.053302256  0.136371776  0.140101488 0 0 0 0
5404050000 -0.524831488  0.006330811  0.145461632  0.135438864 0 0 0 0
5409100000 -0.514363040  0.051268264  0.154415296  0.130932824 0 0 0 0
5414150000 -0.502783360  0.121119232  0.165074208  0.123246336 0 0 0 0
5419200000 -0.483755840  0.170947408  0.172510768  0.119242752 0 0 0 0
5424250000 -0.457023328  0.217081376  0.183518672  0.109056688 0 0 0 0
5429300000 -0.428604224  0.265774224  0.193309872  0.099497056 0 0 0 0
5434350000 -0.403224064  0.303221280  0.201784944  0.090010584 0 0 0 0
5439400000 -0.363395904  0.344252800  0.210527936  0.079005560 0 0 0 0
5444450000 -0.324204512  0.378863296  0.217963392  0.069470840 0 0 0 0
5449500000 -0.286106720  0.408738592  0.226614672  0.052587876 0 0 0 0
5454550000 -0.239335088  0.438146688  0.232759840  0.038084200 0 0 0 0
5459600000 -0.210898832  0.467016384  0.237842752  0.021839780 0 0 0 0
5464650000 -0.153052528  0.485285280  0.242286896  0.003824921 0 0 0 0
5469700000 -0.111673560  0.498626976  0.243808048 -0.011880412 0 0 0 0
5474750000 -0.060581308  0.507466560  0.244081248 -0.031021216 0 0 0 0
5479800000 -0.012764310  0.519412864  0.243016624 -0.050303052 0 0 0 0
5484850000  0.029132204  0.521638752  0.240095376 -0.068960160 0 0 0 0
5489900000  0.081626968  0.515719488  0.234526240 -0.086640160 0 0 0 0
5494950000  0.130538688  0.512136704  0.228173888 -0.102795352 0 0 0 0
5500000000  0.175726448  0.504427008  0.216709776 -0.123547944 0 0 0 0
5505050000  0.223669888  0.489135680  0.207478432 -0.137142384 0 0 0 0
5510100000  0.268041760  0.472665952  0.193058960 -0.153726352 0 0 0 0
5515150000  0.309817728  0.453593376  0.181934496 -0.164109920 0 0 0 0
5520200000  0.352796320  0.429896320  0.167094512 -0.174689216 0 0 0 0
5525250000  0.391307488  0.402602464  0.152900800 -0.183969088 0 0 0 0
5530300000  0.429944864  0.364747552  0.137433104 -0.191957824 0 0 0 0
5535350000  0.460525184  0.335378560  0.123171344 -0.197030880 0 0 0 0
5540400000  0.491710816  0.290845056  0.108206112 -0.201618112 0 0 0 0
5545450000  0.518786368  0.250261104  0.093746112 -0.204407024 0 0 0 0
5550500000  0.541025152  0.203793504  0.077856592 -0.206748688 0 0 0 0
5555550000  0.559754816  0.164680752  0.068976040 -0.205434704 0 0 0 0
5560600000  0.574615616  0.115031192  0.053543704 -0.205815792 0 0 0 0
5565650000  0.579932352  0.060707372  0.042373096 -0.204642448 0 0 0 0
5570700000  0.582433344  0.010401296  0.030231784 -0.202783888 0 0 0 0
5575750000  0.586635520 -0.036129664  0.020260686 -0.200403984 0 0 0 0
5580800000  0.581350016 -0.092957112  0.011913328 -0.198547344 0 0 0 0
5585850000  0.568020032 -0.142413424 -0.000101676 -0.196095376 0 0 0 0
5590900000  0.551016256 -0.193974848 -0.006615682 -0.193977152 0 0 0 0
5595950000  0.534316416 -0.241065744 -0.015787013 -0.191313360 0 0 0 0
5601000000  0.507997760 -0.289479904 -0.024555978 -0.188806736 0 0 0 0
5606050000  0.477327296 -0.334323808 -0.029504760 -0.187763088 0 0 0 0
5611100000  0.438491680 -0.375486368 -0.038426192 -0.185337904 0 0 0 0
5616150000  0.393639072 -0.414625120 -0.046427556 -0.183703696 0 0 0 0
5621200000  0.337595104 -0.448918816 -0.056989188 -0.180759456 0 0 0 0
5626250000  0.299681600 -0.473384448 -0.064114408 -0.179253152 0 0 0 0
5631300000  0.247692016 -0.502073888 -0.071618400 -0.177486448 0 0 0 0
5636350000  0.182662384 -0.509832800 -0.080835720 -0.174904784 0 0 0 0
5641400000  0.144337696 -0.524080352 -0.088968872 -0.172841200 0 0 0 0
5646450000  0.067526800 -0.522031904 -0.098846760 -0.169687776 0 0 0 0
5651500000  0.024920468 -0.523147648 -0.109869296 -0.165020720 0 0 0 0
5656550000 -0.033706048 -0.506039264 -0.117432816 -0.162896032 0 0 0 0
5661600000 -0.087848480 -0.486543968 -0.129300416 -0.156902992 0 0 0 0
5666650000 -0.132950040 -0.467000832 -0.138182176 -0.152304784 0 0 0 0
5671700000 -0.181347120 -0.439290304 -0.148895840 -0.146690112 0 0 0 0
5676750000 -0.221487856 -0.409364384 -0.160085792 -0.139628240 0 0 0 0
5681800000 -0.257272752 -0.372104864 -0.169620160 -0.134495920 0 0 0 0
5686850000 -0.285362272 -0.333989664 -0.180503168 -0.126828432 0 0 0 0
5691900000 -0.318130016 -0.295111648 -0.191599360 -0.117233504 0 0 0 0
5696950000 -0.342254528 -0.251322800 -0.202813552 -0.105653696 0 0 0 0
5702000000 -0.347227232 -0.220543104 -0.213012544 -0.095630024 0 0 0 0
5707050000 -0.372038784 -0.168366576 -0.223037904 -0.084205184 0 0 0 0
5712100000 -0.373728768 -0.130829904 -0.232120720 -0.069505232 0 0 0 0
5717150000 -0.379813728 -0.086149952 -0.240192736 -0.057214352 0 0 0 0
5722200000 -0.378090944 -0.046978356 -0.248162720 -0.042815040 0 0 0 0
5727250000 -0.386717664  0.001803002 -0.255145136 -0.017822044 0 0 0 0
5732300000 -0.369166976  0.025659638 -0.260377712 -0.007905257 0 0 0 0
5737350000 -0.369475040  0.069957024 -0.263713040  0.018844678 0 0 0 0
5742400000 -0.345768896  0.097376416 -0.266814144  0.027266144 0 0 0 0
5747450000 -0.341026400  0.133467512 -0.266725712  0.054088132 0 0 0 0
5752500000 -0.316255456  0.159281008 -0.266544016  0.070962104 0 0 0 0
5757550000 -0.304614528  0.190032240 -0.264727408  0.090747160 0 0 0 0
5762600000 -0.286819520  0.212184752 -0.259074384  0.113726424 0 0 0 0
5767650000 -0.265186992  0.235439920 -0.255804512  0.128624616 0 0 0 0
5772700000 -0.241969248  0.260178864 -0.246084496  0.151502736 0 0 0 0
5777750000 -0.217566832  0.273869088 -0.238354432  0.168447392 0 0 0 0
5782800000 -0.198836720  0.296170336 -0.226446416  0.187769712 0 0 0 0
5787850000 -0.178473616  0.309366272 -0.213562912  0.206029888 0 0 0 0
5792900000 -0.143388096  0.322882240 -0.203257280  0.218371136 0 0 0 0
5797950000 -0.123587856  0.339358464 -0.183621872  0.235947024 0 0 0 0
5803000000 -0.093259568  0.348181504 -0.169423712  0.247668896 0 0 0 0
5808050000 -0.066846596  0.357916544 -0.148201872  0.261864720 0 0 0 0
5813100000 -0.041734768  0.365753408 -0.130743208  0.270854752 0 0 0 0
5818150000 -0.007142487  0.370520448 -0.116738312  0.277763168 0 0 0 0
5823200000  0.022345264  0.374261792 -0.092615632  0.286282720 0 0 0 0
5828250000  0.052644464  0.374562528 -0.071009360  0.291399712 0 0 0 0
5833300000  0.080877840  0.374503520 -0.053542360  0.293889792 0 0 0 0
5838350000  0.108133976  0.372669248 -0.032035862  0.296164480 0 0 0 0
5843400000  0.141090224  0.366845248 -0.014526327  0.296751648 0 0 0 0
5848450000  0.172387712  0.356467136  0.005229135  0.295005664 0 0 0 0
5853500000  0.198288592  0.346699808  0.025906218  0.291956864 0 0 0 0
5858550000  0.237396912  0.335715840  0.037258944  0.288772736 0 0 0 0
5863600000  0.258308080  0.316567520  0.056748168  0.283581504 0 0 0 0
5868650000  0.288328608  0.305079520  0.068082872  0.278954432 0 0 0 0
5873700000  0.316250400  0.272048256  0.086294104  0.271867168 0 0 0 0
5878750000  0.340693472  0.255674272  0.099024320  0.265347456 0 0 0 0
5883800000  0.359845504  0.225537040  0.111313920  0.258952944 0 0 0 0
5888850000  0.382671520  0.199248800  0.121375416  0.252906208 0 0 0 0
5893900000  0.403408576  0.162298240  0.133913608  0.245191488 0 0 0 0
5898950000  0.419320416  0.137354112  0.141250704  0.239808752 0 0 0 0
5904000000  0.432514720  0.100494632  0.153438192  0.232772832 0 0 0 0
5909050000  0.439693568  0.062110040  0.164319888  0.225742160 0 0 0 0
5914100000  0.438416448  0.019894756  0.174839824  0.218764160 0 0 0 0
5919150000  0.450653472 -0.014707588  0.182114624  0.214636944 0 0 0 0
5924200000  0.444376096 -0.057724372  0.192069456  0.208989312 0 0 0 0
5929250000  0.432141120 -0.097428456  0.207597168  0.197981632 0 0 0 0
5934300000  0.433846304 -0.133156568  0.213651152  0.195420896 0 0 0 0
5939350000  0.403711488 -0.176860416  0.226669728  0.187209264 0 0 0 0
5944400000  0.386439680 -0.212822064  0.237707856  0.180369408 0 0 0 0
5949450000  0.363049952 -0.252820880  0.249866240  0.172612928 0 0 0 0
5954500000  0.347290304 -0.281120512  0.263135968  0.162938320 0 0 0 0
5959550000  0.310669152 -0.310110496  0.274533376  0.153937616 0 0 0 0
5964600000  0.262762544 -0.340527680  0.288791872  0.140174592 0 0 0 0
5969650000  0.242772736 -0.356560928  0.300782016  0.129778264 0 0 0 0
5974700000  0.207925216 -0.374628384  0.313303648  0.116367960 0 0 0 0
5979750000  0.161971184 -0.386508288  0.326542848  0.097132856 0 0 0 0
5984800000  0.114336608 -0.399909440  0.337972352  0.080532936 0 0 0 0
5989850000  0.089332752 -0.402078080  0.347712672  0.066298172 0 0 0 0
5994900000  0.042851744 -0.403016000  0.358383552  0.039352476 0 0 0 0
5999950000 -0.008028879 -0.402010848  0.365994976  0.017033428 0 0 0 0
6005000000 -0.020378806 -0.394226208  0.371964480 -0.006736719 0 0 0 0
