!File created by NanoVNA
# Hz S RI R 50
4995000000  0.202355248 -0.700379904 -0.061513604 -0.116496184 0 0 0 0
5000050000  0.133999752 -0.712951424 -0.064384976 -0.117076696 0 0 0 0
5005100000  0.071251088 -0.720751168 -0.067927608 -0.117144544 0 0 0 0
5010150000 -0.010298150 -0.720503808 -0.071754112 -0.118014392 0 0 0 0
5015200000 -0.077877928 -0.713537792 -0.074419288 -0.118789240 0 0 0 0
5020250000 -0.151919760 -0.695402560 -0.084351848 -0.118024376 0 0 0 0
5025300000 -0.224420480 -0.673668480 -0.088976504 -0.118462912 0 0 0 0
5030350000 -0.287025760 -0.642257152 -0.095525960 -0.117125504 0 0 0 0
5035400000 -0.349433504 -0.600474496 -0.099775368 -0.117923648 0 0 0 0
5040450000 -0.411576512 -0.543510720 -0.106287368 -0.116447864 0 0 0 0
5045500000 -0.462904992 -0.498825408 -0.113326232 -0.114804112 0 0 0 0
5050550000 -0.508853984 -0.431246816 -0.120524176 -0.112713368 0 0 0 0
5055600000 -0.540533568 -0.374217568 -0.127505856 -0.109787312 0 0 0 0
5060650000 -0.565769344 -0.320329920 -0.133024920 -0.109199008 0 0 0 0
5065700000 -0.592932096 -0.243775632 -0.140537136 -0.105727824 0 0 0 0
5070750000 -0.604095936 -0.190218656 -0.148577184 -0.101848008 0 0 0 0
5075800000 -0.615597952 -0.114787072 -0.156111648 -0.098303424 0 0 0 0
5080850000 -0.619212096 -0.051175524 -0.163590544 -0.094008232 0 0 0 0
5085900000 -0.615903360  0.017049590 -0.171548880 -0.089588544 0 0 0 0
5090950000 -0.607859584  0.079881640 -0.180025600 -0.082695616 0 0 0 0
5096000000 -0.594544448  0.135632240 -0.188309520 -0.077185968 0 0 0 0
5101050000 -0.571878144  0.206306320 -0.196868032 -0.067935024 0 0 0 0
5106100000 -0.551224256  0.256673696 -0.205501760 -0.059166496 0 0 0 0
5111150000 -0.516903872  0.316915104 -0.213499504 -0.050530936 0 0 0 0
5116200000 -0.477499968  0.380500800 -0.221727200 -0.036927788 0 0 0 0
5121250000 -0.443558368  0.412556672 -0.228911840 -0.027581020 0 0 0 0
5126300000 -0.389257184  0.468947264 -0.235361968 -0.013890195 0 0 0 0
5131350000 -0.347391936  0.503571328 -0.240937760  0.004075697 0 0 0 0
5136400000 -0.289823744  0.541680640 -0.245809968  0.019218526 0 0 0 0
5141450000 -0.234951936  0.573540416 -0.248789600  0.036594988 0 0 0 0
5146500000 -0.176292848  0.592199872 -0.249682784  0.055102032 0 0 0 0
5151550000 -0.114261064  0.613328128 -0.249003824  0.073132672 0 0 0 0
5156600000 -0.057085364  0.626429440 -0.245160928  0.095005032 0 0 0 0
5161650000  0.008376761  0.633774016 -0.240902640  0.112229992 0 0 0 0
5166700000  0.072111032  0.629835904 -0.232624960  0.130527080 0 0 0 0
5171750000  0.136089264  0.627632384 -0.220684816  0.151243024 0 0 0 0
5176800000  0.198020576  0.608619904 -0.208085616  0.165990320 0 0 0 0
5181850000  0.259429664  0.593872192 -0.191339120  0.183351440 0 0 0 0
5186900000  0.315665088  0.570870464 -0.176158176  0.194650368 0 0 0 0
5191950000  0.370843136  0.543143552 -0.158142656  0.204789232 0 0 0 0
5197000000  0.422811776  0.508996064 -0.140793152  0.211743328 0 0 0 0
5202050000  0.472316320  0.467735136 -0.121544544  0.217421664 0 0 0 0
5207100000  0.516533920  0.428572224 -0.102424688  0.220420432 0 0 0 0
5212150000  0.559746112  0.380721472 -0.085191784  0.221298352 0 0 0 0
5217200000  0.596392128  0.330600672 -0.069350896  0.219965056 0 0 0 0
5222250000  0.625244224  0.277199840 -0.054569940  0.216667776 0 0 0 0
5227300000  0.651443904  0.221256768 -0.040974576  0.213084272 0 0 0 0
5232350000  0.673136832  0.164648464 -0.028403360  0.208677872 0 0 0 0
5237400000  0.687566912  0.099834696 -0.015518122  0.203663968 0 0 0 0
5242450000  0.695998144  0.038982548 -0.006928611  0.197742832 0 0 0 0
5247500000  0.701456384 -0.021632220  0.001324487  0.192337200 0 0 0 0
5252550000  0.697837504 -0.085156784  0.009159910  0.186431680 0 0 0 0
5257600000  0.690863424 -0.144388192  0.014769191  0.180948800 0 0 0 0
5262650000  0.672526848 -0.207743328  0.020837530  0.175875632 0 0 0 0
5267700000  0.655311552 -0.266012400  0.025292018  0.171214432 0 0 0 0
5272750000  0.626022848 -0.326958784  0.031776190  0.165776752 0 0 0 0
5277800000  0.591741696 -0.384059808  0.034894112  0.162379168 0 0 0 0
5282850000  0.557073920 -0.432293824  0.037871832  0.158980720 0 0 0 0
5287900000  0.512465344 -0.480893856  0.040715476  0.155869904 0 0 0 0
5292950000  0.461991712 -0.524262496  0.043772012  0.153153968 0 0 0 0
5298000000  0.413205664 -0.566790912  0.046562156  0.150783264 0 0 0 0
5303050000  0.352677120 -0.603394304  0.050522092  0.148804208 0 0 0 0
5308100000  0.292554176 -0.626650752  0.055542240  0.146299392 0 0 0 0
5313150000  0.227307872 -0.651355648  0.058222892  0.145250016 0 0 0 0
5318200000  0.158515248 -0.664318976  0.060879500  0.144151856 0 0 0 0
5323250000  0.089854336 -0.673106176  0.065845260  0.142234480 0 0 0 0
5328300000  0.013517539 -0.669880064  0.069742944  0.140677728 0 0 0 0
5333350000 -0.050296868 -0.658807936  0.074245472  0.139328192 0 0 0 0
5338400000 -0.104707864 -0.649107328  0.075895976  0.139584800 0 0 0 0
5343450000 -0.200854336 -0.596354560  0.087323016  0.133542968 0 0 0 0
5348500000 -0.238431648 -0.587704960  0.086564032  0.135273712 0 0 0 0
5353550000 -0.296007520 -0.542138048  0.095514584  0.130547776 0 0 0 0
5358600000 -0.340674976 -0.496516352  0.102412928  0.126590360 0 0 0 0
5363650000 -0.387621056 -0.450292960  0.105209848  0.127160848 0 0 0 0
5368700000 -0.424908640 -0.396222464  0.111980040  0.123119952 0 0 0 0
5373750000 -0.453023008 -0.354876832  0.118307504  0.119729976 0 0 0 0
5378800000 -0.480006016 -0.296586816  0.124881184  0.116574344 0 0 0 0
5383850000 -0.498403616 -0.237251504  0.132136632  0.112049680 0 0 0 0
5388900000 -0.514452352 -0.183004448  0.138597872  0.107919536 0 0 0 0
5393950000 -0.525600864 -0.122943592  0.147395664  0.101834520 0 0 0 0
5399000000 -0.527012096 -0.075310320  0.153672288  0.097320160 0 0 0 0
5404050000 -0.527299360 -0.007446112  0.161842784  0.090078920 0 0 0 0
5409100000 -0.518827872  0.028816724  0.169058048  0.082842872 0 0 0 0
5414150000 -0.508872800  0.088178096  0.177060816  0.074931264 0 0 0 0
5419200000 -0.493533952  0.147953312  0.184249648  0.065928244 0 0 0 0
5424250000 -0.469740640  0.195464688  0.191880528  0.053906648 0 0 0 0
5429300000 -0.443814432  0.246939808  0.198446128  0.043537816 0 0 0 0
5434350000 -0.421579584  0.286969568  0.204233712  0.030314840 0 0 0 0
5439400000 -0.385336896  0.327281728  0.209961232  0.018562422 0 0 0 0
5444450000 -0.346285984  0.367432736  0.213936688  0.005859332 0 0 0 0
5449500000 -0.308528192  0.407041152  0.217163392 -0.015720262 0 0 0 0
5454550000 -0.264750688  0.428525120  0.219439568 -0.026826154 0 0 0 0
5459600000 -0.235237904  0.465733152  0.219408624 -0.045197620 0 0 0 0
5464650000 -0.176522448  0.488204288  0.218038080 -0.062960728 0 0 0 0
5469700000 -0.133888040  0.505072480  0.214645856 -0.080598696 0 0 0 0
5474750000 -0.080277800  0.518163680  0.208724320 -0.098676368 0 0 0 0
5479800000 -0.031639192  0.529100896  0.202350848 -0.114793880 0 0 0 0
5484850000  0.014783538  0.535859808  0.192631088 -0.131945488 0 0 0 0
5489900000  0.072666064  0.533986080  0.182889344 -0.145778400 0 0 0 0
5494950000  0.124691064  0.530422624  0.169895792 -0.160758704 0 0 0 0
5500000000  0.170327696  0.519700768  0.156502512 -0.172576800 0 0 0 0
5505050000  0.224176512  0.506492544  0.140372752 -0.184685568 0 0 0 0
5510100000  0.270342752  0.487973440  0.126529720 -0.191813792 0 0 0 0
5515150000  0.315823584  0.468494656  0.110232792 -0.199553984 0 0 0 0
5520200000  0.363150976  0.441740608  0.091447240 -0.205075808 0 0 0 0
5525250000  0.403455168  0.412560864  0.077675248 -0.207236112 0 0 0 0
5530300000  0.444509376  0.371933408  0.061120372 -0.209446304 0 0 0 0
5535350000  0.476133760  0.339272160  0.047582460 -0.209261856 0 0 0 0
5540400000  0.509152000  0.292773824  0.032938320 -0.208351712 0 0 0 0
5545450000  0.536192224  0.247535104  0.019187438 -0.206305888 0 0 0 0
5550500000  0.562261248  0.202969040  0.008630993 -0.203192256 0 0 0 0
5555550000  0.574633856  0.151984144 -0.004870377 -0.199095792 0 0 0 0
5560600000  0.588275904  0.101167992 -0.016358808 -0.194835520 0 0 0 0
5565650000  0.600042816  0.051345904 -0.021078166 -0.191087744 0 0 0 0
5570700000  0.591226432 -0.009333357 -0.035917592 -0.185286160 0 0 0 0
5575750000  0.598124032 -0.055889892 -0.043394468 -0.181022704 0 0 0 0
5580800000  0.585985664 -0.114681776 -0.049296092 -0.177081104 0 0 0 0
5585850000  0.576040128 -0.161723840 -0.058729212 -0.171364128 0 0 0 0
5590900000  0.552544896 -0.214961088 -0.063375356 -0.168286560 0 0 0 0
5595950000  0.529595424 -0.264319424 -0.070813464 -0.163620112 0 0 0 0
5601000000  0.507167232 -0.308431072 -0.077884912 -0.159660400 0 0 0 0
5606050000  0.462730080 -0.356039072 -0.084371592 -0.155967920 0 0 0 0
5611100000  0.422426752 -0.393416352 -0.090741848 -0.152636928 0 0 0 0
5616150000  0.388041824 -0.428181216 -0.095527360 -0.150453632 0 0 0 0
5621200000  0.325581056 -0.461848608 -0.104697720 -0.145446208 0 0 0 0
5626250000  0.283874464 -0.483941632 -0.111430088 -0.142067200 0 0 0 0
5631300000  0.227401008 -0.508074592 -0.119221624 -0.137833184 0 0 0 0
5636350000  0.165672848 -0.513034272 -0.127247632 -0.133400368 0 0 0 0
5641400000  0.119199960 -0.521579264 -0.133860288 -0.130330640 0 0 0 0
5646450000  0.057658364 -0.517904768 -0.142748944 -0.124954256 0 0 0 0
5651500000  0.018580886 -0.516540512 -0.150817696 -0.118904144 0 0 0 0
5656550000 -0.041125564 -0.498453632 -0.158692704 -0.113848768 0 0 0 0
5661600000 -0.085368232 -0.478559296 -0.168132864 -0.106382280 0 0 0 0
5666650000 -0.117758592 -0.466175904 -0.174617584 -0.103140456 0 0 0 0
5671700000 -0.180971424 -0.426249312 -0.184868064 -0.092233584 0 0 0 0
5676750000 -0.217420768 -0.399717856 -0.194437408 -0.081961184 0 0 0 0
5681800000 -0.248319904 -0.365703712 -0.202381472 -0.074976768 0 0 0 0
5686850000 -0.273548096 -0.330510304 -0.210887792 -0.064643688 0 0 0 0
5691900000 -0.298552288 -0.296863040 -0.219214112 -0.053781860 0 0 0 0
5696950000 -0.323829568 -0.256463968 -0.227697616 -0.041654576 0 0 0 0
5702000000 -0.331889472 -0.225286656 -0.235586576 -0.024923426 0 0 0 0
5707050000 -0.352524576 -0.176136384 -0.241992784 -0.012176628 0 0 0 0
5712100000 -0.361504256 -0.137084976 -0.248083408  0.005519316 0 0 0 0
5717150000 -0.362326496 -0.104825808 -0.252766192  0.019465094 0 0 0 0
5722200000 -0.370635904 -0.062402172 -0.257281744  0.037264200 0 0 0 0
5727250000 -0.365617216 -0.029883162 -0.258793056  0.056870124 0 0 0 0
5732300000 -0.364018848  0.008747713 -0.260277984  0.072466680 0 0 0 0
5737350000 -0.356513216  0.035961676 -0.258047408  0.096332304 0 0 0 0
5742400000 -0.345675040  0.074863152 -0.258131088  0.109260888 0 0 0 0
5747450000 -0.341694400  0.108412168 -0.251663392  0.134121136 0 0 0 0
5752500000 -0.319149152  0.132869784 -0.246266192  0.153582096 0 0 0 0
5757550000 -0.310332864  0.163311776 -0.239898304  0.173076384 0 0 0 0
5762600000 -0.296666592  0.186724128 -0.229987664  0.193086240 0 0 0 0
5767650000 -0.280912448  0.214662400 -0.220844112  0.210058752 0 0 0 0
5772700000 -0.261029120  0.244439504 -0.207275008  0.228257072 0 0 0 0
5777750000 -0.237564496  0.259664272 -0.192592048  0.246293776 0 0 0 0
5782800000 -0.218012528  0.286203904 -0.178311856  0.260786560 0 0 0 0
5787850000 -0.200000976  0.302944448 -0.157606848  0.277693152 0 0 0 0
5792900000 -0.161986336  0.319343072 -0.146464880  0.286870464 0 0 0 0
5797950000 -0.141334480  0.341017888 -0.122183176  0.299788768 0 0 0 0
5803000000 -0.112058208  0.354132064 -0.097453848  0.310311008 0 0 0 0
5808050000 -0.081181040  0.365045920 -0.074129432  0.317878944 0 0 0 0
5813100000 -0.051804516  0.374838400 -0.055817552  0.322286336 0 0 0 0
5818150000 -0.017302674  0.383131872 -0.034627032  0.326542432 0 0 0 0
5823200000  0.015486587  0.387724832 -0.010300659  0.327611680 0 0 0 0
5828250000  0.050623212  0.389871328  0.014488483  0.326387808 0 0 0 0
5833300000  0.083816160  0.389639328  0.031889898  0.324524800 0 0 0 0
5838350000  0.113658456  0.387219584  0.054518512  0.320594912 0 0 0 0
5843400000  0.149245104  0.380984992  0.074252456  0.315132480 0 0 0 0
5848450000  0.184326560  0.369420256  0.093248688  0.308374368 0 0 0 0
5853500000  0.215207744  0.357820864  0.114554760  0.298977888 0 0 0 0
5858550000  0.254352784  0.343228480  0.123292848  0.293463424 0 0 0 0
5863600000  0.273959712  0.316771264  0.145770144  0.280394656 0 0 0 0
5868650000  0.307771104  0.303916832  0.155862768  0.272204064 0 0 0 0
5873700000  0.340781824  0.273665920  0.170715648  0.260370160 0 0 0 0
5878750000  0.360857888  0.250126032  0.182436000  0.250019344 0 0 0 0
5883800000  0.382111840  0.218675504  0.191149888  0.241660000 0 0 0 0
5888850000  0.400597440  0.186933824  0.203693824  0.229317568 0 0 0 0
5893900000  0.422165440  0.149586464  0.211621296  0.219925888 0 0 0 0
5898950000  0.432494272  0.117577760  0.220828992  0.209335168 0 0 0 0
5904000000  0.443018144  0.078134600  0.229683520  0.199547664 0 0 0 0
5909050000  0.441978560  0.037800952  0.238464816  0.189180416 0 0 0 0
5914100000  0.448790464  0.002205994  0.246033696  0.181286976 0 0 0 0
5919150000  0.440821216 -0.045691792  0.255733200  0.170060416 0 0 0 0
5924200000  0.445882464 -0.075864896  0.261973792  0.163565232 0 0 0 0
5929250000  0.431398432 -0.112850792  0.273702080  0.149276784 0 0 0 0
5934300000  0.410850432 -0.160636816  0.282779264  0.137286512 0 0 0 0
5939350000  0.392866464 -0.192980560  0.291513952  0.129744424 0 0 0 0
5944400000  0.373213920 -0.226884016  0.300018048  0.119099528 0 0 0 0
5949450000  0.351415680 -0.259483280  0.310231104  0.106568008 0 0 0 0
5954500000  0.328852256 -0.284434080  0.319591232  0.091849016 0 0 0 0
5959550000  0.292057376 -0.313660896  0.328674112  0.077640400 0 0 0 0
5964600000  0.259920272 -0.330727776  0.336814240  0.063127572 0 0 0 0
5969650000  0.220567568 -0.350790976  0.345128768  0.045004476 0 0 0 0
5974700000  0.195267712 -0.365218336  0.352548704  0.027454110 0 0 0 0
5979750000  0.156872736 -0.374804096  0.358301248  0.005814494 0 0 0 0
5984800000  0.122980728 -0.382763904  0.363529856 -0.011466808 0 0 0 0
5989850000  0.090468456 -0.388951264  0.367355616 -0.031341286 0 0 0 0
5994900000  0.044852520 -0.388160832  0.367545984 -0.061985928 0 0 0 0
5999950000  0.008624071 -0.387963072  0.367815360 -0.082181880 0 0 0 0
6005000000 -0.012293239 -0.383363360  0.364875968 -0.106692584 0 0 0 0
