!File created by NanoVNA
# Hz S RI R 50
4995000000  0.205473696 -0.711058304 -0.025387656 -0.114996008 0 0 0 0
5000050000  0.126269712 -0.721879680 -0.027324224 -0.116113320 0 0 0 0
5005100000  0.065887704 -0.731887680 -0.028966798 -0.117495112 0 0 0 0
5010150000 -0.010716981 -0.730927552 -0.030052674 -0.119373720 0 0 0 0
5015200000 -0.089376064 -0.717338176 -0.032272518 -0.120976688 0 0 0 0
5020250000 -0.165463232 -0.698342464 -0.039293048 -0.123513736 0 0 0 0
5025300000 -0.236719984 -0.675096064 -0.040861280 -0.125898600 0 0 0 0
5030350000 -0.303312896 -0.639402752 -0.045207592 -0.127752392 0 0 0 0
5035400000 -0.367316320 -0.595866240 -0.048215540 -0.130047632 0 0 0 0
5040450000 -0.426665664 -0.540573184 -0.052404792 -0.132233728 0 0 0 0
5045500000 -0.476803232 -0.487322912 -0.057355288 -0.134069560 0 0 0 0
5050550000 -0.517913216 -0.424312160 -0.061382760 -0.136488416 0 0 0 0
5055600000 -0.554014272 -0.356538400 -0.067016012 -0.138234960 0 0 0 0
5060650000 -0.576455744 -0.296416352 -0.070522064 -0.141472192 0 0 0 0
5065700000 -0.596653440 -0.227864640 -0.076994848 -0.143157952 0 0 0 0
5070750000 -0.608466368 -0.167097056 -0.084270448 -0.145430128 0 0 0 0
5075800000 -0.615774144 -0.090827696 -0.090351040 -0.148270416 0 0 0 0
5080850000 -0.613988416 -0.025302602 -0.099609584 -0.149116048 0 0 0 0
5085900000 -0.606613376  0.031793912 -0.105543680 -0.153124640 0 0 0 0
5090950000 -0.594831552  0.103627056 -0.115698360 -0.154046992 0 0 0 0
5096000000 -0.575766592  0.161538800 -0.126234936 -0.155447552 0 0 0 0
5101050000 -0.548005504  0.225488880 -0.136468976 -0.156963792 0 0 0 0
5106100000 -0.521081792  0.280017632 -0.150142576 -0.155483792 0 0 0 0
5111150000 -0.484127136  0.333651328 -0.162941440 -0.155599072 0 0 0 0
5116200000 -0.445694976  0.382252128 -0.177292400 -0.152820608 0 0 0 0
5121250000 -0.402729344  0.420682592 -0.191958112 -0.149220864 0 0 0 0
5126300000 -0.355865120  0.460024160 -0.206795440 -0.146058880 0 0 0 0
5131350000 -0.310106528  0.494622816 -0.224744432 -0.136535696 0 0 0 0
5136400000 -0.254300976  0.526520608 -0.240416144 -0.128045408 0 0 0 0
5141450000 -0.203782912  0.551388800 -0.257692304 -0.114155568 0 0 0 0
5146500000 -0.148776240  0.567014144 -0.274652576 -0.096962992 0 0 0 0
5151550000 -0.093310320  0.582911360 -0.288729568 -0.081439744 0 0 0 0
5156600000 -0.044120400  0.591720256 -0.301837600 -0.060529036 0 0 0 0
5161650000  0.019419096  0.600535872 -0.312472480 -0.038181364 0 0 0 0
5166700000  0.079800232  0.597169856 -0.320772608 -0.009999017 0 0 0 0
5171750000  0.132209792  0.594360384 -0.325368096  0.017441830 0 0 0 0
5176800000  0.187635520  0.578756928 -0.325629600  0.042348312 0 0 0 0
5181850000  0.242020656  0.565953664 -0.322417408  0.071377456 0 0 0 0
5186900000  0.297746560  0.547519232 -0.315444896  0.097757672 0 0 0 0
5191950000  0.350182208  0.524479616 -0.303995264  0.124507056 0 0 0 0
5197000000  0.400623456  0.494756320 -0.290983616  0.145483648 0 0 0 0
5202050000  0.446141024  0.458853248 -0.274272384  0.166162976 0 0 0 0
5207100000  0.492772832  0.424411744 -0.253266640  0.187323632 0 0 0 0
5212150000  0.535128352  0.380461376 -0.234227360  0.199978032 0 0 0 0
5217200000  0.572079808  0.335509792 -0.216020320  0.209720640 0 0 0 0
5222250000  0.604009152  0.286374912 -0.196522704  0.218199216 0 0 0 0
5227300000  0.632303616  0.233409488 -0.175509520  0.225376736 0 0 0 0
5232350000  0.655852416  0.183056848 -0.159489296  0.226409488 0 0 0 0
5237400000  0.673778688  0.118896232 -0.139324112  0.229916976 0 0 0 0
5242450000  0.685235648  0.058373280 -0.122154272  0.230481648 0 0 0 0
5247500000  0.693177792 -0.001328050 -0.108002064  0.228977056 0 0 0 0
5252550000  0.694888384 -0.062427848 -0.096465608  0.226727216 0 0 0 0
5257600000  0.688983360 -0.122465168 -0.083970440  0.223597152 0 0 0 0
5262650000  0.675929216 -0.185060512 -0.073080600  0.220984176 0 0 0 0
5267700000  0.658977536 -0.245556512 -0.064061076  0.217515776 0 0 0 0
5272750000  0.639465344 -0.304640544 -0.055138800  0.213664416 0 0 0 0
5277800000  0.606754176 -0.364146112 -0.048427736  0.211055680 0 0 0 0
5282850000  0.571539392 -0.415766144 -0.041555536  0.208511040 0 0 0 0
5287900000  0.533740512 -0.465892640 -0.036994944  0.205972688 0 0 0 0
5292950000  0.482397216 -0.513278080 -0.030734018  0.203443264 0 0 0 0
5298000000  0.442674240 -0.558492160 -0.026174914  0.202113408 0 0 0 0
5303050000  0.375345440 -0.598075904 -0.021882694  0.200523056 0 0 0 0
5308100000  0.318569408 -0.626500608 -0.015709622  0.199858016 0 0 0 0
5313150000  0.253367280 -0.655110976 -0.011110193  0.199897456 0 0 0 0
5318200000  0.175156480 -0.671041024 -0.006187886  0.199144208 0 0 0 0
5323250000  0.110125096 -0.686421376 -0.002565388  0.199030448 0 0 0 0
5328300000  0.030261400 -0.684759680  0.002460102  0.198981360 0 0 0 0
5333350000 -0.034421608 -0.679145216  0.005783571  0.199174144 0 0 0 0
5338400000 -0.112764032 -0.658502976  0.011528469  0.199249600 0 0 0 0
5343450000 -0.165751584 -0.645094016  0.014104843  0.199620320 0 0 0 0
5348500000 -0.263028352 -0.576923328  0.028068922  0.198157712 0 0 0 0
5353550000 -0.296369152 -0.568414912  0.028143746  0.198903600 0 0 0 0
5358600000 -0.351400480 -0.510332224  0.037398028  0.198184240 0 0 0 0
5363650000 -0.404362624 -0.458218848  0.039461444  0.199360000 0 0 0 0
5368700000 -0.443424608 -0.401170816  0.046462464  0.199147104 0 0 0 0
5373750000 -0.474733152 -0.348123488  0.053881160  0.198727904 0 0 0 0
5378800000 -0.502708608 -0.290822432  0.060055592  0.199169136 0 0 0 0
5383850000 -0.519313984 -0.234528944  0.066558452  0.199003392 0 0 0 0
5388900000 -0.538183552 -0.169590496  0.075372648  0.198848320 0 0 0 0
5393950000 -0.546024768 -0.108361304  0.083753376  0.198765264 0 0 0 0
5399000000 -0.548310720 -0.048752460  0.093174808  0.197685712 0 0 0 0
5404050000 -0.543088576  0.009792564  0.101061720  0.197731856 0 0 0 0
5409100000 -0.534066752  0.076186328  0.113852032  0.194738224 0 0 0 0
5414150000 -0.517859456  0.125858440  0.123069912  0.193762992 0 0 0 0
5419200000 -0.497877920  0.184780832  0.133105112  0.191451616 0 0 0 0
5424250000 -0.469185472  0.228070016  0.143951360  0.188103424 0 0 0 0
5429300000 -0.434073568  0.285953952  0.157605520  0.181616208 0 0 0 0
5434350000 -0.407685312  0.324031008  0.168925664  0.176856336 0 0 0 0
5439400000 -0.363762496  0.359099104  0.179108240  0.171965296 0 0 0 0
5444450000 -0.314921216  0.410702400  0.193771440  0.161165152 0 0 0 0
5449500000 -0.276503072  0.430022944  0.206582816  0.151007744 0 0 0 0
5454550000 -0.226546192  0.452094912  0.215578128  0.143871600 0 0 0 0
5459600000 -0.193243584  0.483890304  0.227849472  0.129326448 0 0 0 0
5464650000 -0.133291928  0.496030432  0.237855872  0.117662904 0 0 0 0
5469700000 -0.086813104  0.511346048  0.247632000  0.100988064 0 0 0 0
5474750000 -0.035708504  0.512966528  0.256241504  0.083575160 0 0 0 0
5479800000  0.011161585  0.517459456  0.263079648  0.068837912 0 0 0 0
5484850000  0.056504988  0.519266912  0.268203472  0.049020924 0 0 0 0
5489900000  0.106788632  0.507081024  0.271278976  0.034031136 0 0 0 0
5494950000  0.153584592  0.498633280  0.273497824  0.013268148 0 0 0 0
5500000000  0.193433872  0.484515680  0.272976544 -0.002333979 0 0 0 0
5505050000  0.241128768  0.468792960  0.271043552 -0.028150384 0 0 0 0
5510100000  0.279327040  0.446985120  0.267511488 -0.039563556 0 0 0 0
5515150000  0.317688160  0.426364256  0.263190960 -0.055716728 0 0 0 0
5520200000  0.355790432  0.401226176  0.255803760 -0.074704080 0 0 0 0
5525250000  0.389196800  0.373419648  0.249090544 -0.088717128 0 0 0 0
5530300000  0.422328704  0.336850528  0.239370432 -0.105579880 0 0 0 0
5535350000  0.447234048  0.308747488  0.230261872 -0.116913552 0 0 0 0
5540400000  0.474171296  0.267639280  0.219885712 -0.129659760 0 0 0 0
5545450000  0.498263552  0.230313888  0.211479600 -0.137326400 0 0 0 0
5550500000  0.517926112  0.189286608  0.199727744 -0.148263584 0 0 0 0
5555550000  0.527202432  0.147148064  0.188395952 -0.156522016 0 0 0 0
5560600000  0.544081472  0.106690616  0.177572896 -0.163845856 0 0 0 0
5565650000  0.546676352  0.058846856  0.166891904 -0.169797312 0 0 0 0
5570700000  0.554175552  0.017930916  0.156683952 -0.174584208 0 0 0 0
5575750000  0.553561536 -0.028546114  0.146190576 -0.179650848 0 0 0 0
5580800000  0.552763328 -0.076954976  0.136268832 -0.183816544 0 0 0 0
5585850000  0.544877504 -0.119407624  0.125440928 -0.187753408 0 0 0 0
5590900000  0.534472832 -0.164718064  0.118583760 -0.190184000 0 0 0 0
5595950000  0.507829312 -0.214409744  0.108021136 -0.194037568 0 0 0 0
5601000000  0.494015264 -0.257149136  0.098401872 -0.197473024 0 0 0 0
5606050000  0.471510816 -0.297958176  0.092726160 -0.198983456 0 0 0 0
5611100000  0.440379296 -0.338441120  0.083079104 -0.202585696 0 0 0 0
5616150000  0.404520160 -0.375906400  0.076069896 -0.204972240 0 0 0 0
5621200000  0.355234880 -0.416100800  0.063877800 -0.209497248 0 0 0 0
5626250000  0.328881856 -0.442757376  0.057070272 -0.211833536 0 0 0 0
5631300000  0.275780192 -0.474746656  0.046833816 -0.215020352 0 0 0 0
5636350000  0.220072688 -0.492064064  0.037725124 -0.217788032 0 0 0 0
5641400000  0.176454784 -0.510443040  0.029230034 -0.220368720 0 0 0 0
5646450000  0.111852952 -0.516432512  0.018291642 -0.222725632 0 0 0 0
5651500000  0.069568408 -0.525846848  0.006665312 -0.224983680 0 0 0 0
5656550000  0.000990632 -0.515437056 -0.004928764 -0.226713728 0 0 0 0
5661600000 -0.053271872 -0.505783616 -0.016879858 -0.228393488 0 0 0 0
5666650000 -0.102773408 -0.492296672 -0.028184506 -0.228864192 0 0 0 0
5671700000 -0.158219392 -0.468592800 -0.039912952 -0.229880112 0 0 0 0
5676750000 -0.196984848 -0.447461568 -0.051668436 -0.229629744 0 0 0 0
5681800000 -0.252802848 -0.404501760 -0.067605040 -0.228610352 0 0 0 0
5686850000 -0.280495392 -0.376000032 -0.081872680 -0.227233968 0 0 0 0
5691900000 -0.317879616 -0.337864960 -0.094491848 -0.225828624 0 0 0 0
5696950000 -0.351435232 -0.291340448 -0.111537480 -0.221188464 0 0 0 0
5702000000 -0.371221728 -0.252324992 -0.128158912 -0.216220352 0 0 0 0
5707050000 -0.398285472 -0.194938656 -0.141677568 -0.211757664 0 0 0 0
5712100000 -0.406687872 -0.154288800 -0.159003440 -0.203492816 0 0 0 0
5717150000 -0.414901216 -0.105907024 -0.171587712 -0.196476864 0 0 0 0
5722200000 -0.416647360 -0.057184828 -0.188438608 -0.185770224 0 0 0 0
5727250000 -0.417951392 -0.010876620 -0.204759040 -0.172023936 0 0 0 0
5732300000 -0.409456864  0.034238204 -0.215871488 -0.162645952 0 0 0 0
5737350000 -0.404596640  0.081651696 -0.233376672 -0.140264448 0 0 0 0
5742400000 -0.381346688  0.119320248 -0.242210656 -0.130481096 0 0 0 0
5747450000 -0.368945600  0.155945488 -0.253947712 -0.111441368 0 0 0 0
5752500000 -0.341141824  0.191537344 -0.263767072 -0.091682632 0 0 0 0
5757550000 -0.317883904  0.220063920 -0.270277312 -0.075865808 0 0 0 0
5762600000 -0.294067488  0.244987472 -0.277476448 -0.052555948 0 0 0 0
5767650000 -0.268896672  0.273516512 -0.280947776 -0.035528072 0 0 0 0
5772700000 -0.237227088  0.294878592 -0.283836160 -0.011427088 0 0 0 0
5777750000 -0.207540192  0.308539840 -0.284158304  0.010890828 0 0 0 0
5782800000 -0.179969776  0.325170048 -0.283481408  0.028232976 0 0 0 0
5787850000 -0.153693712  0.331988128 -0.280782144  0.049231092 0 0 0 0
5792900000 -0.117834272  0.344005984 -0.276340032  0.068904160 0 0 0 0
5797950000 -0.093806496  0.354246336 -0.267808144  0.093636592 0 0 0 0
5803000000 -0.060507392  0.356468544 -0.262082224  0.107001560 0 0 0 0
5808050000 -0.034435344  0.360353408 -0.250031920  0.129837304 0 0 0 0
5813100000 -0.009037082  0.360268928 -0.239890928  0.144298720 0 0 0 0
5818150000  0.023154824  0.361658176 -0.230259392  0.156815248 0 0 0 0
5823200000  0.050294300  0.358842208 -0.215012256  0.173668944 0 0 0 0
5828250000  0.078011088  0.355281312 -0.199402096  0.187283536 0 0 0 0
5833300000  0.102082440  0.350747616 -0.185432480  0.197687648 0 0 0 0
5838350000  0.121950072  0.345503744 -0.169434208  0.208639328 0 0 0 0
5843400000  0.151379824  0.338973376 -0.155916624  0.216085536 0 0 0 0
5848450000  0.175382096  0.326875552 -0.138926080  0.223646160 0 0 0 0
5853500000  0.199754736  0.319037632 -0.122493904  0.230303024 0 0 0 0
5858550000  0.228159296  0.304949760 -0.109970328  0.233424544 0 0 0 0
5863600000  0.243333856  0.288205600 -0.092382696  0.237811312 0 0 0 0
5868650000  0.268676352  0.278472000 -0.079444176  0.238929712 0 0 0 0
5873700000  0.293040224  0.251603760 -0.062101948  0.241546608 0 0 0 0
5878750000  0.313314592  0.238382960 -0.049112120  0.241809920 0 0 0 0
5883800000  0.329356768  0.213513040 -0.035236984  0.241868704 0 0 0 0
5888850000  0.349387072  0.192186368 -0.025365456  0.240688272 0 0 0 0
5893900000  0.370957568  0.162811872 -0.012234301  0.239678480 0 0 0 0
5898950000  0.382536992  0.137512080 -0.000886648  0.238119520 0 0 0 0
5904000000  0.399346784  0.111880952  0.010065627  0.236714672 0 0 0 0
5909050000  0.410122080  0.078556704  0.018957202  0.235648336 0 0 0 0
5914100000  0.414843520  0.044285936  0.030240094  0.233619872 0 0 0 0
5919150000  0.430458624  0.013647586  0.035799812  0.233231728 0 0 0 0
5924200000  0.429167136 -0.026970704  0.049192916  0.231767808 0 0 0 0
5929250000  0.436360288 -0.054609900  0.056955564  0.231539808 0 0 0 0
5934300000  0.427272096 -0.102394288  0.068437392  0.229976832 0 0 0 0
5939350000  0.403035264 -0.146694464  0.081414264  0.228370080 0 0 0 0
5944400000  0.398245088 -0.181870352  0.089038928  0.228569392 0 0 0 0
5949450000  0.383848832 -0.222234240  0.100846016  0.227416912 0 0 0 0
5954500000  0.375678304 -0.253069136  0.111074072  0.227250352 0 0 0 0
5959550000  0.335175392 -0.296490208  0.124793928  0.225200272 0 0 0 0
5964600000  0.301544512 -0.326495648  0.137086336  0.223390048 0 0 0 0
5969650000  0.273301760 -0.352542912  0.150930000  0.221149056 0 0 0 0
5974700000  0.237430432 -0.381613472  0.165364672  0.217832896 0 0 0 0
5979750000  0.202860672 -0.399789856  0.179411168  0.214082800 0 0 0 0
5984800000  0.160250368 -0.419867200  0.194680336  0.209887072 0 0 0 0
5989850000  0.115384160 -0.434259136  0.209342416  0.205021664 0 0 0 0
5994900000  0.074868184 -0.437136736  0.226948176  0.196900992 0 0 0 0
5999950000  0.001338988 -0.444561408  0.246784256  0.184763984 0 0 0 0
6005000000 -0.020184732 -0.436615840  0.261048464  0.174840848 0 0 0 0
