!File created by NanoVNA
# Hz S RI R 50
4995000000  0.199768176 -0.710296896 -0.033152144 -0.117368384 0 0 0 0
5000050000  0.126075448 -0.722048512 -0.034840448 -0.118353352 0 0 0 0
5005100000  0.059902528 -0.728257600 -0.038244732 -0.119181760 0 0 0 0
5010150000 -0.014273993 -0.728396864 -0.038726836 -0.121533264 0 0 0 0
5015200000 -0.092855744 -0.718158464 -0.041790052 -0.122945672 0 0 0 0
5020250000 -0.167756144 -0.698531456 -0.050141668 -0.124732408 0 0 0 0
5025300000 -0.240240000 -0.675573248 -0.052480416 -0.127024952 0 0 0 0
5030350000 -0.298482400 -0.644823616 -0.056458088 -0.128633856 0 0 0 0
5035400000 -0.365263008 -0.598054528 -0.059983300 -0.130949360 0 0 0 0
5040450000 -0.425855904 -0.543208320 -0.064889872 -0.132749768 0 0 0 0
5045500000 -0.477882656 -0.488294784 -0.070968144 -0.133542568 0 0 0 0
5050550000 -0.519770016 -0.428243264 -0.075877552 -0.135664480 0 0 0 0
5055600000 -0.550864192 -0.365200512 -0.081983992 -0.136734240 0 0 0 0
5060650000 -0.579358848 -0.298345568 -0.087365584 -0.138719776 0 0 0 0
5065700000 -0.599151168 -0.231623136 -0.094502616 -0.139464272 0 0 0 0
5070750000 -0.611747968 -0.165389280 -0.102726064 -0.140315376 0 0 0 0
5075800000 -0.617609344 -0.094763200 -0.108673608 -0.143021024 0 0 0 0
5080850000 -0.618625152 -0.037150916 -0.117784256 -0.143074368 0 0 0 0
5085900000 -0.612094848  0.028566006 -0.126664040 -0.144232160 0 0 0 0
5090950000 -0.599637504  0.104987216 -0.137924976 -0.142376352 0 0 0 0
5096000000 -0.581062592  0.157082080 -0.147592880 -0.143034816 0 0 0 0
5101050000 -0.557851392  0.219471872 -0.159251984 -0.141611216 0 0 0 0
5106100000 -0.532471136  0.271193248 -0.172098544 -0.138366384 0 0 0 0
5111150000 -0.494212288  0.331988896 -0.185860848 -0.134742192 0 0 0 0
5116200000 -0.459961760  0.378029088 -0.199215584 -0.130526616 0 0 0 0
5121250000 -0.418922144  0.415933856 -0.214332608 -0.122525264 0 0 0 0
5126300000 -0.364431488  0.467529216 -0.228878464 -0.113723488 0 0 0 0
5131350000 -0.328491904  0.493318048 -0.243217168 -0.103274728 0 0 0 0
5136400000 -0.271393344  0.528409824 -0.257514688 -0.090383424 0 0 0 0
5141450000 -0.218901376  0.556229888 -0.271476480 -0.074493608 0 0 0 0
5146500000 -0.158289952  0.576186432 -0.284052608 -0.053631348 0 0 0 0
5151550000 -0.102851376  0.594751232 -0.294973568 -0.033709400 0 0 0 0
5156600000 -0.051077160  0.605554048 -0.303517344 -0.009375111 0 0 0 0
5161650000  0.009300364  0.612744000 -0.309222176  0.011439868 0 0 0 0
5166700000  0.071517160  0.609504384 -0.311408928  0.038802628 0 0 0 0
5171750000  0.126992808  0.606945792 -0.309807584  0.066831588 0 0 0 0
5176800000  0.186060864  0.592581568 -0.305107936  0.091664624 0 0 0 0
5181850000  0.242883968  0.579561856 -0.295857408  0.118367584 0 0 0 0
5186900000  0.300418912  0.560576448 -0.283704928  0.141663312 0 0 0 0
5191950000  0.351692224  0.535767904 -0.270357280  0.160329744 0 0 0 0
5197000000  0.404630848  0.504480256 -0.252124992  0.180153040 0 0 0 0
5202050000  0.455260352  0.466591712 -0.231424160  0.198560976 0 0 0 0
5207100000  0.499774496  0.431350784 -0.210517072  0.211984368 0 0 0 0
5212150000  0.542707904  0.385899808 -0.192667328  0.219185744 0 0 0 0
5217200000  0.580252352  0.338811040 -0.173088368  0.225240000 0 0 0 0
5222250000  0.612525376  0.287639616 -0.153352112  0.230314496 0 0 0 0
5227300000  0.640647616  0.231307408 -0.133501400  0.232433904 0 0 0 0
5232350000  0.664109888  0.179630592 -0.115930672  0.232567664 0 0 0 0
5237400000  0.681510336  0.116034160 -0.099665944  0.231675888 0 0 0 0
5242450000  0.692323968  0.054594036 -0.087124520  0.228284704 0 0 0 0
5247500000  0.699265344 -0.004534983 -0.071540144  0.225515856 0 0 0 0
5252550000  0.698658112 -0.071162184 -0.061473068  0.221909424 0 0 0 0
5257600000  0.692855616 -0.130500528 -0.050134268  0.217502480 0 0 0 0
5262650000  0.680540096 -0.190855600 -0.043288684  0.212473936 0 0 0 0
5267700000  0.660388224 -0.255768512 -0.034038844  0.208928112 0 0 0 0
5272750000  0.640105216 -0.314011168 -0.026670974  0.204716944 0 0 0 0
5277800000  0.606563712 -0.372782144 -0.021100234  0.201166176 0 0 0 0
5282850000  0.572328640 -0.425029920 -0.014063423  0.198302256 0 0 0 0
5287900000  0.531888544 -0.474860800 -0.011609401  0.194781248 0 0 0 0
5292950000  0.480565152 -0.521892256 -0.005597259  0.192367472 0 0 0 0
5298000000  0.432003872 -0.566530752 -0.002066147  0.190416416 0 0 0 0
5303050000  0.372637952 -0.605943744  0.001519427  0.189050544 0 0 0 0
5308100000  0.309165408 -0.634621888  0.007967755  0.187470400 0 0 0 0
5313150000  0.242129616 -0.664381760  0.011613318  0.187045312 0 0 0 0
5318200000  0.170634480 -0.675399040  0.014937982  0.185849312 0 0 0 0
5323250000  0.097108296 -0.690141888  0.019788434  0.185537760 0 0 0 0
5328300000  0.027136630 -0.689111744  0.023008620  0.184837184 0 0 0 0
5333350000 -0.045759828 -0.676577856  0.028211278  0.184512160 0 0 0 0
5338400000 -0.102631880 -0.668181248  0.029445670  0.185009728 0 0 0 0
5343450000 -0.211356928 -0.611844032  0.043567828  0.182962608 0 0 0 0
5348500000 -0.247619264 -0.602914304  0.042025844  0.183653568 0 0 0 0
5353550000 -0.317238144 -0.534654016  0.055502744  0.180317744 0 0 0 0
5358600000 -0.349543808 -0.515606464  0.056862116  0.181044592 0 0 0 0
5363650000 -0.404684064 -0.460794208  0.059882804  0.181987200 0 0 0 0
5368700000 -0.443775808 -0.401464800  0.066821100  0.181007520 0 0 0 0
5373750000 -0.479057984 -0.350086944  0.074780848  0.179922944 0 0 0 0
5378800000 -0.500531328 -0.298532992  0.079663776  0.180389184 0 0 0 0
5383850000 -0.519877792 -0.241106880  0.088535760  0.178895488 0 0 0 0
5388900000 -0.537965056 -0.170470224  0.095676904  0.177973392 0 0 0 0
5393950000 -0.542385664 -0.124243384  0.103626904  0.177029808 0 0 0 0
5399000000 -0.547393088 -0.053751588  0.114385072  0.174009696 0 0 0 0
5404050000 -0.542563968  0.015161950  0.122911720  0.172074912 0 0 0 0
5409100000 -0.534282400  0.068573176  0.135410688  0.167617568 0 0 0 0
5414150000 -0.518078752  0.125946272  0.143950608  0.164819520 0 0 0 0
5419200000 -0.497511872  0.178422800  0.152984272  0.161862592 0 0 0 0
5424250000 -0.468989728  0.226258976  0.165806048  0.154348480 0 0 0 0
5429300000 -0.437938912  0.276911072  0.175907344  0.149190192 0 0 0 0
5434350000 -0.411667872  0.309839744  0.187150048  0.141295456 0 0 0 0
5439400000 -0.367924608  0.357186752  0.197438272  0.133676056 0 0 0 0
5444450000 -0.324373856  0.392006112  0.208280720  0.123820160 0 0 0 0
5449500000 -0.285898272  0.415951072  0.219044080  0.112041120 0 0 0 0
5454550000 -0.235971568  0.446387008  0.229175712  0.098851304 0 0 0 0
5459600000 -0.204845360  0.478147040  0.238750480  0.082616192 0 0 0 0
5464650000 -0.146769728  0.489362880  0.246345712  0.070093136 0 0 0 0
5469700000 -0.102615792  0.503289632  0.252769232  0.052417808 0 0 0 0
5474750000 -0.051535900  0.508185216  0.257978176  0.033979876 0 0 0 0
5479800000 -0.005186400  0.514994144  0.261972960  0.017316264 0 0 0 0
5484850000  0.037907272  0.516074304  0.263959616 -0.003320430 0 0 0 0
5489900000  0.091590120  0.510044576  0.263458880 -0.022434288 0 0 0 0
5494950000  0.138722336  0.503154688  0.262041536 -0.038132028 0 0 0 0
5500000000  0.178713888  0.489975616  0.258096512 -0.056333788 0 0 0 0
5505050000  0.227286496  0.475934528  0.251900464 -0.076946464 0 0 0 0
5510100000  0.269137344  0.457819072  0.243811840 -0.095296472 0 0 0 0
5515150000  0.308806240  0.437888608  0.235993088 -0.108993376 0 0 0 0
5520200000  0.348936384  0.414169856  0.225653824 -0.123407712 0 0 0 0
5525250000  0.385767584  0.386696800  0.213378608 -0.139338320 0 0 0 0
5530300000  0.421464992  0.351260064  0.202016400 -0.149828768 0 0 0 0
5535350000  0.449474784  0.322648928  0.189919072 -0.160307760 0 0 0 0
5540400000  0.479182208  0.280316640  0.177313088 -0.169194272 0 0 0 0
5545450000  0.505490944  0.241769296  0.164270320 -0.176908496 0 0 0 0
5550500000  0.528369536  0.200047152  0.150979680 -0.183519040 0 0 0 0
5555550000  0.539173888  0.155207120  0.137964416 -0.188406000 0 0 0 0
5560600000  0.555387008  0.111633104  0.123454168 -0.193917472 0 0 0 0
5565650000  0.566058752  0.064441904  0.115826872 -0.194266720 0 0 0 0
5570700000  0.565921728  0.012784587  0.100610968 -0.198135776 0 0 0 0
5575750000  0.570601024 -0.032292314  0.089118848 -0.199670256 0 0 0 0
5580800000  0.572475008 -0.081424152  0.081331824 -0.199910224 0 0 0 0
5585850000  0.562411200 -0.128859832  0.069136040 -0.201347776 0 0 0 0
5590900000  0.551336512 -0.178598656  0.062364176 -0.201115920 0 0 0 0
5595950000  0.531008768 -0.228218432  0.052018764 -0.201858320 0 0 0 0
5601000000  0.514602592 -0.274021696  0.041901176 -0.202319712 0 0 0 0
5606050000  0.481999456 -0.317790208  0.032888502 -0.202843728 0 0 0 0
5611100000  0.442499424 -0.363167008  0.023049012 -0.203510208 0 0 0 0
5616150000  0.419592544 -0.399729280  0.019227898 -0.203701824 0 0 0 0
5621200000  0.370551712 -0.438830112  0.009449661 -0.204680880 0 0 0 0
5626250000  0.319187904 -0.466717952 -0.002752211 -0.205105968 0 0 0 0
5631300000  0.273780416 -0.500052736 -0.010112106 -0.205611760 0 0 0 0
5636350000  0.210156080 -0.514498112 -0.020737372 -0.205837136 0 0 0 0
5641400000  0.158844608 -0.529052928 -0.029246524 -0.205778160 0 0 0 0
5646450000  0.092193432 -0.532745056 -0.041170332 -0.205357840 0 0 0 0
5651500000  0.041411448 -0.536649600 -0.051480984 -0.204680176 0 0 0 0
5656550000 -0.012325828 -0.528185920 -0.061049084 -0.203917296 0 0 0 0
5661600000 -0.070832640 -0.510848224 -0.074601368 -0.201644144 0 0 0 0
5666650000 -0.117646240 -0.495635680 -0.084231992 -0.200166320 0 0 0 0
5671700000 -0.169194816 -0.467960576 -0.094307864 -0.198293376 0 0 0 0
5676750000 -0.221059712 -0.435873056 -0.110384392 -0.192975456 0 0 0 0
5681800000 -0.258188336 -0.402481568 -0.121099744 -0.190513776 0 0 0 0
5686850000 -0.284189184 -0.369367584 -0.133456856 -0.186207360 0 0 0 0
5691900000 -0.327182688 -0.323181632 -0.145913824 -0.180721808 0 0 0 0
5696950000 -0.346936416 -0.285167712 -0.159122368 -0.174100720 0 0 0 0
5702000000 -0.368482944 -0.240220688 -0.175665840 -0.163975664 0 0 0 0
5707050000 -0.389324704 -0.190037264 -0.188067312 -0.155670720 0 0 0 0
5712100000 -0.398665056 -0.145209632 -0.200483568 -0.145890720 0 0 0 0
5717150000 -0.403848256 -0.097893616 -0.211665088 -0.134352704 0 0 0 0
5722200000 -0.408092000 -0.048232096 -0.225079376 -0.120533488 0 0 0 0
5727250000 -0.398101312 -0.019349302 -0.235811200 -0.106243424 0 0 0 0
5732300000 -0.405109152  0.043219252 -0.247355008 -0.086864272 0 0 0 0
5737350000 -0.379329920  0.063044416 -0.253766448 -0.075787832 0 0 0 0
5742400000 -0.369037440  0.113843616 -0.262687984 -0.054538680 0 0 0 0
5747450000 -0.352219328  0.138748000 -0.268557856 -0.035538668 0 0 0 0
5752500000 -0.327854688  0.172844256 -0.273320736 -0.016437730 0 0 0 0
5757550000 -0.309423552  0.201759648 -0.276605408  0.001742416 0 0 0 0
5762600000 -0.288669472  0.225605456 -0.277970688  0.024173480 0 0 0 0
5767650000 -0.264961008  0.251521200 -0.276912416  0.043970816 0 0 0 0
5772700000 -0.237171072  0.272385888 -0.274700032  0.064755856 0 0 0 0
5777750000 -0.210964272  0.286229440 -0.270205664  0.087731688 0 0 0 0
5782800000 -0.185754112  0.303271424 -0.266332992  0.103866296 0 0 0 0
5787850000 -0.166129664  0.316812416 -0.256546048  0.127882616 0 0 0 0
5792900000 -0.128209848  0.326100928 -0.251399072  0.139246304 0 0 0 0
5797950000 -0.104097080  0.337170080 -0.239631136  0.158701104 0 0 0 0
5803000000 -0.079782952  0.346785856 -0.224368048  0.179567744 0 0 0 0
5808050000 -0.049366748  0.351330016 -0.210991248  0.195203072 0 0 0 0
5813100000 -0.024518400  0.355414880 -0.198459216  0.207166064 0 0 0 0
5818150000  0.007294621  0.359174144 -0.184760896  0.218363696 0 0 0 0
5823200000  0.034907556  0.360527616 -0.166513376  0.230961856 0 0 0 0
5828250000  0.063437848  0.359620512 -0.148017040  0.241467248 0 0 0 0
5833300000  0.088791352  0.357643968 -0.130861360  0.249198864 0 0 0 0
5838350000  0.111427096  0.354943360 -0.113659352  0.255431264 0 0 0 0
5843400000  0.143201344  0.349818720 -0.097594560  0.260411360 0 0 0 0
5848450000  0.171892352  0.339641280 -0.078418904  0.264614528 0 0 0 0
5853500000  0.196006112  0.331327456 -0.059354972  0.267427776 0 0 0 0
5858550000  0.230800352  0.320431072 -0.047187908  0.267788448 0 0 0 0
5863600000  0.248295568  0.301538496 -0.026667202  0.268324704 0 0 0 0
5868650000  0.276758688  0.290749984 -0.014584273  0.266190112 0 0 0 0
5873700000  0.307683104  0.267602064  0.002904519  0.264679488 0 0 0 0
5878750000  0.326323584  0.248119120  0.014690704  0.262606112 0 0 0 0
5883800000  0.346483072  0.223140272  0.030362084  0.259386624 0 0 0 0
5888850000  0.368781888  0.198263072  0.040630400  0.256442704 0 0 0 0
5893900000  0.390508288  0.166347936  0.052973784  0.252753712 0 0 0 0
5898950000  0.403564448  0.139143856  0.063290144  0.248509280 0 0 0 0
5904000000  0.418564960  0.105113280  0.075821760  0.244901280 0 0 0 0
5909050000  0.434494848  0.075768256  0.083686504  0.242270240 0 0 0 0
5914100000  0.433623776  0.034151016  0.095709264  0.237886032 0 0 0 0
5919150000  0.447557120 -0.000550511  0.105269800  0.235281024 0 0 0 0
5924200000  0.456192864 -0.034200176  0.113724272  0.233169488 0 0 0 0
5929250000  0.432457824 -0.086598688  0.130527776  0.226857504 0 0 0 0
5934300000  0.455594464 -0.110465264  0.131245632  0.229293696 0 0 0 0
5939350000  0.412126624 -0.167297440  0.150914688  0.221260624 0 0 0 0
5944400000  0.405092480 -0.201109264  0.158760112  0.220093664 0 0 0 0
5949450000  0.386446208 -0.240035280  0.171549728  0.216951552 0 0 0 0
5954500000  0.368235360 -0.275493664  0.185925728  0.211816256 0 0 0 0
5959550000  0.336118400 -0.310455200  0.197620848  0.207531088 0 0 0 0
5964600000  0.300170880 -0.339505888  0.213165952  0.201173904 0 0 0 0
5969650000  0.276264864 -0.361435296  0.224752160  0.198256128 0 0 0 0
5974700000  0.228749200 -0.390636064  0.243082992  0.186203504 0 0 0 0
5979750000  0.180043584 -0.407922624  0.259318080  0.175827136 0 0 0 0
5984800000  0.138977840 -0.423723296  0.273933856  0.166620624 0 0 0 0
5989850000  0.104450056 -0.429912096  0.288008512  0.156526832 0 0 0 0
5994900000  0.046285516 -0.435117440  0.307045088  0.137007760 0 0 0 0
5999950000  0.003121601 -0.432259808  0.319701184  0.125377400 0 0 0 0
6005000000 -0.029040626 -0.426499072  0.335591776  0.101421312 0 0 0 0
